Freq.	V(vout)
2.00000000000000e+01	9.99223987175557e-01,-1.99803571025142e-02
2.01391110011344e+01	9.99218412278650e-01,-2.01192192261854e-02
2.02791895958006e+01	9.99212759622598e-01,-2.02590448549790e-02
2.04202425141439e+01	9.99207028123707e-01,-2.03998406411159e-02
2.05622765331213e+01	9.99201216683208e-01,-2.05416132820489e-02
2.07052984768276e+01	9.99195324187044e-01,-2.06843695207549e-02
2.08493152168224e+01	9.99189349505660e-01,-2.08281161460301e-02
2.09943336724614e+01	9.99183291493785e-01,-2.09728599927853e-02
2.11403608112276e+01	9.99177148990219e-01,-2.11186079423440e-02
2.12874036490672e+01	9.99170920817609e-01,-2.12653669227414e-02
2.14354692507259e+01	9.99164605782226e-01,-2.14131439090252e-02
2.15845647300886e+01	9.99158202673739e-01,-2.15619459235578e-02
2.17346972505212e+01	9.99151710264983e-01,-2.17117800363206e-02
2.18858740252148e+01	9.99145127311726e-01,-2.18626533652193e-02
2.20381023175322e+01	9.99138452552434e-01,-2.20145730763909e-02
2.21913894413569e+01	9.99131684708031e-01,-2.21675463845128e-02
2.23457427614444e+01	9.99124822481656e-01,-2.23215805531127e-02
2.25011696937762e+01	9.99117864558415e-01,-2.24766828948808e-02
2.26576777059160e+01	9.99110809605133e-01,-2.26328607719830e-02
2.28152743173685e+01	9.99103656270101e-01,-2.27901215963762e-02
2.29739670999407e+01	9.99096403182819e-01,-2.29484728301249e-02
2.31337636781058e+01	9.99089048953735e-01,-2.31079219857191e-02
2.32946717293691e+01	9.99081592173983e-01,-2.32684766263946e-02
2.34566989846376e+01	9.99074031415114e-01,-2.34301443664542e-02
2.36198532285906e+01	9.99066365228826e-01,-2.35929328715905e-02
2.37841423000545e+01	9.99058592146689e-01,-2.37568498592105e-02
2.39495740923786e+01	9.99050710679867e-01,-2.39219030987618e-02
2.41161565538152e+01	9.99042719318835e-01,-2.40881004120603e-02
2.42838976879010e+01	9.99034616533094e-01,-2.42554496736192e-02
2.44528055538414e+01	9.99026400770879e-01,-2.44239588109802e-02
2.46228882668984e+01	9.99018070458867e-01,-2.45936358050452e-02
2.47941539987798e+01	9.99009624001878e-01,-2.47644886904108e-02
2.49666109780323e+01	9.99001059782571e-01,-2.49365255557035e-02
2.51402674904366e+01	9.98992376161143e-01,-2.51097545439167e-02
2.53151318794057e+01	9.98983571475013e-01,-2.52841838527492e-02
2.54912125463853e+01	9.98974644038510e-01,-2.54598217349450e-02
2.56685179512581e+01	9.98965592142553e-01,-2.56366764986354e-02
2.58470566127499e+01	9.98956414054329e-01,-2.58147565076816e-02
2.60268371088387e+01	9.98947108016962e-01,-2.59940701820195e-02
2.62078680771673e+01	9.98937672249187e-01,-2.61746259980056e-02
2.63901582154580e+01	9.98928104945005e-01,-2.63564324887647e-02
2.65737162819303e+01	9.98918404273349e-01,-2.65394982445391e-02
2.67585510957223e+01	9.98908568377732e-01,-2.67238319130387e-02
2.69446715373139e+01	9.98898595375901e-01,-2.69094421997933e-02
2.71320865489535e+01	9.98888483359479e-01,-2.70963378685059e-02
2.73208051350880e+01	9.98878230393603e-01,-2.72845277414077e-02
2.75108363627950e+01	9.98867834516564e-01,-2.74740206996143e-02
2.77021893622186e+01	9.98857293739431e-01,-2.76648256834835e-02
2.78948733270082e+01	9.98846606045677e-01,-2.78569516929742e-02
2.80888975147600e+01	9.98835769390803e-01,-2.80504077880073e-02
2.82842712474620e+01	9.98824781701945e-01,-2.82452030888274e-02
2.84810039119415e+01	9.98813640877489e-01,-2.84413467763659e-02
2.86791049603166e+01	9.98802344786673e-01,-2.86388480926060e-02
2.88785839104500e+01	9.98790891269183e-01,-2.88377163409484e-02
2.90794503464063e+01	9.98779278134752e-01,-2.90379608865789e-02
2.92817139189126e+01	9.98767503162739e-01,-2.92395911568364e-02
2.94853843458221e+01	9.98755564101718e-01,-2.94426166415834e-02
2.96904714125811e+01	9.98743458669051e-01,-2.96470468935769e-02
2.98969849726989e+01	9.98731184550460e-01,-2.98528915288408e-02
3.01049349482215e+01	9.98718739399587e-01,-3.00601602270395e-02
3.03143313302081e+01	9.98706120837561e-01,-3.02688627318530e-02
3.05251841792113e+01	9.98693326452541e-01,-3.04790088513528e-02
3.07375036257604e+01	9.98680353799270e-01,-3.06906084583789e-02
3.09512998708479e+01	9.98667200398614e-01,-3.09036714909189e-02
3.11665831864201e+01	9.98653863737092e-01,-3.11182079524867e-02
3.13833639158702e+01	9.98640341266410e-01,-3.13342279125035e-02
3.16016524745352e+01	9.98626630402977e-01,-3.15517415066797e-02
3.18214593501969e+01	9.98612728527426e-01,-3.17707589373974e-02
3.20427951035850e+01	9.98598632984116e-01,-3.19912904740943e-02
3.22656703688852e+01	9.98584341080640e-01,-3.22133464536485e-02
3.24900958542496e+01	9.98569850087317e-01,-3.24369372807644e-02
3.27160823423114e+01	9.98555157236679e-01,-3.26620734283592e-02
3.29436406907031e+01	9.98540259722957e-01,-3.28887654379508e-02
3.31727818325778e+01	9.98525154701552e-01,-3.31170239200465e-02
3.34035167771350e+01	9.98509839288503e-01,-3.33468595545319e-02
3.36358566101488e+01	9.98494310559947e-01,-3.35782830910617e-02
3.38698124945013e+01	9.98478565551574e-01,-3.38113053494505e-02
3.41053956707185e+01	9.98462601258071e-01,-3.40459372200647e-02
3.43426174575103e+01	9.98446414632561e-01,-3.42821896642149e-02
3.45814892523148e+01	9.98430002586030e-01,-3.45200737145493e-02
3.48220225318452e+01	9.98413361986758e-01,-3.47596004754476e-02
3.50642288526416e+01	9.98396489659726e-01,-3.50007811234153e-02
3.53081198516264e+01	9.98379382386028e-01,-3.52436269074791e-02
3.55537072466630e+01	9.98362036902268e-01,-3.54881491495824e-02
3.58010028371191e+01	9.98344449899955e-01,-3.57343592449811e-02
3.60500185044334e+01	9.98326618024882e-01,-3.59822686626407e-02
3.63007662126867e+01	9.98308537876504e-01,-3.62318889456330e-02
3.65532580091762e+01	9.98290206007304e-01,-3.64832317115333e-02
3.68075060249952e+01	9.98271618922150e-01,-3.67363086528186e-02
3.70635224756151e+01	9.98252773077646e-01,-3.69911315372647e-02
3.73213196614725e+01	9.98233664881474e-01,-3.72477122083451e-02
3.75809099685607e+01	9.98214290691722e-01,-3.75060625856290e-02
3.78423058690241e+01	9.98194646816212e-01,-3.77661946651795e-02
3.81055199217578e+01	9.98174729511812e-01,-3.80281205199527e-02
3.83705647730108e+01	9.98154534983741e-01,-3.82918523001955e-02
3.86374531569941e+01	9.98134059384865e-01,-3.85574022338444e-02
3.89061978964917e+01	9.98113298814985e-01,-3.88247826269240e-02
3.91768119034774e+01	9.98092249320112e-01,-3.90940058639447e-02
3.94493081797347e+01	9.98070906891737e-01,-3.93650844083012e-02
3.97236998174817e+01	9.98049267466084e-01,-3.96380308026696e-02
4.00000000000003e+01	9.98027326923365e-01,-3.99128576694050e-02
4.02782220022691e+01	9.98005081087010e-01,-4.01895777109383e-02
4.05583791916015e+01	9.97982525722903e-01,-4.04682037101728e-02
4.08404850282880e+01	9.97959656538593e-01,-4.07487485308795e-02
4.11245530662430e+01	9.97936469182504e-01,-4.10312251180926e-02
4.14105969536554e+01	9.97912959243133e-01,-4.13156464985042e-02
4.16986304336452e+01	9.97889122248234e-01,-4.16020257808576e-02
4.19886673449230e+01	9.97864953663996e-01,-4.18903761563401e-02
4.22807216224556e+01	9.97840448894206e-01,-4.21807108989754e-02
4.25748072981347e+01	9.97815603279402e-01,-4.24730433660140e-02
4.28709385014521e+01	9.97790412096017e-01,-4.27673869983231e-02
4.31691294601774e+01	9.97764870555512e-01,-4.30637553207752e-02
4.34693945010427e+01	9.97738973803493e-01,-4.33621619426357e-02
4.37717480504299e+01	9.97712716918817e-01,-4.36626205579482e-02
4.40762046350648e+01	9.97686094912699e-01,-4.39651449459197e-02
4.43827788827142e+01	9.97659102727783e-01,-4.42697489713028e-02
4.46914855228892e+01	9.97631735237227e-01,-4.45764465847777e-02
4.50023393875528e+01	9.97603987243757e-01,-4.48852518233314e-02
4.53153554118323e+01	9.97575853478718e-01,-4.51961788106353e-02
4.56305486347374e+01	9.97547328601108e-01,-4.55092417574210e-02
4.59479341998818e+01	9.97518407196607e-01,-4.58244549618544e-02
4.62675273562119e+01	9.97489083776581e-01,-4.61418328099062e-02
4.65893434587387e+01	9.97459352777084e-01,-4.64613897757225e-02
4.69133979692756e+01	9.97429208557845e-01,-4.67831404219903e-02
4.72397064571817e+01	9.97398645401234e-01,-4.71070994003027e-02
4.75682846001093e+01	9.97367657511228e-01,-4.74332814515204e-02
4.78991481847576e+01	9.97336239012349e-01,-4.77617014061303e-02
4.82323131076309e+01	9.97304383948601e-01,-4.80923741846022e-02
4.85677953758023e+01	9.97272086282386e-01,-4.84253147977411e-02
4.89056111076832e+01	9.97239339893406e-01,-4.87605383470377e-02
4.92457765337971e+01	9.97206138577556e-01,-4.90980600250148e-02
4.95883079975600e+01	9.97172476045797e-01,-4.94378951155706e-02
4.99332219560650e+01	9.97138345923019e-01,-4.97800589943183e-02
5.02805349808736e+01	9.97103741746884e-01,-5.01245671289222e-02
5.06302637588117e+01	9.97068656966661e-01,-5.04714350794295e-02
5.09824250927710e+01	9.97033084942042e-01,-5.08206784985991e-02
5.13370359025167e+01	9.96997018941944e-01,-5.11723131322250e-02
5.16941132255002e+01	9.96960452143293e-01,-5.15263548194561e-02
5.20536742176779e+01	9.96923377629797e-01,-5.18828194931117e-02
5.24157361543351e+01	9.96885788390700e-01,-5.22417231799917e-02
5.27803164309163e+01	9.96847677319523e-01,-5.26030820011827e-02
5.31474325638610e+01	9.96809037212785e-01,-5.29669121723587e-02
5.35171021914451e+01	9.96769860768714e-01,-5.33332300040766e-02
5.38893430746282e+01	9.96730140585931e-01,-5.37020519020667e-02
5.42641730979075e+01	9.96689869162135e-01,-5.40733943675175e-02
5.46416102701764e+01	9.96649038892750e-01,-5.44472739973548e-02
5.50216727255904e+01	9.96607642069572e-01,-5.48237074845148e-02
5.54043787244376e+01	9.96565670879390e-01,-5.52027116182110e-02
5.57897466540169e+01	9.96523117402594e-01,-5.55843032841958e-02
5.61777950295205e+01	9.96479973611766e-01,-5.59684994650139e-02
5.65685424949245e+01	9.96436231370243e-01,-5.63553172402503e-02
5.69620078238835e+01	9.96391882430682e-01,-5.67447737867710e-02
5.73582099206338e+01	9.96346918433586e-01,-5.71368863789564e-02
5.77571678209005e+01	9.96301330905826e-01,-5.75316723889275e-02
5.81589006928131e+01	9.96255111259139e-01,-5.79291492867643e-02
5.85634278378257e+01	9.96208250788608e-01,-5.83293346407166e-02
5.89707686916448e+01	9.96160740671123e-01,-5.87322461174069e-02
5.93809428251627e+01	9.96112571963825e-01,-5.91379014820241e-02
5.97939699453983e+01	9.96063735602527e-01,-5.95463185985097e-02
6.02098698964434e+01	9.96014222400119e-01,-5.99575154297345e-02
6.06286626604167e+01	9.95964023044952e-01,-6.03715100376665e-02
6.10503683584231e+01	9.95913128099205e-01,-6.07883205835294e-02
6.14750072515213e+01	9.95861527997224e-01,-6.12079653279513e-02
6.19025997416964e+01	9.95809213043852e-01,-6.16304626311036e-02
6.23331663728408e+01	9.95756173412730e-01,-6.20558309528302e-02
6.27667278317409e+01	9.95702399144579e-01,-6.24840888527649e-02
6.32033049490710e+01	9.95647880145467e-01,-6.29152549904399e-02
6.36429187003943e+01	9.95592606185045e-01,-6.33493481253814e-02
6.40855902071706e+01	9.95536566894773e-01,-6.37863871171954e-02
6.45313407377709e+01	9.95479751766115e-01,-6.42263909256402e-02
6.49801917084997e+01	9.95422150148715e-01,-6.46693786106886e-02
6.54321646846233e+01	9.95363751248557e-01,-6.51153693325762e-02
6.58872813814067e+01	9.95304544126097e-01,-6.55643823518382e-02
6.63455636651562e+01	9.95244517694370e-01,-6.60164370293324e-02
6.68070335542704e+01	9.95183660717085e-01,-6.64715528262492e-02
6.72717132202981e+01	9.95121961806686e-01,-6.69297493041081e-02
6.77396249890031e+01	9.95059409422399e-01,-6.73910461247392e-02
6.82107913414375e+01	9.94995991868250e-01,-6.78554630502516e-02
6.86852349150212e+01	9.94931697291062e-01,-6.83230199429858e-02
6.91629785046302e+01	9.94866513678429e-01,-6.87937367654513e-02
6.96440450636909e+01	9.94800428856665e-01,-6.92676335802491e-02
7.01284577052838e+01	9.94733430488730e-01,-6.97447305499769e-02
7.06162397032534e+01	9.94665506072135e-01,-7.02250479371197e-02
7.11074144933266e+01	9.94596642936812e-01,-7.07086061039216e-02
7.16020056742388e+01	9.94526828242976e-01,-7.11954255122420e-02
7.21000370088674e+01	9.94456048978944e-01,-7.16855267233931e-02
7.26015324253739e+01	9.94384291958948e-01,-7.21789303979598e-02
7.31065160183531e+01	9.94311543820904e-01,-7.26756572956005e-02
7.36150120499911e+01	9.94237791024172e-01,-7.31757282748294e-02
7.41270449512307e+01	9.94163019847279e-01,-7.36791642927790e-02
7.46426393229457e+01	9.94087216385622e-01,-7.41859864049429e-02
7.51618199371220e+01	9.94010366549146e-01,-7.46962157648972e-02
7.56846117380488e+01	9.93932456059988e-01,-7.52098736240026e-02
7.62110398435161e+01	9.93853470450108e-01,-7.57269813310833e-02
7.67411295460223e+01	9.93773395058880e-01,-7.62475603320850e-02
7.72749063139888e+01	9.93692215030663e-01,-7.67716321697100e-02
7.78123957929840e+01	9.93609915312347e-01,-7.72992184830292e-02
7.83536238069553e+01	9.93526480650868e-01,-7.78303410070710e-02
7.88986163594699e+01	9.93441895590694e-01,-7.83650215723852e-02
7.94473996349641e+01	9.93356144471294e-01,-7.89032821045828e-02
8.00000000000012e+01	9.93269211424563e-01,-7.94451446238504e-02
8.05564440045387e+01	9.93181080372235e-01,-7.99906312444389e-02
8.11167583832036e+01	9.93091735023258e-01,-8.05397641741252e-02
8.16809700565767e+01	9.93001158871147e-01,-8.10925657136472e-02
8.22491061324866e+01	9.92909335191301e-01,-8.16490582561111e-02
8.28211939073115e+01	9.92816247038303e-01,-8.22092642863702e-02
8.33972608672910e+01	9.92721877243179e-01,-8.27732063803748e-02
8.39773346898467e+01	9.92626208410637e-01,-8.33409072044928e-02
8.45614432449118e+01	9.92529222916277e-01,-8.39123895147989e-02
8.51496145962701e+01	9.92430902903761e-01,-8.44876761563346e-02
8.57418770029048e+01	9.92331230281971e-01,-8.50667900623347e-02
8.63382589203556e+01	9.92230186722124e-01,-8.56497542534224e-02
8.69387890020860e+01	9.92127753654861e-01,-8.62365918367715e-02
8.75434961008606e+01	9.92023912267311e-01,-8.68273260052340e-02
8.81524092701303e+01	9.91918643500121e-01,-8.74219800364339e-02
8.87655577654290e+01	9.91811928044455e-01,-8.80205772918251e-02
8.93829710457790e+01	9.91703746338969e-01,-8.86231412157134e-02
9.00046787751062e+01	9.91594078566746e-01,-8.92296953342419e-02
9.06307108236654e+01	9.91482904652216e-01,-8.98402632543382e-02
9.12610972694754e+01	9.91370204258026e-01,-9.04548686626241e-02
9.18958683997643e+01	9.91255956781900e-01,-9.10735353242844e-02
9.25350547124245e+01	9.91140141353454e-01,-9.16962870818971e-02
9.31786869174780e+01	9.91022736830986e-01,-9.23231478542220e-02
9.38267959385519e+01	9.90903721798236e-01,-9.29541416349473e-02
9.44794129143640e+01	9.90783074561115e-01,-9.35892924913937e-02
9.51365692002193e+01	9.90660773144403e-01,-9.42286245631747e-02
9.57982963695159e+01	9.90536795288414e-01,-9.48721620608126e-02
9.64646262152625e+01	9.90411118445636e-01,-9.55199292643091e-02
9.71355907516054e+01	9.90283719777336e-01,-9.61719505216687e-02
9.78112222153672e+01	9.90154576150132e-01,-9.68282502473758e-02
9.84915530675950e+01	9.90023664132545e-01,-9.74888529208232e-02
9.91766159951206e+01	9.89890959991506e-01,-9.81537830846905e-02
9.98664439121307e+01	9.89756439688842e-01,-9.88230653432732e-02
1.00561069961748e+02	9.89620078877730e-01,-9.94967243607598e-02
1.01260527517624e+02	9.89481852899120e-01,-1.00174784859457e-01
1.01964850185543e+02	9.89341736778123e-01,-1.00857271617961e-01
1.02674071805034e+02	9.89199705220376e-01,-1.01544209469275e-01
1.03388226451001e+02	9.89055732608373e-01,-1.02235623298869e-01
1.04107348435357e+02	9.88909792997764e-01,-1.02931538042688e-01
1.04831472308671e+02	9.88761860113629e-01,-1.03631978685095e-01
1.05560632861833e+02	9.88611907346717e-01,-1.04336970256762e-01
1.06294865127723e+02	9.88459907749659e-01,-1.05046537832497e-01
1.07034204382891e+02	9.88305834033147e-01,-1.05760706529009e-01
1.07778686149257e+02	9.88149658562091e-01,-1.06479501502615e-01
1.08528346195816e+02	9.87991353351738e-01,-1.07202947946880e-01
1.09283220540354e+02	9.87830890063767e-01,-1.07931071090192e-01
1.10043345451182e+02	9.87668240002357e-01,-1.08663896193272e-01
1.10808757448876e+02	9.87503374110221e-01,-1.09401448546614e-01
1.11579493308035e+02	9.87336262964618e-01,-1.10143753467865e-01
1.12355590059042e+02	9.87166876773327e-01,-1.10890836299121e-01
1.13137084989850e+02	9.86995185370611e-01,-1.11642722404165e-01
1.13924015647768e+02	9.86821158213134e-01,-1.12399437165626e-01
1.14716419841268e+02	9.86644764375862e-01,-1.13161005982061e-01
1.15514335641802e+02	9.86465972547938e-01,-1.13927454264973e-01
1.16317801385627e+02	9.86284751028528e-01,-1.14698807435737e-01
1.17126855675652e+02	9.86101067722637e-01,-1.15475090922463e-01
1.17941537383290e+02	9.85914890136913e-01,-1.16256330156769e-01
1.18761885650326e+02	9.85726185375408e-01,-1.17042550570477e-01
1.19587939890797e+02	9.85534920135333e-01,-1.17833777592226e-01
1.20419739792888e+02	9.85341060702774e-01,-1.18630036644003e-01
1.21257325320834e+02	9.85144572948395e-01,-1.19431353137586e-01
1.22100736716847e+02	9.84945422323116e-01,-1.20237752470902e-01
1.22950014503043e+02	9.84743573853765e-01,-1.21049260024295e-01
1.23805199483394e+02	9.84538992138712e-01,-1.21865901156705e-01
1.24666332745682e+02	9.84331641343484e-01,-1.22687701201756e-01
1.25533455663483e+02	9.84121485196358e-01,-1.23514685463753e-01
1.26406609898143e+02	9.83908486983931e-01,-1.24346879213577e-01
1.27285837400790e+02	9.83692609546680e-01,-1.25184307684492e-01
1.28171180414342e+02	9.83473815274499e-01,-1.26026996067849e-01
1.29062681475543e+02	9.83252066102218e-01,-1.26874969508694e-01
1.29960383417000e+02	9.83027323505109e-01,-1.27728253101271e-01
1.30864329369248e+02	9.82799548494378e-01,-1.28586871884426e-01
1.31774562762814e+02	9.82568701612637e-01,-1.29450850836903e-01
1.32691127330313e+02	9.82334742929374e-01,-1.30320214872536e-01
1.33614067108542e+02	9.82097632036395e-01,-1.31194988835331e-01
1.34543426440597e+02	9.81857328043275e-01,-1.32075197494442e-01
1.35479249978007e+02	9.81613789572779e-01,-1.32960865539029e-01
1.36421582682876e+02	9.81366974756288e-01,-1.33852017573010e-01
1.37370469830043e+02	9.81116841229214e-01,-1.34748678109693e-01
1.38325957009261e+02	9.80863346126408e-01,-1.35650871566293e-01
1.39288090127383e+02	9.80606446077561e-01,-1.36558622258328e-01
1.40256915410569e+02	9.80346097202606e-01,-1.37471954393899e-01
1.41232479406508e+02	9.80082255107117e-01,-1.38390892067841e-01
1.42214828986654e+02	9.79814874877700e-01,-1.39315459255760e-01
1.43204011348479e+02	9.79543911077400e-01,-1.40245679807930e-01
1.44200074017736e+02	9.79269317741091e-01,-1.41181577443074e-01
1.45203064850749e+02	9.78991048370889e-01,-1.42123175742009e-01
1.46213032036707e+02	9.78709055931554e-01,-1.43070498141160e-01
1.47230024099983e+02	9.78423292845913e-01,-1.44023567925945e-01
1.48254089902463e+02	9.78133710990282e-01,-1.44982408224013e-01
1.49285278645892e+02	9.77840261689905e-01,-1.45947041998359e-01
1.50323639874245e+02	9.77542895714401e-01,-1.46917492040289e-01
1.51369223476099e+02	9.77241563273232e-01,-1.47893780962246e-01
1.52422079687033e+02	9.76936214011180e-01,-1.48875931190496e-01
1.53482259092046e+02	9.76626797003851e-01,-1.49863964957663e-01
1.54549812627979e+02	9.76313260753191e-01,-1.50857904295125e-01
1.55624791585969e+02	9.75995553183034e-01,-1.51857771025248e-01
1.56707247613912e+02	9.75673621634668e-01,-1.52863586753485e-01
1.57797232718941e+02	9.75347412862435e-01,-1.53875372860306e-01
1.58894799269929e+02	9.75016873029354e-01,-1.54893150492986e-01
1.60000000000004e+02	9.74681947702783e-01,-1.55916940557225e-01
1.61112888009079e+02	9.74342581850117e-01,-1.56946763708619e-01
1.62233516766408e+02	9.73998719834513e-01,-1.57982640343962e-01
1.63361940113155e+02	9.73650305410669e-01,-1.59024590592389e-01
1.64498212264974e+02	9.73297281720638e-01,-1.60072634306355e-01
1.65642387814624e+02	9.72939591289692e-01,-1.61126791052443e-01
1.66794521734583e+02	9.72577176022228e-01,-1.62187080102010e-01
1.67954669379695e+02	9.72209977197741e-01,-1.63253520421654e-01
1.69122886489825e+02	9.71837935466831e-01,-1.64326130663516e-01
1.70299229192542e+02	9.71460990847291e-01,-1.65404929155406e-01
1.71483754005811e+02	9.71079082720237e-01,-1.66489933890749e-01
1.72676517840712e+02	9.70692149826317e-01,-1.67581162518354e-01
