Freq.	V(vout)
2.00000000000000e+01	-9.99357802700157e-09,-2.50239625170142e-06
2.01391110011344e+01	-9.99366201128129e-09,-2.48511038421015e-06
2.02791895958006e+01	-9.99374477751991e-09,-2.46794391507457e-06
2.04202425141439e+01	-9.99382634162386e-09,-2.45089601952320e-06
2.05622765331213e+01	-9.99390671926852e-09,-2.43396587848148e-06
2.07052984768276e+01	-9.99398592590124e-09,-2.41715267853244e-06
2.08493152168224e+01	-9.99406397674436e-09,-2.40045561187759e-06
2.09943336724614e+01	-9.99414088679805e-09,-2.38387387629812e-06
2.11403608112276e+01	-9.99421667084327e-09,-2.36740667511636e-06
2.12874036490672e+01	-9.99429134344459e-09,-2.35105321715751e-06
2.14354692507259e+01	-9.99436491895293e-09,-2.33481271671161e-06
2.15845647300886e+01	-9.99443741150842e-09,-2.31868439349581e-06
2.17346972505212e+01	-9.99450883504304e-09,-2.30266747261686e-06
2.18858740252148e+01	-9.99457920328333e-09,-2.28676118453390e-06
2.20381023175322e+01	-9.99464852975300e-09,-2.27096476502146e-06
2.21913894413569e+01	-9.99471682777560e-09,-2.25527745513278e-06
2.23457427614444e+01	-9.99478411047697e-09,-2.23969850116332e-06
2.25011696937762e+01	-9.99485039078786e-09,-2.22422715461454e-06
2.26576777059160e+01	-9.99491568144637e-09,-2.20886267215798e-06
2.28152743173685e+01	-9.99497999500040e-09,-2.19360431559949e-06
2.29739670999407e+01	-9.99504334381007e-09,-2.17845135184380e-06
2.31337636781058e+01	-9.99510574005012e-09,-2.16340305285930e-06
2.32946717293691e+01	-9.99516719571216e-09,-2.14845869564304e-06
2.34566989846376e+01	-9.99522772260710e-09,-2.13361756218601e-06
2.36198532285906e+01	-9.99528733236733e-09,-2.11887893943863e-06
2.37841423000545e+01	-9.99534603644898e-09,-2.10424211927651e-06
2.39495740923786e+01	-9.99540384613415e-09,-2.08970639846639e-06
2.41161565538152e+01	-9.99546077253302e-09,-2.07527107863241e-06
2.42838976879010e+01	-9.99551682658604e-09,-2.06093546622250e-06
2.44528055538414e+01	-9.99557201906601e-09,-2.04669887247509e-06
2.46228882668984e+01	-9.99562636058013e-09,-2.03256061338603e-06
2.47941539987798e+01	-9.99567986157209e-09,-2.01852000967568e-06
2.49666109780323e+01	-9.99573253232404e-09,-2.00457638675631e-06
2.51402674904366e+01	-9.99578438295856e-09,-1.99072907469969e-06
2.53151318794057e+01	-9.99583542344062e-09,-1.97697740820488e-06
2.54912125463853e+01	-9.99588566357953e-09,-1.96332072656628e-06
2.56685179512581e+01	-9.99593511303072e-09,-1.94975837364189e-06
2.58470566127499e+01	-9.99598378129773e-09,-1.93628969782178e-06
2.60268371088387e+01	-9.99603167773396e-09,-1.92291405199678e-06
2.62078680771673e+01	-9.99607881154445e-09,-1.90963079352739e-06
2.63901582154580e+01	-9.99612519178769e-09,-1.89643928421292e-06
2.65737162819303e+01	-9.99617082737738e-09,-1.88333889026080e-06
2.67585510957223e+01	-9.99621572708407e-09,-1.87032898225614e-06
2.69446715373139e+01	-9.99625989953691e-09,-1.85740893513150e-06
2.71320865489535e+01	-9.99630335322528e-09,-1.84457812813685e-06
2.73208051350880e+01	-9.99634609650044e-09,-1.83183594480974e-06
2.75108363627950e+01	-9.99638813757711e-09,-1.81918177294571e-06
2.77021893622186e+01	-9.99642948453507e-09,-1.80661500456882e-06
2.78948733270082e+01	-9.99647014532071e-09,-1.79413503590250e-06
2.80888975147600e+01	-9.99651012774854e-09,-1.78174126734050e-06
2.82842712474620e+01	-9.99654943950271e-09,-1.76943310341812e-06
2.84810039119415e+01	-9.99658808813847e-09,-1.75720995278354e-06
2.86791049603166e+01	-9.99662608108367e-09,-1.74507122816949e-06
2.88785839104500e+01	-9.99666342564012e-09,-1.73301634636495e-06
2.90794503464063e+01	-9.99670012898502e-09,-1.72104472818719e-06
2.92817139189126e+01	-9.99673619817236e-09,-1.70915579845392e-06
2.94853843458221e+01	-9.99677164013426e-09,-1.69734898595567e-06
2.96904714125811e+01	-9.99680646168230e-09,-1.68562372342830e-06
2.98969849726989e+01	-9.99684066950882e-09,-1.67397944752580e-06
3.01049349482215e+01	-9.99687427018824e-09,-1.66241559879322e-06
3.03143313302081e+01	-9.99690727017828e-09,-1.65093162163974e-06
3.05251841792113e+01	-9.99693967582124e-09,-1.63952696431203e-06
3.07375036257604e+01	-9.99697149334517e-09,-1.62820107886772e-06
3.09512998708479e+01	-9.99700272886515e-09,-1.61695342114906e-06
3.11665831864201e+01	-9.99703338838438e-09,-1.60578345075680e-06
3.13833639158702e+01	-9.99706347779536e-09,-1.59469063102423e-06
3.16016524745352e+01	-9.99709300288107e-09,-1.58367442899136e-06
3.18214593501969e+01	-9.99712196931599e-09,-1.57273431537934e-06
3.20427951035850e+01	-9.99715038266729e-09,-1.56186976456503e-06
3.22656703688852e+01	-9.99717824839583e-09,-1.55108025455575e-06
3.24900958542496e+01	-9.99720557185724e-09,-1.54036526696418e-06
3.27160823423114e+01	-9.99723235830294e-09,-1.52972428698347e-06
3.29436406907031e+01	-9.99725861288114e-09,-1.51915680336252e-06
3.31727818325778e+01	-9.99728434063788e-09,-1.50866230838137e-06
3.34035167771350e+01	-9.99730954651790e-09,-1.49824029782685e-06
3.36358566101488e+01	-9.99733423536571e-09,-1.48789027096834e-06
3.38698124945013e+01	-9.99735841192643e-09,-1.47761173053372e-06
3.41053956707185e+01	-9.99738208084675e-09,-1.46740418268546e-06
3.43426174575103e+01	-9.99740524667580e-09,-1.45726713699691e-06
3.45814892523148e+01	-9.99742791386605e-09,-1.44720010642873e-06
3.48220225318452e+01	-9.99745008677413e-09,-1.43720260730550e-06
3.50642288526416e+01	-9.99747176966169e-09,-1.42727415929245e-06
3.53081198516264e+01	-9.99749296669621e-09,-1.41741428537243e-06
3.55537072466630e+01	-9.99751368195184e-09,-1.40762251182295e-06
3.58010028371191e+01	-9.99753391941012e-09,-1.39789836819345e-06
3.60500185044334e+01	-9.99755368296078e-09,-1.38824138728267e-06
3.63007662126867e+01	-9.99757297640249e-09,-1.37865110511623e-06
3.65532580091762e+01	-9.99759180344358e-09,-1.36912706092432e-06
3.68075060249952e+01	-9.99761016770277e-09,-1.35966879711956e-06
3.70635224756151e+01	-9.99762807270982e-09,-1.35027585927502e-06
3.73213196614725e+01	-9.99764552190630e-09,-1.34094779610241e-06
3.75809099685607e+01	-9.99766251864613e-09,-1.33168415943036e-06
3.78423058690241e+01	-9.99767906619632e-09,-1.32248450418290e-06
3.81055199217578e+01	-9.99769516773758e-09,-1.31334838835808e-06
3.83705647730108e+01	-9.99771082636489e-09,-1.30427537300675e-06
3.86374531569941e+01	-9.99772604508814e-09,-1.29526502221144e-06
3.89061978964917e+01	-9.99774082683270e-09,-1.28631690306543e-06
3.91768119034774e+01	-9.99775517443995e-09,-1.27743058565196e-06
3.94493081797347e+01	-9.99776909066787e-09,-1.26860564302356e-06
3.97236998174817e+01	-9.99778257819154e-09,-1.25984165118154e-06
4.00000000000003e+01	-9.99779563960370e-09,-1.25113818905562e-06
4.02782220022691e+01	-9.99780827741516e-09,-1.24249483848371e-06
4.05583791916015e+01	-9.99782049405540e-09,-1.23391118419180e-06
4.08404850282880e+01	-9.99783229187293e-09,-1.22538681377404e-06
4.11245530662430e+01	-9.99784367313580e-09,-1.21692131767287e-06
4.14105969536554e+01	-9.99785464003204e-09,-1.20851428915940e-06
4.16986304336452e+01	-9.99786519467005e-09,-1.20016532431384e-06
4.19886673449230e+01	-9.99787533907903e-09,-1.19187402200609e-06
4.22807216224556e+01	-9.99788507520934e-09,-1.18363998387650e-06
4.25748072981347e+01	-9.99789440493293e-09,-1.17546281431667e-06
4.28709385014521e+01	-9.99790333004364e-09,-1.16734212045051e-06
4.31691294601774e+01	-9.99791185225760e-09,-1.15927751211533e-06
4.34693945010427e+01	-9.99791997321351e-09,-1.15126860184308e-06
4.37717480504299e+01	-9.99792769447298e-09,-1.14331500484176e-06
4.40762046350648e+01	-9.99793501752085e-09,-1.13541633897694e-06
4.43827788827142e+01	-9.99794194376543e-09,-1.12757222475337e-06
4.46914855228892e+01	-9.99794847453881e-09,-1.11978228529676e-06
4.50023393875528e+01	-9.99795461109712e-09,-1.11204614633568e-06
4.53153554118323e+01	-9.99796035462072e-09,-1.10436343618357e-06
4.56305486347374e+01	-9.99796570621451e-09,-1.09673378572089e-06
4.59479341998818e+01	-9.99797066690805e-09,-1.08915682837738e-06
4.62675273562119e+01	-9.99797523765583e-09,-1.08163220011443e-06
4.65893434587387e+01	-9.99797941933743e-09,-1.07415953940764e-06
4.69133979692756e+01	-9.99798321275769e-09,-1.06673848722938e-06
4.72397064571817e+01	-9.99798661864686e-09,-1.05936868703162e-06
4.75682846001093e+01	-9.99798963766075e-09,-1.05204978472872e-06
4.78991481847576e+01	-9.99799227038085e-09,-1.04478142868048e-06
4.82323131076309e+01	-9.99799451731444e-09,-1.03756326967522e-06
4.85677953758023e+01	-9.99799637889474e-09,-1.03039496091300e-06
4.89056111076832e+01	-9.99799785548087e-09,-1.02327615798894e-06
4.92457765337971e+01	-9.99799894735808e-09,-1.01620651887672e-06
4.95883079975600e+01	-9.99799965473766e-09,-1.00918570391212e-06
4.99332219560650e+01	-9.99799997775710e-09,-1.00221337577670e-06
5.02805349808736e+01	-9.99799991648002e-09,-9.95289199481572e-07
5.06302637588117e+01	-9.99799947089627e-09,-9.88412842351362e-07
5.09824250927710e+01	-9.99799864092185e-09,-9.81583974008173e-07
5.13370359025167e+01	-9.99799742639896e-09,-9.74802266355739e-07
5.16941132255002e+01	-9.99799582709592e-09,-9.68067393563651e-07
5.20536742176779e+01	-9.99799384270718e-09,-9.61379032051709e-07
5.24157361543351e+01	-9.99799147285320e-09,-9.54736860474370e-07
5.27803164309163e+01	-9.99798871708043e-09,-9.48140559705312e-07
5.31474325638610e+01	-9.99798557486121e-09,-9.41589812822100e-07
5.35171021914451e+01	-9.99798204559364e-09,-9.35084305090960e-07
5.38893430746282e+01	-9.99797812860155e-09,-9.28623723951659e-07
5.42641730979075e+01	-9.99797382313423e-09,-9.22207759002483e-07
5.46416102701764e+01	-9.99796912836644e-09,-9.15836101985330e-07
5.50216727255904e+01	-9.99796404339816e-09,-9.09508446770895e-07
5.54043787244376e+01	-9.99795856725443e-09,-9.03224489343965e-07
5.57897466540169e+01	-9.99795269888518e-09,-8.96983927788809e-07
5.61777950295205e+01	-9.99794643716506e-09,-8.90786462274675e-07
5.65685424949245e+01	-9.99793978089315e-09,-8.84631795041385e-07
5.69620078238835e+01	-9.99793272879280e-09,-8.78519630385027e-07
5.73582099206338e+01	-9.99792527951133e-09,-8.72449674643747e-07
5.77571678209005e+01	-9.99791743161986e-09,-8.66421636183646e-07
5.81589006928131e+01	-9.99790918361291e-09,-8.60435225384759e-07
5.85634278378257e+01	-9.99790053390824e-09,-8.54490154627149e-07
5.89707686916448e+01	-9.99789148084644e-09,-8.48586138277082e-07
5.93809428251627e+01	-9.99788202269073e-09,-8.42722892673307e-07
5.97939699453983e+01	-9.99787215762648e-09,-8.36900136113426e-07
6.02098698964434e+01	-9.99786188376102e-09,-8.31117588840359e-07
6.06286626604167e+01	-9.99785119912317e-09,-8.25374973028905e-07
6.10503683584231e+01	-9.99784010166289e-09,-8.19672012772393e-07
6.14750072515213e+01	-9.99782858925093e-09,-8.14008434069426e-07
6.19025997416964e+01	-9.99781665967836e-09,-8.08383964810713e-07
6.23331663728408e+01	-9.99780431065620e-09,-8.02798334766002e-07
6.27667278317409e+01	-9.99779153981495e-09,-7.97251275571093e-07
6.32033049490710e+01	-9.99777834470414e-09,-7.91742520714942e-07
6.36429187003943e+01	-9.99776472279191e-09,-7.86271805526864e-07
6.40855902071706e+01	-9.99775067146444e-09,-7.80838867163807e-07
6.45313407377709e+01	-9.99773618802553e-09,-7.75443444597731e-07
6.49801917084997e+01	-9.99772126969604e-09,-7.70085278603065e-07
6.54321646846233e+01	-9.99770591361339e-09,-7.64764111744251e-07
6.58872813814067e+01	-9.99769011683098e-09,-7.59479688363376e-07
6.63455636651562e+01	-9.99767387631765e-09,-7.54231754567890e-07
6.68070335542704e+01	-9.99765718895709e-09,-7.49020058218406e-07
6.72717132202981e+01	-9.99764005154725e-09,-7.43844348916590e-07
6.77396249890031e+01	-9.99762246079974e-09,-7.38704377993122e-07
6.82107913414375e+01	-9.99760441333918e-09,-7.33599898495759e-07
6.86852349150212e+01	-9.99758590570258e-09,-7.28530665177462e-07
6.91629785046302e+01	-9.99756693433863e-09,-7.23496434484619e-07
6.96440450636909e+01	-9.99754749560708e-09,-7.18496964545338e-07
7.01284577052838e+01	-9.99752758577803e-09,-7.13532015157831e-07
7.06162397032534e+01	-9.99750720103120e-09,-7.08601347778870e-07
7.11074144933266e+01	-9.99748633745519e-09,-7.03704725512328e-07
7.16020056742388e+01	-9.99746499104678e-09,-6.98841913097798e-07
7.21000370088674e+01	-9.99744315771011e-09,-6.94012676899287e-07
7.26015324253739e+01	-9.99742083325596e-09,-6.89216784893995e-07
7.31065160183531e+01	-9.99739801340089e-09,-6.84454006661162e-07
7.36150120499911e+01	-9.99737469376645e-09,-6.79724113371004e-07
7.41270449512307e+01	-9.99735086987836e-09,-6.75026877773714e-07
7.46426393229457e+01	-9.99732653716560e-09,-6.70362074188543e-07
7.51618199371220e+01	-9.99730169095961e-09,-6.65729478492964e-07
7.56846117380488e+01	-9.99727632649337e-09,-6.61128868111896e-07
7.62110398435161e+01	-9.99725043890044e-09,-6.56560022007015e-07
7.67411295460223e+01	-9.99722402321410e-09,-6.52022720666133e-07
7.72749063139888e+01	-9.99719707436640e-09,-6.47516746092651e-07
7.78123957929840e+01	-9.99716958718714e-09,-6.43041881795088e-07
7.83536238069553e+01	-9.99714155640290e-09,-6.38597912776675e-07
7.88986163594699e+01	-9.99711297663610e-09,-6.34184625525031e-07
7.94473996349641e+01	-9.99708384240385e-09,-6.29801808001898e-07
8.00000000000012e+01	-9.99705414811703e-09,-6.25449249632962e-07
8.05564440045387e+01	-9.99702388807914e-09,-6.21126741297729e-07
8.11167583832036e+01	-9.99699305648526e-09,-6.16834075319482e-07
8.16809700565767e+01	-9.99696164742090e-09,-6.12571045455300e-07
8.22491061324866e+01	-9.99692965486090e-09,-6.08337446886152e-07
8.28211939073115e+01	-9.99689707266830e-09,-6.04133076207055e-07
8.33972608672910e+01	-9.99686389459310e-09,-5.99957731417302e-07
8.39773346898467e+01	-9.99683011427116e-09,-5.95811211910755e-07
8.45614432449118e+01	-9.99679572522289e-09,-5.91693318466213e-07
8.51496145962701e+01	-9.99676072085213e-09,-5.87603853237830e-07
8.57418770029048e+01	-9.99672509444475e-09,-5.83542619745622e-07
8.63382589203556e+01	-9.99668883916749e-09,-5.79509422866015e-07
8.69387890020860e+01	-9.99665194806660e-09,-5.75504068822481e-07
8.75434961008606e+01	-9.99661441406653e-09,-5.71526365176220e-07
8.81524092701303e+01	-9.99657622996859e-09,-5.67576120816920e-07
8.87655577654290e+01	-9.99653738844954e-09,-5.63653145953571e-07
8.93829710457790e+01	-9.99649788206023e-09,-5.59757252105351e-07
9.00046787751062e+01	-9.99645770322417e-09,-5.55888252092563e-07
9.06307108236654e+01	-9.99641684423610e-09,-5.52045960027654e-07
9.12610972694754e+01	-9.99637529726049e-09,-5.48230191306272e-07
9.18958683997643e+01	-9.99633305433007e-09,-5.44440762598403e-07
9.25350547124245e+01	-9.99629010734432e-09,-5.40677491839564e-07
9.31786869174780e+01	-9.99624644806789e-09,-5.36940198222050e-07
9.38267959385519e+01	-9.99620206812907e-09,-5.33228702186256e-07
9.44794129143640e+01	-9.99615695901820e-09,-5.29542825412041e-07
9.51365692002193e+01	-9.99611111208599e-09,-5.25882390810168e-07
9.57982963695159e+01	-9.99606451854194e-09,-5.22247222513790e-07
9.64646262152625e+01	-9.99601716945265e-09,-5.18637145870007e-07
9.71355907516054e+01	-9.99596905574010e-09,-5.15051987431467e-07
9.78112222153672e+01	-9.99592016817990e-09,-5.11491574948042e-07
9.84915530675950e+01	-9.99587049739962e-09,-5.07955737358545e-07
9.91766159951206e+01	-9.99582003387691e-09,-5.04444304782514e-07
9.98664439121307e+01	-9.99576876793777e-09,-5.00957108512053e-07
1.00561069961748e+02	-9.99571668975462e-09,-4.97493981003721e-07
1.01260527517624e+02	-9.99566378934453e-09,-4.94054755870488e-07
1.01964850185543e+02	-9.99561005656724e-09,-4.90639267873739e-07
1.02674071805034e+02	-9.99555548112327e-09,-4.87247352915333e-07
1.03388226451001e+02	-9.99550005255197e-09,-4.83878848029723e-07
1.04107348435357e+02	-9.99544376022949e-09,-4.80533591376125e-07
1.04831472308671e+02	-9.99538659336680e-09,-4.77211422230740e-07
1.05560632861833e+02	-9.99532854100763e-09,-4.73912180979039e-07
1.06294865127723e+02	-9.99526959202637e-09,-4.70635709108086e-07
1.07034204382891e+02	-9.99520973512598e-09,-4.67381849198928e-07
1.07778686149257e+02	-9.99514895883582e-09,-4.64150444919032e-07
1.08528346195816e+02	-9.99508725150949e-09,-4.60941341014772e-07
1.09283220540354e+02	-9.99502460132261e-09,-4.57754383303970e-07
1.10043345451182e+02	-9.99496099627056e-09,-4.54589418668492e-07
1.10808757448876e+02	-9.99489642416625e-09,-4.51446295046888e-07
1.11579493308035e+02	-9.99483087263773e-09,-4.48324861427088e-07
1.12355590059042e+02	-9.99476432912590e-09,-4.45224967839146e-07
1.13137084989850e+02	-9.99469678088213e-09,-4.42146465348038e-07
1.13924015647768e+02	-9.99462821496577e-09,-4.39089206046502e-07
1.14716419841268e+02	-9.99455861824178e-09,-4.36053043047937e-07
1.15514335641802e+02	-9.99448797737820e-09,-4.33037830479342e-07
1.16317801385627e+02	-9.99441627884360e-09,-4.30043423474311e-07
1.17126855675652e+02	-9.99434350890455e-09,-4.27069678166071e-07
1.17941537383290e+02	-9.99426965362302e-09,-4.24116451680571e-07
1.18761885650326e+02	-9.99419469885369e-09,-4.21183602129619e-07
1.19587939890797e+02	-9.99411863024131e-09,-4.18270988604065e-07
1.20419739792888e+02	-9.99404143321795e-09,-4.15378471167029e-07
1.21257325320834e+02	-9.99396309300031e-09,-4.12505910847182e-07
1.22100736716847e+02	-9.99388359458680e-09,-4.09653169632066e-07
1.22950014503043e+02	-9.99380292275481e-09,-4.06820110461466e-07
1.23805199483394e+02	-9.99372106205776e-09,-4.04006597220826e-07
1.24666332745682e+02	-9.99363799682222e-09,-4.01212494734705e-07
1.25533455663483e+02	-9.99355371114489e-09,-3.98437668760290e-07
1.26406609898143e+02	-9.99346818888964e-09,-3.95681985980940e-07
1.27285837400790e+02	-9.99338141368443e-09,-3.92945313999786e-07
1.28171180414342e+02	-9.99329336891822e-09,-3.90227521333368e-07
1.29062681475543e+02	-9.99320403773784e-09,-3.87528477405321e-07
1.29960383417000e+02	-9.99311340304478e-09,-3.84848052540099e-07
1.30864329369248e+02	-9.99302144749195e-09,-3.82186117956744e-07
1.31774562762814e+02	-9.99292815348046e-09,-3.79542545762706e-07
1.32691127330313e+02	-9.99283350315622e-09,-3.76917208947692e-07
1.33614067108542e+02	-9.99273747840660e-09,-3.74309981377567e-07
1.34543426440597e+02	-9.99264006085703e-09,-3.71720737788295e-07
1.35479249978007e+02	-9.99254123186749e-09,-3.69149353779921e-07
1.36421582682876e+02	-9.99244097252901e-09,-3.66595705810594e-07
1.37370469830043e+02	-9.99233926366010e-09,-3.64059671190632e-07
1.38325957009261e+02	-9.99223608580315e-09,-3.61541128076629e-07
1.39288090127383e+02	-9.99213141922068e-09,-3.59039955465602e-07
1.40256915410569e+02	-9.99202524389175e-09,-3.56556033189177e-07
1.41232479406508e+02	-9.99191753950806e-09,-3.54089241907814e-07
1.42214828986654e+02	-9.99180828547019e-09,-3.51639463105081e-07
1.43204011348479e+02	-9.99169746088368e-09,-3.49206579081951e-07
1.44200074017736e+02	-9.99158504455513e-09,-3.46790472951157e-07
1.45203064850749e+02	-9.99147101498819e-09,-3.44391028631571e-07
1.46213032036707e+02	-9.99135535037950e-09,-3.42008130842628e-07
1.47230024099983e+02	-9.99123802861459e-09,-3.39641665098794e-07
1.48254089902463e+02	-9.99111902726373e-09,-3.37291517704056e-07
1.49285278645892e+02	-9.99099832357771e-09,-3.34957575746472e-07
1.50323639874245e+02	-9.99087589448355e-09,-3.32639727092736e-07
1.51369223476099e+02	-9.99075171658015e-09,-3.30337860382799e-07
1.52422079687033e+02	-9.99062576613393e-09,-3.28051865024519e-07
1.53482259092046e+02	-9.99049801907431e-09,-3.25781631188342e-07
1.54549812627979e+02	-9.99036845098924e-09,-3.23527049802034e-07
1.55624791585969e+02	-9.99023703712061e-09,-3.21288012545438e-07
1.56707247613912e+02	-9.99010375235956e-09,-3.19064411845269e-07
1.57797232718941e+02	-9.98996857124181e-09,-3.16856140869952e-07
1.58894799269929e+02	-9.98983146794286e-09,-3.14663093524482e-07
1.60000000000004e+02	-9.98969241627315e-09,-3.12485164445337e-07
1.61112888009079e+02	-9.98955138967316e-09,-3.10322248995410e-07
1.62233516766408e+02	-9.98940836120840e-09,-3.08174243258985e-07
1.63361940113155e+02	-9.98926330356442e-09,-3.06041044036747e-07
1.64498212264974e+02	-9.98911618904161e-09,-3.03922548840821e-07
1.65642387814624e+02	-9.98896698955010e-09,-3.01818655889855e-07
1.66794521734583e+02	-9.98881567660443e-09,-2.99729264104124e-07
