Freq.	V(vout)
1.00000000000000e-02	9.97495418145964e-01,-6.63444347943890e-05
1.00695555005672e-02	9.97495418084366e-01,-6.68058968274606e-05
1.01395947979003e-02	9.97495418021908e-01,-6.72705685827159e-05
1.02101212570719e-02	9.97495417958578e-01,-6.77384723855363e-05
1.02811382665607e-02	9.97495417894364e-01,-6.82096307165885e-05
1.03526492384138e-02	9.97495417829254e-01,-6.86840662129048e-05
1.04246576084112e-02	9.97495417763234e-01,-6.91618016689702e-05
1.04971668362307e-02	9.97495417696293e-01,-6.96428600378179e-05
1.05701804056138e-02	9.97495417628418e-01,-7.01272644321322e-05
1.06437018245336e-02	9.97495417559596e-01,-7.06150381253585e-05
1.07177346253629e-02	9.97495417489812e-01,-7.11062045528221e-05
1.07922823650443e-02	9.97495417419054e-01,-7.16007873128535e-05
1.08673486252606e-02	9.97495417347309e-01,-7.20988101679228e-05
1.09429370126074e-02	9.97495417274562e-01,-7.26002970457809e-05
1.10190511587661e-02	9.97495417200800e-01,-7.31052720406095e-05
1.10956947206785e-02	9.97495417126008e-01,-7.36137594141785e-05
1.11728713807222e-02	9.97495417050172e-01,-7.41257835970116e-05
1.12505848468881e-02	9.97495416973277e-01,-7.46413691895601e-05
1.13288388529580e-02	9.97495416895308e-01,-7.51605409633853e-05
1.14076371586843e-02	9.97495416816252e-01,-7.56833238623479e-05
1.14869835499704e-02	9.97495416736092e-01,-7.62097430038070e-05
1.15668818390529e-02	9.97495416654813e-01,-7.67398236798267e-05
1.16473358646846e-02	9.97495416572399e-01,-7.72735913583911e-05
1.17283494923188e-02	9.97495416488834e-01,-7.78110716846283e-05
1.18099266142953e-02	9.97495416404104e-01,-7.83522904820421e-05
1.18920711500272e-02	9.97495416318190e-01,-7.88972737537532e-05
1.19747870461893e-02	9.97495416231077e-01,-7.94460476837479e-05
1.20580782769076e-02	9.97495416142748e-01,-7.99986386381368e-05
1.21419488439505e-02	9.97495416053186e-01,-8.05550731664209e-05
1.22264027769207e-02	9.97495415962374e-01,-8.11153780027679e-05
1.23114441334492e-02	9.97495415870294e-01,-8.16795800672958e-05
1.23970769993899e-02	9.97495415776929e-01,-8.22477064673674e-05
1.24833054890162e-02	9.97495415682260e-01,-8.28197844988913e-05
1.25701337452183e-02	9.97495415586270e-01,-8.33958416476347e-05
1.26575659397028e-02	9.97495415488940e-01,-8.39759055905432e-05
1.27456062731927e-02	9.97495415390252e-01,-8.45600041970704e-05
1.28342589756291e-02	9.97495415290185e-01,-8.51481655305176e-05
1.29235283063750e-02	9.97495415188722e-01,-8.57404178493816e-05
1.30134185544194e-02	9.97495415085842e-01,-8.63367896087124e-05
1.31039340385837e-02	9.97495414981526e-01,-8.69373094614805e-05
1.31950791077290e-02	9.97495414875754e-01,-8.75420062599535e-05
1.32868581409652e-02	9.97495414768506e-01,-8.81509090570824e-05
1.33792755478612e-02	9.97495414659760e-01,-8.87640471078973e-05
1.34723357686569e-02	9.97495414549496e-01,-8.93814498709129e-05
1.35660432744768e-02	9.97495414437694e-01,-9.00031470095443e-05
1.36604025675440e-02	9.97495414324330e-01,-9.06291683935316e-05
1.37554181813975e-02	9.97495414209384e-01,-9.12595441003753e-05
1.38510946811093e-02	9.97495414092833e-01,-9.18943044167816e-05
1.39474366635041e-02	9.97495413974655e-01,-9.25334798401170e-05
1.40444487573800e-02	9.97495413854828e-01,-9.31771010798742e-05
1.41421356237310e-02	9.97495413733328e-01,-9.38251990591468e-05
1.42405019559708e-02	9.97495413610132e-01,-9.44778049161158e-05
1.43395524801583e-02	9.97495413485216e-01,-9.51349500055450e-05
1.44392919552250e-02	9.97495413358556e-01,-9.57966659002880e-05
1.45397251732032e-02	9.97495413230128e-01,-9.64629843928046e-05
1.46408569594563e-02	9.97495413099908e-01,-9.71339374966886e-05
1.47426921729111e-02	9.97495412967869e-01,-9.78095574482060e-05
1.48452357062906e-02	9.97495412833988e-01,-9.84898767078434e-05
1.49484924863495e-02	9.97495412698237e-01,-9.91749279618680e-05
1.50524674741107e-02	9.97495412560591e-01,-9.98647441238978e-05
1.51571656651041e-02	9.97495412421025e-01,-1.00559358336483e-04
1.52625920896057e-02	9.97495412279509e-01,-1.01258803972698e-04
1.53687518128802e-02	9.97495412136018e-01,-1.01963114637746e-04
1.54756499354240e-02	9.97495411990525e-01,-1.02672324170573e-04
1.55832915932101e-02	9.97495411843000e-01,-1.03386466645490e-04
1.56916819579351e-02	9.97495411693416e-01,-1.04105576373819e-04
1.58008262372676e-02	9.97495411541743e-01,-1.04829687905531e-04
1.59107296750985e-02	9.97495411387954e-01,-1.05558836030913e-04
1.60213975517925e-02	9.97495411232017e-01,-1.06293055782239e-04
1.61328351844426e-02	9.97495411073904e-01,-1.07032382435448e-04
1.62450479271248e-02	9.97495410913584e-01,-1.07776851511845e-04
1.63580411711557e-02	9.97495410751025e-01,-1.08526498779805e-04
1.64718203453516e-02	9.97495410586198e-01,-1.09281360256491e-04
1.65863909162889e-02	9.97495410419069e-01,-1.10041472209584e-04
1.67017583885675e-02	9.97495410249608e-01,-1.10806871159028e-04
1.68179283050744e-02	9.97495410077781e-01,-1.11577593878783e-04
1.69349062472506e-02	9.97495409903555e-01,-1.12353677398591e-04
1.70526978353592e-02	9.97495409726897e-01,-1.13135159005757e-04
1.71713087287552e-02	9.97495409547773e-01,-1.13922076246939e-04
1.72907446261574e-02	9.97495409366149e-01,-1.14714466929953e-04
1.74110112659226e-02	9.97495409181989e-01,-1.15512369125588e-04
1.75321144263208e-02	9.97495408995259e-01,-1.16315821169436e-04
1.76540599258132e-02	9.97495408805921e-01,-1.17124861663737e-04
1.77768536233315e-02	9.97495408613941e-01,-1.17939529479227e-04
1.79005014185596e-02	9.97495408419281e-01,-1.18759863757009e-04
1.80250092522167e-02	9.97495408221904e-01,-1.19585903910438e-04
1.81503831063433e-02	9.97495408021771e-01,-1.20417689627005e-04
1.82766290045881e-02	9.97495407818844e-01,-1.21255260870252e-04
1.84037530124976e-02	9.97495407613085e-01,-1.22098657881689e-04
1.85317612378075e-02	9.97495407404453e-01,-1.22947921182728e-04
1.86606598307363e-02	9.97495407192909e-01,-1.23803091576629e-04
1.87904549842804e-02	9.97495406978412e-01,-1.24664210150459e-04
1.89211529345121e-02	9.97495406760921e-01,-1.25531318277072e-04
1.90527599608789e-02	9.97495406540394e-01,-1.26404457617088e-04
1.91852823865054e-02	9.97495406316788e-01,-1.27283670120903e-04
1.93187265784971e-02	9.97495406090060e-01,-1.28168998030700e-04
1.94530989482459e-02	9.97495405860168e-01,-1.29060483882477e-04
1.95884059517387e-02	9.97495405627067e-01,-1.29958170508097e-04
1.97246540898673e-02	9.97495405390711e-01,-1.30862101037338e-04
1.98618499087409e-02	9.97495405151057e-01,-1.31772318899971e-04
2.00000000000002e-02	9.97495404908056e-01,-1.32688867827846e-04
2.01391110011345e-02	9.97495404661664e-01,-1.33611791856988e-04
2.02791895958007e-02	9.97495404411832e-01,-1.34541135329720e-04
2.04202425141440e-02	9.97495404158513e-01,-1.35476942896789e-04
2.05622765331215e-02	9.97495403901657e-01,-1.36419259519510e-04
2.07052984768277e-02	9.97495403641216e-01,-1.37368130471933e-04
2.08493152168226e-02	9.97495403377139e-01,-1.38323601343008e-04
2.09943336724615e-02	9.97495403109376e-01,-1.39285718038786e-04
2.11403608112278e-02	9.97495402837875e-01,-1.40254526784616e-04
2.12874036490674e-02	9.97495402562584e-01,-1.41230074127371e-04
2.14354692507260e-02	9.97495402283450e-01,-1.42212406937682e-04
2.15845647300887e-02	9.97495402000419e-01,-1.43201572412191e-04
2.17346972505213e-02	9.97495401713438e-01,-1.44197618075819e-04
2.18858740252150e-02	9.97495401422450e-01,-1.45200591784048e-04
2.20381023175324e-02	9.97495401127401e-01,-1.46210541725219e-04
2.21913894413571e-02	9.97495400828232e-01,-1.47227516422852e-04
2.23457427614446e-02	9.97495400524887e-01,-1.48251564737974e-04
2.25011696937764e-02	9.97495400217308e-01,-1.49282735871464e-04
2.26576777059162e-02	9.97495399905436e-01,-1.50321079366423e-04
2.28152743173687e-02	9.97495399589209e-01,-1.51366645110550e-04
2.29739670999409e-02	9.97495399268568e-01,-1.52419483338539e-04
2.31337636781060e-02	9.97495398943452e-01,-1.53479644634496e-04
2.32946717293693e-02	9.97495398613797e-01,-1.54547179934363e-04
2.34566989846378e-02	9.97495398279540e-01,-1.55622140528373e-04
2.36198532285908e-02	9.97495397940617e-01,-1.56704578063508e-04
2.37841423000546e-02	9.97495397596962e-01,-1.57794544545982e-04
2.39495740923788e-02	9.97495397248511e-01,-1.58892092343744e-04
2.41161565538154e-02	9.97495396895195e-01,-1.59997274188986e-04
2.42838976879012e-02	9.97495396536947e-01,-1.61110143180684e-04
2.44528055538416e-02	9.97495396173699e-01,-1.62230752787144e-04
2.46228882668986e-02	9.97495395805379e-01,-1.63359156848575e-04
2.47941539987800e-02	9.97495395431918e-01,-1.64495409579672e-04
2.49666109780325e-02	9.97495395053244e-01,-1.65639565572223e-04
2.51402674904368e-02	9.97495394669283e-01,-1.66791679797731e-04
2.53151318794058e-02	9.97495394279963e-01,-1.67951807610057e-04
2.54912125463855e-02	9.97495393885208e-01,-1.69120004748077e-04
2.56685179512583e-02	9.97495393484942e-01,-1.70296327338360e-04
2.58470566127501e-02	9.97495393079089e-01,-1.71480831897866e-04
2.60268371088389e-02	9.97495392667571e-01,-1.72673575336663e-04
2.62078680771675e-02	9.97495392250307e-01,-1.73874614960656e-04
2.63901582154582e-02	9.97495391827219e-01,-1.75084008474346e-04
2.65737162819305e-02	9.97495391398225e-01,-1.76301813983598e-04
2.67585510957225e-02	9.97495390963243e-01,-1.77528089998436e-04
2.69446715373141e-02	9.97495390522188e-01,-1.78762895435851e-04
2.71320865489537e-02	9.97495390074976e-01,-1.80006289622636e-04
2.73208051350882e-02	9.97495389621522e-01,-1.81258332298232e-04
2.75108363627952e-02	9.97495389161738e-01,-1.82519083617599e-04
2.77021893622188e-02	9.97495388695535e-01,-1.83788604154110e-04
2.78948733270084e-02	9.97495388222824e-01,-1.85066954902456e-04
2.80888975147602e-02	9.97495387743514e-01,-1.86354197281579e-04
2.82842712474622e-02	9.97495387257514e-01,-1.87650393137623e-04
2.84810039119417e-02	9.97495386764729e-01,-1.88955604746907e-04
2.86791049603169e-02	9.97495386265065e-01,-1.90269894818912e-04
2.88785839104502e-02	9.97495385758427e-01,-1.91593326499299e-04
2.90794503464065e-02	9.97495385244715e-01,-1.92925963372941e-04
2.92817139189128e-02	9.97495384723833e-01,-1.94267869466977e-04
2.94853843458224e-02	9.97495384195679e-01,-1.95619109253891e-04
2.96904714125813e-02	9.97495383660153e-01,-1.96979747654604e-04
2.98969849726991e-02	9.97495383117151e-01,-1.98349850041601e-04
3.01049349482217e-02	9.97495382566569e-01,-1.99729482242064e-04
3.03143313302083e-02	9.97495382008301e-01,-2.01118710541041e-04
3.05251841792115e-02	9.97495381442240e-01,-2.02517601684627e-04
3.07375036257606e-02	9.97495380868277e-01,-2.03926222883171e-04
3.09512998708482e-02	9.97495380286302e-01,-2.05344641814507e-04
3.11665831864204e-02	9.97495379696202e-01,-2.06772926627204e-04
3.13833639158704e-02	9.97495379097865e-01,-2.08211145943841e-04
3.16016524745355e-02	9.97495378491176e-01,-2.09659368864302e-04
3.18214593501971e-02	9.97495377876018e-01,-2.11117664969101e-04
3.20427951035853e-02	9.97495377252272e-01,-2.12586104322719e-04
3.22656703688854e-02	9.97495376619820e-01,-2.14064757476973e-04
3.24900958542498e-02	9.97495375978538e-01,-2.15553695474406e-04
3.27160823423116e-02	9.97495375328305e-01,-2.17052989851699e-04
3.29436406907033e-02	9.97495374668995e-01,-2.18562712643111e-04
3.31727818325781e-02	9.97495374000481e-01,-2.20082936383934e-04
3.34035167771352e-02	9.97495373322635e-01,-2.21613734113985e-04
3.36358566101490e-02	9.97495372635326e-01,-2.23155179381110e-04
3.38698124945015e-02	9.97495371938423e-01,-2.24707346244719e-04
3.41053956707187e-02	9.97495371231792e-01,-2.26270309279345e-04
3.43426174575106e-02	9.97495370515297e-01,-2.27844143578228e-04
3.45814892523151e-02	9.97495369788799e-01,-2.29428924756918e-04
3.48220225318454e-02	9.97495369052160e-01,-2.31024728956915e-04
3.50642288526419e-02	9.97495368305238e-01,-2.32631632849321e-04
3.53081198516267e-02	9.97495367547890e-01,-2.34249713638526e-04
3.55537072466633e-02	9.97495366779969e-01,-2.35879049065920e-04
3.58010028371194e-02	9.97495366001328e-01,-2.37519717413622e-04
3.60500185044337e-02	9.97495365211818e-01,-2.39171797508248e-04
3.63007662126869e-02	9.97495364411287e-01,-2.40835368724692e-04
3.65532580091765e-02	9.97495363599581e-01,-2.42510510989943e-04
3.68075060249955e-02	9.97495362776543e-01,-2.44197304786926e-04
3.70635224756153e-02	9.97495361942017e-01,-2.45895831158365e-04
3.73213196614728e-02	9.97495361095841e-01,-2.47606171710681e-04
3.75809099685610e-02	9.97495360237853e-01,-2.49328408617910e-04
3.78423058690244e-02	9.97495359367888e-01,-2.51062624625649e-04
3.81055199217580e-02	9.97495358485779e-01,-2.52808903055039e-04
3.83705647730111e-02	9.97495357591355e-01,-2.54567327806760e-04
3.86374531569944e-02	9.97495356684447e-01,-2.56337983365066e-04
3.89061978964920e-02	9.97495355764878e-01,-2.58120954801844e-04
3.91768119034776e-02	9.97495354832472e-01,-2.59916327780701e-04
3.94493081797349e-02	9.97495353887051e-01,-2.61724188561077e-04
3.97236998174820e-02	9.97495352928432e-01,-2.63544624002394e-04
4.00000000000006e-02	9.97495351956431e-01,-2.65377721568227e-04
4.02782220022693e-02	9.97495350970861e-01,-2.67223569330504e-04
4.05583791916017e-02	9.97495349971534e-01,-2.69082255973741e-04
4.08404850282883e-02	9.97495348958256e-01,-2.70953870799301e-04
4.11245530662433e-02	9.97495347930834e-01,-2.72838503729683e-04
4.14105969536557e-02	9.97495346889069e-01,-2.74736245312845e-04
4.16986304336455e-02	9.97495345832762e-01,-2.76647186726556e-04
4.19886673449233e-02	9.97495344761709e-01,-2.78571419782769e-04
4.22807216224558e-02	9.97495343675705e-01,-2.80509036932040e-04
4.25748072981350e-02	9.97495342574541e-01,-2.82460131267967e-04
4.28709385014524e-02	9.97495341458005e-01,-2.84424796531661e-04
4.31691294601777e-02	9.97495340325883e-01,-2.86403127116252e-04
4.34693945010430e-02	9.97495339177958e-01,-2.88395218071422e-04
4.37717480504302e-02	9.97495338014007e-01,-2.90401165107975e-04
4.40762046350651e-02	9.97495336833809e-01,-2.92421064602431e-04
4.43827788827145e-02	9.97495335637135e-01,-2.94455013601661e-04
4.46914855228895e-02	9.97495334423757e-01,-2.96503109827546e-04
4.50023393875531e-02	9.97495333193441e-01,-2.98565451681672e-04
4.53153554118326e-02	9.97495331945950e-01,-3.00642138250060e-04
4.56305486347377e-02	9.97495330681044e-01,-3.02733269307927e-04
4.59479341998821e-02	9.97495329398482e-01,-3.04838945324476e-04
4.62675273562122e-02	9.97495328098015e-01,-3.06959267467725e-04
4.65893434587390e-02	9.97495326779394e-01,-3.09094337609369e-04
4.69133979692759e-02	9.97495325442367e-01,-3.11244258329672e-04
4.72397064571820e-02	9.97495324086675e-01,-3.13409132922398e-04
4.75682846001096e-02	9.97495322712058e-01,-3.15589065399769e-04
4.78991481847579e-02	9.97495321318252e-01,-3.17784160497469e-04
4.82323131076312e-02	9.97495319904990e-01,-3.19994523679669e-04
4.85677953758027e-02	9.97495318471999e-01,-3.22220261144101e-04
4.89056111076836e-02	9.97495317019005e-01,-3.24461479827153e-04
4.92457765337975e-02	9.97495315545727e-01,-3.26718287409013e-04
4.95883079975603e-02	9.97495314051883e-01,-3.28990792318837e-04
4.99332219560653e-02	9.97495312537186e-01,-3.31279103739963e-04
5.02805349808740e-02	9.97495311001344e-01,-3.33583331615153e-04
5.06302637588120e-02	9.97495309444063e-01,-3.35903586651880e-04
5.09824250927713e-02	9.97495307865043e-01,-3.38239980327639e-04
5.13370359025170e-02	9.97495306263981e-01,-3.40592624895313e-04
5.16941132255006e-02	9.97495304640569e-01,-3.42961633388555e-04
5.20536742176782e-02	9.97495302994495e-01,-3.45347119627229e-04
5.24157361543354e-02	9.97495301325442e-01,-3.47749198222871e-04
5.27803164309167e-02	9.97495299633090e-01,-3.50167984584198e-04
5.31474325638614e-02	9.97495297917115e-01,-3.52603594922656e-04
5.35171021914454e-02	9.97495296177184e-01,-3.55056146257995e-04
5.38893430746286e-02	9.97495294412966e-01,-3.57525756423901e-04
5.42641730979078e-02	9.97495292624120e-01,-3.60012544073649e-04
5.46416102701768e-02	9.97495290810302e-01,-3.62516628685810e-04
5.50216727255907e-02	9.97495288971165e-01,-3.65038130569986e-04
5.54043787244380e-02	9.97495287106354e-01,-3.67577170872594e-04
5.57897466540172e-02	9.97495285215511e-01,-3.70133871582683e-04
5.61777950295209e-02	9.97495283298274e-01,-3.72708355537799e-04
5.65685424949248e-02	9.97495281354272e-01,-3.75300746429882e-04
5.69620078238839e-02	9.97495279383134e-01,-3.77911168811213e-04
5.73582099206341e-02	9.97495277384479e-01,-3.80539748100395e-04
5.77571678209009e-02	9.97495275357924e-01,-3.83186610588380e-04
5.81589006928135e-02	9.97495273303079e-01,-3.85851883444536e-04
5.85634278378261e-02	9.97495271219550e-01,-3.88535694722755e-04
5.89707686916451e-02	9.97495269106936e-01,-3.91238173367611e-04
5.93809428251631e-02	9.97495266964831e-01,-3.93959449220547e-04
5.97939699453986e-02	9.97495264792823e-01,-3.96699653026119e-04
6.02098698964438e-02	9.97495262590496e-01,-3.99458916438277e-04
6.06286626604171e-02	9.97495260357424e-01,-4.02237372026686e-04
6.10503683584235e-02	9.97495258093181e-01,-4.05035153283100e-04
6.14750072515216e-02	9.97495255797329e-01,-4.07852394627771e-04
6.19025997416968e-02	9.97495253469429e-01,-4.10689231415913e-04
6.23331663728412e-02	9.97495251109033e-01,-4.13545799944199e-04
6.27667278317413e-02	9.97495248715686e-01,-4.16422237457311e-04
6.32033049490714e-02	9.97495246288930e-01,-4.19318682154537e-04
6.36429187003947e-02	9.97495243828298e-01,-4.22235273196406e-04
6.40855902071710e-02	9.97495241333316e-01,-4.25172150711375e-04
6.45313407377713e-02	9.97495238803506e-01,-4.28129455802565e-04
6.49801917085001e-02	9.97495236238381e-01,-4.31107330554535e-04
6.54321646846237e-02	9.97495233637448e-01,-4.34105918040110e-04
6.58872813814071e-02	9.97495231000208e-01,-4.37125362327256e-04
6.63455636651566e-02	9.97495228326153e-01,-4.40165808486001e-04
6.68070335542709e-02	9.97495225614769e-01,-4.43227402595405e-04
6.72717132202985e-02	9.97495222865536e-01,-4.46310291750575e-04
6.77396249890035e-02	9.97495220077926e-01,-4.49414624069736e-04
6.82107913414379e-02	9.97495217251401e-01,-4.52540548701346e-04
6.86852349150217e-02	9.97495214385420e-01,-4.55688215831260e-04
6.91629785046306e-02	9.97495211479432e-01,-4.58857776689947e-04
6.96440450636913e-02	9.97495208532877e-01,-4.62049383559756e-04
7.01284577052842e-02	9.97495205545190e-01,-4.65263189782231e-04
7.06162397032538e-02	9.97495202515796e-01,-4.68499349765477e-04
7.11074144933271e-02	9.97495199444114e-01,-4.71758018991581e-04
7.16020056742393e-02	9.97495196329552e-01,-4.75039354024081e-04
7.21000370088679e-02	9.97495193171513e-01,-4.78343512515486e-04
7.26015324253744e-02	9.97495189969390e-01,-4.81670653214853e-04
7.31065160183536e-02	9.97495186722566e-01,-4.85020935975409e-04
7.36150120499915e-02	9.97495183430418e-01,-4.88394521762238e-04
7.41270449512312e-02	9.97495180092314e-01,-4.91791572660009e-04
7.46426393229462e-02	9.97495176707612e-01,-4.95212251880763e-04
7.51618199371225e-02	9.97495173275661e-01,-4.98656723771757e-04
7.56846117380493e-02	9.97495169795802e-01,-5.02125153823359e-04
7.62110398435166e-02	9.97495166267365e-01,-5.05617708676995e-04
7.67411295460228e-02	9.97495162689674e-01,-5.09134556133161e-04
7.72749063139893e-02	9.97495159062040e-01,-5.12675865159479e-04
7.78123957929845e-02	9.97495155383766e-01,-5.16241805898821e-04
7.83536238069558e-02	9.97495151654145e-01,-5.19832549677474e-04
7.88986163594704e-02	9.97495147872461e-01,-5.23448269013381e-04
7.94473996349646e-02	9.97495144037986e-01,-5.27089137624421e-04
8.00000000000017e-02	9.97495140149985e-01,-5.30755330436761e-04
8.05564440045393e-02	9.97495136207708e-01,-5.34447023593256e-04
8.11167583832041e-02	9.97495132210400e-01,-5.38164394461912e-04
8.16809700565772e-02	9.97495128157292e-01,-5.41907621644410e-04
8.22491061324871e-02	9.97495124047604e-01,-5.45676884984681e-04
8.28211939073120e-02	9.97495119880547e-01,-5.49472365577555e-04
8.33972608672915e-02	9.97495115655320e-01,-5.53294245777449e-04
8.39773346898472e-02	9.97495111371111e-01,-5.57142709207138e-04
8.45614432449123e-02	9.97495107027097e-01,-5.61017940766575e-04
8.51496145962707e-02	9.97495102622443e-01,-5.64920126641768e-04
8.57418770029054e-02	9.97495098156302e-01,-5.68849454313731e-04
8.63382589203561e-02	9.97495093627816e-01,-5.72806112567489e-04
