Freq.	V(vout)
1.00000000000000e-02	9.99811720473161e-01,-4.99896836198735e-06
1.00695555005672e-02	9.99811720472812e-01,-5.03373893665935e-06
1.01395947979003e-02	9.99811720472458e-01,-5.06875135980395e-06
1.02101212570719e-02	9.99811720472100e-01,-5.10400731361029e-06
1.02811382665607e-02	9.99811720471736e-01,-5.13950849196810e-06
1.03526492384138e-02	9.99811720471367e-01,-5.17525660054901e-06
1.04246576084112e-02	9.99811720470993e-01,-5.21125335688854e-06
1.04971668362307e-02	9.99811720470614e-01,-5.24750049046863e-06
1.05701804056138e-02	9.99811720470230e-01,-5.28399974280071e-06
1.06437018245336e-02	9.99811720469840e-01,-5.32075286750938e-06
1.07177346253629e-02	9.99811720469445e-01,-5.35776163041665e-06
1.07922823650443e-02	9.99811720469044e-01,-5.39502780962682e-06
1.08673486252606e-02	9.99811720468637e-01,-5.43255319561186e-06
1.09429370126074e-02	9.99811720468225e-01,-5.47033959129747e-06
1.10190511587661e-02	9.99811720467808e-01,-5.50838881214969e-06
1.10956947206785e-02	9.99811720467384e-01,-5.54670268626212e-06
1.11728713807222e-02	9.99811720466954e-01,-5.58528305444375e-06
1.12505848468881e-02	9.99811720466519e-01,-5.62413177030743e-06
1.13288388529580e-02	9.99811720466077e-01,-5.66325070035889e-06
1.14076371586843e-02	9.99811720465629e-01,-5.70264172408643e-06
1.14869835499704e-02	9.99811720465175e-01,-5.74230673405124e-06
1.15668818390529e-02	9.99811720464715e-01,-5.78224763597830e-06
1.16473358646846e-02	9.99811720464248e-01,-5.82246634884797e-06
1.17283494923188e-02	9.99811720463775e-01,-5.86296480498817e-06
1.18099266142953e-02	9.99811720463295e-01,-5.90374495016721e-06
1.18920711500272e-02	9.99811720462808e-01,-5.94480874368731e-06
1.19747870461893e-02	9.99811720462315e-01,-5.98615815847869e-06
1.20580782769076e-02	9.99811720461814e-01,-6.02779518119441e-06
1.21419488439505e-02	9.99811720461307e-01,-6.06972181230578e-06
1.22264027769207e-02	9.99811720460793e-01,-6.11194006619848e-06
1.23114441334492e-02	9.99811720460271e-01,-6.15445197126938e-06
1.23970769993899e-02	9.99811720459742e-01,-6.19725957002394e-06
1.24833054890162e-02	9.99811720459206e-01,-6.24036491917438e-06
1.25701337452183e-02	9.99811720458663e-01,-6.28377008973847e-06
1.26575659397028e-02	9.99811720458111e-01,-6.32747716713907e-06
1.27456062731927e-02	9.99811720457552e-01,-6.37148825130429e-06
1.28342589756291e-02	9.99811720456985e-01,-6.41580545676839e-06
1.29235283063750e-02	9.99811720456411e-01,-6.46043091277340e-06
1.30134185544194e-02	9.99811720455828e-01,-6.50536676337138e-06
1.31039340385837e-02	9.99811720455237e-01,-6.55061516752746e-06
1.31950791077290e-02	9.99811720454638e-01,-6.59617829922354e-06
1.32868581409652e-02	9.99811720454030e-01,-6.64205834756280e-06
1.33792755478612e-02	9.99811720453414e-01,-6.68825751687480e-06
1.34723357686569e-02	9.99811720452790e-01,-6.73477802682144e-06
1.35660432744768e-02	9.99811720452157e-01,-6.78162211250359e-06
1.36604025675440e-02	9.99811720451514e-01,-6.82879202456848e-06
1.37554181813975e-02	9.99811720450863e-01,-6.87629002931781e-06
1.38510946811093e-02	9.99811720450203e-01,-6.92411840881667e-06
1.39474366635041e-02	9.99811720449534e-01,-6.97227946100318e-06
1.40444487573800e-02	9.99811720448855e-01,-7.02077549979885e-06
1.41421356237310e-02	9.99811720448167e-01,-7.06960885521982e-06
1.42405019559708e-02	9.99811720447469e-01,-7.11878187348876e-06
1.43395524801583e-02	9.99811720446761e-01,-7.16829691714760e-06
1.44392919552250e-02	9.99811720446044e-01,-7.21815636517106e-06
1.45397251732032e-02	9.99811720445317e-01,-7.26836261308095e-06
1.46408569594563e-02	9.99811720444579e-01,-7.31891807306122e-06
1.47426921729111e-02	9.99811720443831e-01,-7.36982517407390e-06
1.48452357062906e-02	9.99811720443073e-01,-7.42108636197581e-06
1.49484924863495e-02	9.99811720442304e-01,-7.47270409963602e-06
1.50524674741107e-02	9.99811720441524e-01,-7.52468086705422e-06
1.51571656651041e-02	9.99811720440734e-01,-7.57701916147986e-06
1.52625920896057e-02	9.99811720439932e-01,-7.62972149753213e-06
1.53687518128802e-02	9.99811720439119e-01,-7.68279040732080e-06
1.54756499354240e-02	9.99811720438295e-01,-7.73622844056782e-06
1.55832915932101e-02	9.99811720437459e-01,-7.79003816472989e-06
1.56916819579351e-02	9.99811720436612e-01,-7.84422216512178e-06
1.58008262372676e-02	9.99811720435753e-01,-7.89878304504052e-06
1.59107296750985e-02	9.99811720434882e-01,-7.95372342589053e-06
1.60213975517925e-02	9.99811720433999e-01,-8.00904594730953e-06
1.61328351844426e-02	9.99811720433103e-01,-8.06475326729538e-06
1.62450479271248e-02	9.99811720432195e-01,-8.12084806233377e-06
1.63580411711557e-02	9.99811720431274e-01,-8.17733302752681e-06
1.64718203453516e-02	9.99811720430341e-01,-8.23421087672254e-06
1.65863909162889e-02	9.99811720429394e-01,-8.29148434264531e-06
1.67017583885675e-02	9.99811720428434e-01,-8.34915617702707e-06
1.68179283050744e-02	9.99811720427461e-01,-8.40722915073956e-06
1.69349062472506e-02	9.99811720426474e-01,-8.46570605392747e-06
1.70526978353592e-02	9.99811720425473e-01,-8.52458969614250e-06
1.71713087287552e-02	9.99811720424459e-01,-8.58388290647830e-06
1.72907446261574e-02	9.99811720423430e-01,-8.64358853370643e-06
1.74110112659226e-02	9.99811720422387e-01,-8.70370944641323e-06
1.75321144263208e-02	9.99811720421329e-01,-8.76424853313762e-06
1.76540599258132e-02	9.99811720420257e-01,-8.82520870250992e-06
1.77768536233315e-02	9.99811720419169e-01,-8.88659288339155e-06
1.79005014185596e-02	9.99811720418067e-01,-8.94840402501579e-06
1.80250092522167e-02	9.99811720416949e-01,-9.01064509712946e-06
1.81503831063433e-02	9.99811720415815e-01,-9.07331909013559e-06
1.82766290045881e-02	9.99811720414665e-01,-9.13642901523710e-06
1.84037530124976e-02	9.99811720413500e-01,-9.19997790458152e-06
1.85317612378075e-02	9.99811720412318e-01,-9.26396881140659e-06
1.86606598307363e-02	9.99811720411120e-01,-9.32840481018704e-06
1.87904549842804e-02	9.99811720409905e-01,-9.39328899678221e-06
1.89211529345121e-02	9.99811720408673e-01,-9.45862448858490e-06
1.90527599608789e-02	9.99811720407424e-01,-9.52441442467106e-06
1.91852823865054e-02	9.99811720406157e-01,-9.59066196595065e-06
1.93187265784971e-02	9.99811720404873e-01,-9.65737029531949e-06
1.94530989482459e-02	9.99811720403571e-01,-9.72454261781218e-06
1.95884059517387e-02	9.99811720402251e-01,-9.79218216075614e-06
1.97246540898673e-02	9.99811720400912e-01,-9.86029217392659e-06
1.98618499087409e-02	9.99811720399554e-01,-9.92887592970273e-06
2.00000000000002e-02	9.99811720398178e-01,-9.99793672322496e-06
2.01391110011345e-02	9.99811720396782e-01,-1.00674778725532e-05
2.02791895958007e-02	9.99811720395367e-01,-1.01375027188263e-05
2.04202425141440e-02	9.99811720393932e-01,-1.02080146264226e-05
2.05622765331215e-02	9.99811720392478e-01,-1.02790169831214e-05
2.07052984768277e-02	9.99811720391002e-01,-1.03505132002661e-05
2.08493152168226e-02	9.99811720389506e-01,-1.04225067129277e-05
2.09943336724615e-02	9.99811720387990e-01,-1.04950009800700e-05
2.11403608112278e-02	9.99811720386452e-01,-1.05679994847160e-05
2.12874036490674e-02	9.99811720384893e-01,-1.06415057341147e-05
2.14354692507260e-02	9.99811720383312e-01,-1.07155232599103e-05
2.15845647300887e-02	9.99811720381708e-01,-1.07900556183112e-05
2.17346972505213e-02	9.99811720380083e-01,-1.08651063902615e-05
2.18858740252150e-02	9.99811720378435e-01,-1.09406791816125e-05
2.20381023175324e-02	9.99811720376763e-01,-1.10167776232963e-05
2.21913894413571e-02	9.99811720375069e-01,-1.10934053715000e-05
2.23457427614446e-02	9.99811720373351e-01,-1.11705661078418e-05
2.25011696937764e-02	9.99811720371608e-01,-1.12482635395472e-05
2.26576777059162e-02	9.99811720369842e-01,-1.13265013996276e-05
2.28152743173687e-02	9.99811720368051e-01,-1.14052834470598e-05
2.29739670999409e-02	9.99811720366234e-01,-1.14846134669660e-05
2.31337636781060e-02	9.99811720364393e-01,-1.15644952707963e-05
2.32946717293693e-02	9.99811720362526e-01,-1.16449326965113e-05
2.34566989846378e-02	9.99811720360632e-01,-1.17259296087668e-05
2.36198532285908e-02	9.99811720358712e-01,-1.18074898990994e-05
2.37841423000546e-02	9.99811720356766e-01,-1.18896174861137e-05
2.39495740923788e-02	9.99811720354792e-01,-1.19723163156699e-05
2.41161565538154e-02	9.99811720352791e-01,-1.20555903610743e-05
2.42838976879012e-02	9.99811720350762e-01,-1.21394436232694e-05
2.44528055538416e-02	9.99811720348704e-01,-1.22238801310266e-05
2.46228882668986e-02	9.99811720346618e-01,-1.23089039411396e-05
2.47941539987800e-02	9.99811720344502e-01,-1.23945191386194e-05
2.49666109780325e-02	9.99811720342358e-01,-1.24807298368902e-05
2.51402674904368e-02	9.99811720340183e-01,-1.25675401779878e-05
2.53151318794058e-02	9.99811720337978e-01,-1.26549543327577e-05
2.54912125463855e-02	9.99811720335742e-01,-1.27429765010561e-05
2.56685179512583e-02	9.99811720333474e-01,-1.28316109119517e-05
2.58470566127501e-02	9.99811720331175e-01,-1.29208618239284e-05
2.60268371088389e-02	9.99811720328845e-01,-1.30107335250904e-05
2.62078680771675e-02	9.99811720326481e-01,-1.31012303333678e-05
2.63901582154582e-02	9.99811720324084e-01,-1.31923565967245e-05
2.65737162819305e-02	9.99811720321655e-01,-1.32841166933669e-05
2.67585510957225e-02	9.99811720319191e-01,-1.33765150319539e-05
2.69446715373141e-02	9.99811720316693e-01,-1.34695560518095e-05
2.71320865489537e-02	9.99811720314159e-01,-1.35632442231352e-05
2.73208051350882e-02	9.99811720311591e-01,-1.36575840472257e-05
2.75108363627952e-02	9.99811720308986e-01,-1.37525800566842e-05
2.77021893622188e-02	9.99811720306346e-01,-1.38482368156409e-05
2.78948733270084e-02	9.99811720303668e-01,-1.39445589199720e-05
2.80888975147602e-02	9.99811720300953e-01,-1.40415509975206e-05
2.82842712474622e-02	9.99811720298201e-01,-1.41392177083189e-05
2.84810039119417e-02	9.99811720295409e-01,-1.42375637448122e-05
2.86791049603169e-02	9.99811720292579e-01,-1.43365938320844e-05
2.88785839104502e-02	9.99811720289709e-01,-1.44363127280849e-05
2.90794503464065e-02	9.99811720286799e-01,-1.45367252238572e-05
2.92817139189128e-02	9.99811720283849e-01,-1.46378361437693e-05
2.94853843458224e-02	9.99811720280857e-01,-1.47396503457453e-05
2.96904714125813e-02	9.99811720277824e-01,-1.48421727214986e-05
2.98969849726991e-02	9.99811720274748e-01,-1.49454081967675e-05
3.01049349482217e-02	9.99811720271630e-01,-1.50493617315513e-05
3.03143313302083e-02	9.99811720268467e-01,-1.51540383203488e-05
3.05251841792115e-02	9.99811720265261e-01,-1.52594429923985e-05
3.07375036257606e-02	9.99811720262010e-01,-1.53655808119198e-05
3.09512998708482e-02	9.99811720258714e-01,-1.54724568783567e-05
3.11665831864204e-02	9.99811720255371e-01,-1.55800763266224e-05
3.13833639158704e-02	9.99811720251982e-01,-1.56884443273465e-05
3.16016524745355e-02	9.99811720248545e-01,-1.57975660871231e-05
3.18214593501971e-02	9.99811720245061e-01,-1.59074468487610e-05
3.20427951035853e-02	9.99811720241528e-01,-1.60180918915356e-05
3.22656703688854e-02	9.99811720237946e-01,-1.61295065314425e-05
3.24900958542498e-02	9.99811720234313e-01,-1.62416961214531e-05
3.27160823423116e-02	9.99811720230630e-01,-1.63546660517716e-05
3.29436406907033e-02	9.99811720226896e-01,-1.64684217500941e-05
3.31727818325781e-02	9.99811720223109e-01,-1.65829686818693e-05
3.34035167771352e-02	9.99811720219269e-01,-1.66983123505609e-05
3.36358566101490e-02	9.99811720215376e-01,-1.68144582979125e-05
3.38698124945015e-02	9.99811720211429e-01,-1.69314121042134e-05
3.41053956707187e-02	9.99811720207426e-01,-1.70491793885669e-05
3.43426174575106e-02	9.99811720203368e-01,-1.71677658091604e-05
3.45814892523151e-02	9.99811720199253e-01,-1.72871770635369e-05
3.48220225318454e-02	9.99811720195080e-01,-1.74074188888690e-05
3.50642288526419e-02	9.99811720190850e-01,-1.75284970622346e-05
3.53081198516267e-02	9.99811720186560e-01,-1.76504174008943e-05
3.55537072466633e-02	9.99811720182210e-01,-1.77731857625709e-05
3.58010028371194e-02	9.99811720177800e-01,-1.78968080457309e-05
3.60500185044337e-02	9.99811720173328e-01,-1.80212901898679e-05
3.63007662126869e-02	9.99811720168793e-01,-1.81466381757878e-05
3.65532580091765e-02	9.99811720164196e-01,-1.82728580258967e-05
3.68075060249955e-02	9.99811720159533e-01,-1.83999558044893e-05
3.70635224756153e-02	9.99811720154806e-01,-1.85279376180412e-05
3.73213196614728e-02	9.99811720150014e-01,-1.86568096155019e-05
3.75809099685610e-02	9.99811720145154e-01,-1.87865779885898e-05
3.78423058690244e-02	9.99811720140226e-01,-1.89172489720907e-05
3.81055199217580e-02	9.99811720135229e-01,-1.90488288441563e-05
3.83705647730111e-02	9.99811720130163e-01,-1.91813239266065e-05
3.86374531569944e-02	9.99811720125026e-01,-1.93147405852329e-05
3.89061978964920e-02	9.99811720119817e-01,-1.94490852301047e-05
3.91768119034776e-02	9.99811720114536e-01,-1.95843643158766e-05
3.94493081797349e-02	9.99811720109181e-01,-1.97205843420991e-05
3.97236998174820e-02	9.99811720103751e-01,-1.98577518535305e-05
4.00000000000006e-02	9.99811720098245e-01,-1.99958734404515e-05
4.02782220022693e-02	9.99811720092663e-01,-2.01349557389820e-05
4.05583791916017e-02	9.99811720087002e-01,-2.02750054313995e-05
4.08404850282883e-02	9.99811720081263e-01,-2.04160292464606e-05
4.11245530662433e-02	9.99811720075443e-01,-2.05580339597242e-05
4.14105969536557e-02	9.99811720069542e-01,-2.07010263938766e-05
4.16986304336455e-02	9.99811720063559e-01,-2.08450134190599e-05
4.19886673449233e-02	9.99811720057492e-01,-2.09900019532018e-05
4.22807216224558e-02	9.99811720051341e-01,-2.11359989623479e-05
4.25748072981350e-02	9.99811720045104e-01,-2.12830114609964e-05
4.28709385014524e-02	9.99811720038779e-01,-2.14310465124356e-05
4.31691294601777e-02	9.99811720032367e-01,-2.15801112290823e-05
4.34693945010430e-02	9.99811720025865e-01,-2.17302127728244e-05
4.37717480504302e-02	9.99811720019272e-01,-2.18813583553646e-05
4.40762046350651e-02	9.99811720012587e-01,-2.20335552385671e-05
4.43827788827145e-02	9.99811720005808e-01,-2.21868107348060e-05
4.46914855228895e-02	9.99811719998935e-01,-2.23411322073173e-05
4.50023393875531e-02	9.99811719991966e-01,-2.24965270705523e-05
4.53153554118326e-02	9.99811719984900e-01,-2.26530027905337e-05
4.56305486347377e-02	9.99811719977736e-01,-2.28105668852148e-05
4.59479341998821e-02	9.99811719970471e-01,-2.29692269248401e-05
4.62675273562122e-02	9.99811719963105e-01,-2.31289905323096e-05
4.65893434587390e-02	9.99811719955636e-01,-2.32898653835445e-05
4.69133979692759e-02	9.99811719948062e-01,-2.34518592078563e-05
4.72397064571820e-02	9.99811719940383e-01,-2.36149797883183e-05
4.75682846001096e-02	9.99811719932597e-01,-2.37792349621392e-05
4.78991481847579e-02	9.99811719924702e-01,-2.39446326210398e-05
4.82323131076312e-02	9.99811719916697e-01,-2.41111807116321e-05
4.85677953758027e-02	9.99811719908580e-01,-2.42788872358013e-05
4.89056111076836e-02	9.99811719900350e-01,-2.44477602510901e-05
4.92457765337975e-02	9.99811719892005e-01,-2.46178078710858e-05
4.95883079975603e-02	9.99811719883543e-01,-2.47890382658100e-05
4.99332219560653e-02	9.99811719874964e-01,-2.49614596621116e-05
5.02805349808740e-02	9.99811719866264e-01,-2.51350803440615e-05
5.06302637588120e-02	9.99811719857443e-01,-2.53099086533509e-05
5.09824250927713e-02	9.99811719848500e-01,-2.54859529896923e-05
5.13370359025170e-02	9.99811719839431e-01,-2.56632218112225e-05
5.16941132255006e-02	9.99811719830235e-01,-2.58417236349095e-05
5.20536742176782e-02	9.99811719820911e-01,-2.60214670369613e-05
5.24157361543354e-02	9.99811719811457e-01,-2.62024606532384e-05
5.27803164309167e-02	9.99811719801871e-01,-2.63847131796682e-05
5.31474325638614e-02	9.99811719792152e-01,-2.65682333726633e-05
5.35171021914454e-02	9.99811719782296e-01,-2.67530300495417e-05
5.38893430746286e-02	9.99811719772303e-01,-2.69391120889510e-05
5.42641730979078e-02	9.99811719762171e-01,-2.71264884312943e-05
5.46416102701768e-02	9.99811719751897e-01,-2.73151680791605e-05
5.50216727255907e-02	9.99811719741479e-01,-2.75051600977562e-05
5.54043787244380e-02	9.99811719730917e-01,-2.76964736153416e-05
5.57897466540172e-02	9.99811719720206e-01,-2.78891178236690e-05
5.61777950295209e-02	9.99811719709347e-01,-2.80831019784242e-05
5.65685424949248e-02	9.99811719698335e-01,-2.82784353996716e-05
5.69620078238839e-02	9.99811719687170e-01,-2.84751274723017e-05
5.73582099206341e-02	9.99811719675849e-01,-2.86731876464821e-05
5.77571678209009e-02	9.99811719664370e-01,-2.88726254381114e-05
5.81589006928135e-02	9.99811719652731e-01,-2.90734504292767e-05
5.85634278378261e-02	9.99811719640929e-01,-2.92756722687135e-05
5.89707686916451e-02	9.99811719628963e-01,-2.94793006722698e-05
5.93809428251631e-02	9.99811719616829e-01,-2.96843454233725e-05
5.97939699453986e-02	9.99811719604526e-01,-2.98908163734979e-05
6.02098698964438e-02	9.99811719592052e-01,-3.00987234426445e-05
6.06286626604171e-02	9.99811719579403e-01,-3.03080766198097e-05
6.10503683584235e-02	9.99811719566578e-01,-3.05188859634702e-05
6.14750072515216e-02	9.99811719553574e-01,-3.07311616020646e-05
6.19025997416968e-02	9.99811719540388e-01,-3.09449137344808e-05
6.23331663728412e-02	9.99811719527018e-01,-3.11601526305452e-05
6.27667278317413e-02	9.99811719513461e-01,-3.13768886315165e-05
6.32033049490714e-02	9.99811719499715e-01,-3.15951321505827e-05
6.36429187003947e-02	9.99811719485778e-01,-3.18148936733612e-05
6.40855902071710e-02	9.99811719471645e-01,-3.20361837584026e-05
6.45313407377713e-02	9.99811719457316e-01,-3.22590130376981e-05
6.49801917085001e-02	9.99811719442786e-01,-3.24833922171901e-05
6.54321646846237e-02	9.99811719428054e-01,-3.27093320772868e-05
6.58872813814071e-02	9.99811719413116e-01,-3.29368434733801e-05
6.63455636651566e-02	9.99811719397969e-01,-3.31659373363671e-05
6.68070335542709e-02	9.99811719382611e-01,-3.33966246731752e-05
6.72717132202985e-02	9.99811719367038e-01,-3.36289165672911e-05
6.77396249890035e-02	9.99811719351249e-01,-3.38628241792933e-05
6.82107913414379e-02	9.99811719335238e-01,-3.40983587473883e-05
6.86852349150217e-02	9.99811719319005e-01,-3.43355315879502e-05
6.91629785046306e-02	9.99811719302544e-01,-3.45743540960650e-05
6.96440450636913e-02	9.99811719285854e-01,-3.48148377460778e-05
7.01284577052842e-02	9.99811719268931e-01,-3.50569940921438e-05
7.06162397032538e-02	9.99811719251772e-01,-3.53008347687839e-05
7.11074144933271e-02	9.99811719234373e-01,-3.55463714914436e-05
7.16020056742393e-02	9.99811719216731e-01,-3.57936160570555e-05
7.21000370088679e-02	9.99811719198843e-01,-3.60425803446064e-05
7.26015324253744e-02	9.99811719180706e-01,-3.62932763157082e-05
7.31065160183536e-02	9.99811719162315e-01,-3.65457160151722e-05
7.36150120499915e-02	9.99811719143667e-01,-3.67999115715880e-05
7.41270449512312e-02	9.99811719124759e-01,-3.70558751979063e-05
7.46426393229462e-02	9.99811719105587e-01,-3.73136191920253e-05
7.51618199371225e-02	9.99811719086148e-01,-3.75731559373823e-05
7.56846117380493e-02	9.99811719066437e-01,-3.78344979035477e-05
7.62110398435166e-02	9.99811719046451e-01,-3.80976576468251e-05
7.67411295460228e-02	9.99811719026186e-01,-3.83626478108538e-05
7.72749063139893e-02	9.99811719005638e-01,-3.86294811272166e-05
7.78123957929845e-02	9.99811718984803e-01,-3.88981704160514e-05
7.83536238069558e-02	9.99811718963677e-01,-3.91687285866674e-05
7.88986163594704e-02	9.99811718942257e-01,-3.94411686381650e-05
7.94473996349646e-02	9.99811718920537e-01,-3.97155036600605e-05
8.00000000000017e-02	9.99811718898515e-01,-3.99917468329149e-05
8.05564440045393e-02	9.99811718876184e-01,-4.02699114289675e-05
8.11167583832041e-02	9.99811718853543e-01,-4.05500108127730e-05
8.16809700565772e-02	9.99811718830585e-01,-4.08320584418442e-05
8.22491061324871e-02	9.99811718807306e-01,-4.11160678672980e-05
8.28211939073120e-02	9.99811718783703e-01,-4.14020527345070e-05
8.33972608672915e-02	9.99811718759770e-01,-4.16900267837548e-05
8.39773346898472e-02	9.99811718735503e-01,-4.19800038508963e-05
8.45614432449123e-02	9.99811718710897e-01,-4.22719978680221e-05
8.51496145962707e-02	9.99811718685948e-01,-4.25660228641285e-05
8.57418770029054e-02	9.99811718660651e-01,-4.28620929657909e-05
8.63382589203561e-02	9.99811718635000e-01,-4.31602223978429e-05
