Freq.	V(vout)
1.00000000000000e-02	9.99976461183980e-01,-6.25076984369371e-07
1.00695555005672e-02	9.99976461183974e-01,-6.29424738623451e-07
1.01395947979003e-02	9.99976461183969e-01,-6.33802733899881e-07
1.02101212570719e-02	9.99976461183963e-01,-6.38211180541603e-07
1.02811382665607e-02	9.99976461183958e-01,-6.42650290354614e-07
1.03526492384138e-02	9.99976461183952e-01,-6.47120276618137e-07
1.04246576084112e-02	9.99976461183946e-01,-6.51621354094868e-07
1.04971668362307e-02	9.99976461183940e-01,-6.56153739041298e-07
1.05701804056138e-02	9.99976461183934e-01,-6.60717649218099e-07
1.06437018245336e-02	9.99976461183928e-01,-6.65313303900589e-07
1.07177346253629e-02	9.99976461183922e-01,-6.69940923889266e-07
1.07922823650443e-02	9.99976461183915e-01,-6.74600731520418e-07
1.08673486252606e-02	9.99976461183909e-01,-6.79292950676804e-07
1.09429370126074e-02	9.99976461183903e-01,-6.84017806798408e-07
1.10190511587661e-02	9.99976461183896e-01,-6.88775526893277e-07
1.10956947206785e-02	9.99976461183889e-01,-6.93566339548421e-07
1.11728713807222e-02	9.99976461183883e-01,-6.98390474940801e-07
1.12505848468881e-02	9.99976461183876e-01,-7.03248164848383e-07
1.13288388529580e-02	9.99976461183869e-01,-7.08139642661276e-07
1.14076371586843e-02	9.99976461183862e-01,-7.13065143392949e-07
1.14869835499704e-02	9.99976461183855e-01,-7.18024903691515e-07
1.15668818390529e-02	9.99976461183848e-01,-7.23019161851107e-07
1.16473358646846e-02	9.99976461183840e-01,-7.28048157823324e-07
1.17283494923188e-02	9.99976461183833e-01,-7.33112133228760e-07
1.18099266142953e-02	9.99976461183826e-01,-7.38211331368616e-07
1.18920711500272e-02	9.99976461183818e-01,-7.43345997236381e-07
1.19747870461893e-02	9.99976461183810e-01,-7.48516377529615e-07
1.20580782769076e-02	9.99976461183802e-01,-7.53722720661790e-07
1.21419488439505e-02	9.99976461183795e-01,-7.58965276774234e-07
1.22264027769207e-02	9.99976461183787e-01,-7.64244297748142e-07
1.23114441334492e-02	9.99976461183778e-01,-7.69560037216685e-07
1.23970769993899e-02	9.99976461183770e-01,-7.74912750577190e-07
1.24833054890162e-02	9.99976461183762e-01,-7.80302695003413e-07
1.25701337452183e-02	9.99976461183753e-01,-7.85730129457895e-07
1.26575659397028e-02	9.99976461183745e-01,-7.91195314704404e-07
1.27456062731927e-02	9.99976461183736e-01,-7.96698513320465e-07
1.28342589756291e-02	9.99976461183727e-01,-8.02239989709972e-07
1.29235283063750e-02	9.99976461183718e-01,-8.07820010115895e-07
1.30134185544194e-02	9.99976461183709e-01,-8.13438842633067e-07
1.31039340385837e-02	9.99976461183700e-01,-8.19096757221074e-07
1.31950791077290e-02	9.99976461183690e-01,-8.24794025717213e-07
1.32868581409652e-02	9.99976461183681e-01,-8.30530921849564e-07
1.33792755478612e-02	9.99976461183671e-01,-8.36307721250134e-07
1.34723357686569e-02	9.99976461183661e-01,-8.42124701468101e-07
1.35660432744768e-02	9.99976461183652e-01,-8.47982141983154e-07
1.36604025675440e-02	9.99976461183642e-01,-8.53880324218913e-07
1.37554181813975e-02	9.99976461183631e-01,-8.59819531556456e-07
1.38510946811093e-02	9.99976461183621e-01,-8.65800049347933e-07
1.39474366635041e-02	9.99976461183610e-01,-8.71822164930273e-07
1.40444487573800e-02	9.99976461183600e-01,-8.77886167638993e-07
1.41421356237310e-02	9.99976461183589e-01,-8.83992348822097e-07
1.42405019559708e-02	9.99976461183578e-01,-8.90141001854076e-07
1.43395524801583e-02	9.99976461183567e-01,-8.96332422150000e-07
1.44392919552250e-02	9.99976461183556e-01,-9.02566907179715e-07
1.45397251732032e-02	9.99976461183545e-01,-9.08844756482131e-07
1.46408569594563e-02	9.99976461183533e-01,-9.15166271679618e-07
1.47426921729111e-02	9.99976461183521e-01,-9.21531756492496e-07
1.48452357062906e-02	9.99976461183510e-01,-9.27941516753624e-07
1.49484924863495e-02	9.99976461183497e-01,-9.34395860423100e-07
1.50524674741107e-02	9.99976461183485e-01,-9.40895097603053e-07
1.51571656651041e-02	9.99976461183473e-01,-9.47439540552540e-07
1.52625920896057e-02	9.99976461183460e-01,-9.54029503702556e-07
1.53687518128802e-02	9.99976461183448e-01,-9.60665303671134e-07
1.54756499354240e-02	9.99976461183435e-01,-9.67347259278559e-07
1.55832915932101e-02	9.99976461183422e-01,-9.74075691562688e-07
1.56916819579351e-02	9.99976461183409e-01,-9.80850923794373e-07
1.58008262372676e-02	9.99976461183395e-01,-9.87673281492990e-07
1.59107296750985e-02	9.99976461183381e-01,-9.94543092442085e-07
1.60213975517925e-02	9.99976461183368e-01,-1.00146068670512e-06
1.61328351844426e-02	9.99976461183354e-01,-1.00842639664132e-06
1.62450479271248e-02	9.99976461183339e-01,-1.01544055692166e-06
1.63580411711557e-02	9.99976461183325e-01,-1.02250350454493e-06
1.64718203453516e-02	9.99976461183311e-01,-1.02961557885395e-06
1.65863909162889e-02	9.99976461183296e-01,-1.03677712155183e-06
1.67017583885675e-02	9.99976461183281e-01,-1.04398847671843e-06
1.68179283050744e-02	9.99976461183265e-01,-1.05124999082687e-06
1.69349062472506e-02	9.99976461183250e-01,-1.05856201276017e-06
1.70526978353592e-02	9.99976461183234e-01,-1.06592489382805e-06
1.71713087287552e-02	9.99976461183219e-01,-1.07333898778376e-06
1.72907446261574e-02	9.99976461183202e-01,-1.08080465084110e-06
1.74110112659226e-02	9.99976461183186e-01,-1.08832224169154e-06
1.75321144263208e-02	9.99976461183170e-01,-1.09589212152145e-06
1.76540599258132e-02	9.99976461183153e-01,-1.10351465402943e-06
1.77768536233315e-02	9.99976461183136e-01,-1.11119020544384e-06
1.79005014185596e-02	9.99976461183118e-01,-1.11891914454032e-06
1.80250092522167e-02	9.99976461183101e-01,-1.12670184265957e-06
1.81503831063433e-02	9.99976461183083e-01,-1.13453867372517e-06
1.82766290045881e-02	9.99976461183065e-01,-1.14243001426153e-06
1.84037530124976e-02	9.99976461183047e-01,-1.15037624341200e-06
1.85317612378075e-02	9.99976461183029e-01,-1.15837774295709e-06
1.86606598307363e-02	9.99976461183010e-01,-1.16643489733280e-06
1.87904549842804e-02	9.99976461182991e-01,-1.17454809364908e-06
1.89211529345121e-02	9.99976461182972e-01,-1.18271772170845e-06
1.90527599608789e-02	9.99976461182952e-01,-1.19094417402474e-06
1.91852823865054e-02	9.99976461182932e-01,-1.19922784584191e-06
1.93187265784971e-02	9.99976461182912e-01,-1.20756913515305e-06
1.94530989482459e-02	9.99976461182892e-01,-1.21596844271953e-06
1.95884059517387e-02	9.99976461182871e-01,-1.22442617209023e-06
1.97246540898673e-02	9.99976461182850e-01,-1.23294272962093e-06
1.98618499087409e-02	9.99976461182829e-01,-1.24151852449385e-06
2.00000000000002e-02	9.99976461182808e-01,-1.25015396873729e-06
2.01391110011345e-02	9.99976461182786e-01,-1.25884947724542e-06
2.02791895958007e-02	9.99976461182764e-01,-1.26760546779824e-06
2.04202425141440e-02	9.99976461182741e-01,-1.27642236108166e-06
2.05622765331215e-02	9.99976461182719e-01,-1.28530058070764e-06
2.07052984768277e-02	9.99976461182695e-01,-1.29424055323466e-06
2.08493152168226e-02	9.99976461182672e-01,-1.30324270818809e-06
2.09943336724615e-02	9.99976461182648e-01,-1.31230747808091e-06
2.11403608112278e-02	9.99976461182624e-01,-1.32143529843448e-06
2.12874036490674e-02	9.99976461182600e-01,-1.33062660779942e-06
2.14354692507260e-02	9.99976461182575e-01,-1.33988184777674e-06
2.15845647300887e-02	9.99976461182550e-01,-1.34920146303901e-06
2.17346972505213e-02	9.99976461182525e-01,-1.35858590135174e-06
2.18858740252150e-02	9.99976461182499e-01,-1.36803561359491e-06
2.20381023175324e-02	9.99976461182473e-01,-1.37755105378460e-06
2.21913894413571e-02	9.99976461182447e-01,-1.38713267909485e-06
2.23457427614446e-02	9.99976461182420e-01,-1.39678094987957e-06
2.25011696937764e-02	9.99976461182392e-01,-1.40649632969469e-06
2.26576777059162e-02	9.99976461182365e-01,-1.41627928532043e-06
2.28152743173687e-02	9.99976461182337e-01,-1.42613028678373e-06
2.29739670999409e-02	9.99976461182308e-01,-1.43604980738082e-06
2.31337636781060e-02	9.99976461182279e-01,-1.44603832369996e-06
2.32946717293693e-02	9.99976461182250e-01,-1.45609631564434e-06
2.34566989846378e-02	9.99976461182221e-01,-1.46622426645517e-06
2.36198532285908e-02	9.99976461182191e-01,-1.47642266273483e-06
2.37841423000546e-02	9.99976461182160e-01,-1.48669199447031e-06
2.39495740923788e-02	9.99976461182130e-01,-1.49703275505672e-06
2.41161565538154e-02	9.99976461182098e-01,-1.50744544132102e-06
2.42838976879012e-02	9.99976461182066e-01,-1.51793055354585e-06
2.44528055538416e-02	9.99976461182034e-01,-1.52848859549362e-06
2.46228882668986e-02	9.99976461182002e-01,-1.53912007443065e-06
2.47941539987800e-02	9.99976461181969e-01,-1.54982550115160e-06
2.49666109780325e-02	9.99976461181935e-01,-1.56060539000399e-06
2.51402674904368e-02	9.99976461181901e-01,-1.57146025891289e-06
2.53151318794058e-02	9.99976461181867e-01,-1.58239062940585e-06
2.54912125463855e-02	9.99976461181832e-01,-1.59339702663791e-06
2.56685179512583e-02	9.99976461181796e-01,-1.60447997941686e-06
2.58470566127501e-02	9.99976461181760e-01,-1.61564002022864e-06
2.60268371088389e-02	9.99976461181724e-01,-1.62687768526292e-06
2.62078680771675e-02	9.99976461181687e-01,-1.63819351443886e-06
2.63901582154582e-02	9.99976461181650e-01,-1.64958805143107e-06
2.65737162819305e-02	9.99976461181611e-01,-1.66106184369570e-06
2.67585510957225e-02	9.99976461181573e-01,-1.67261544249677e-06
2.69446715373141e-02	9.99976461181534e-01,-1.68424940293263e-06
2.71320865489537e-02	9.99976461181494e-01,-1.69596428396266e-06
2.73208051350882e-02	9.99976461181454e-01,-1.70776064843410e-06
2.75108363627952e-02	9.99976461181413e-01,-1.71963906310911e-06
2.77021893622188e-02	9.99976461181372e-01,-1.73160009869198e-06
2.78948733270084e-02	9.99976461181330e-01,-1.74364432985658e-06
2.80888975147602e-02	9.99976461181288e-01,-1.75577233527394e-06
2.82842712474622e-02	9.99976461181245e-01,-1.76798469764006e-06
2.84810039119417e-02	9.99976461181201e-01,-1.78028200370393e-06
2.86791049603169e-02	9.99976461181157e-01,-1.79266484429569e-06
2.88785839104502e-02	9.99976461181112e-01,-1.80513381435503e-06
2.90794503464065e-02	9.99976461181067e-01,-1.81768951295977e-06
2.92817139189128e-02	9.99976461181020e-01,-1.83033254335465e-06
2.94853843458224e-02	9.99976461180974e-01,-1.84306351298031e-06
2.96904714125813e-02	9.99976461180926e-01,-1.85588303350247e-06
2.98969849726991e-02	9.99976461180878e-01,-1.86879172084132e-06
3.01049349482217e-02	9.99976461180829e-01,-1.88179019520112e-06
3.03143313302083e-02	9.99976461180780e-01,-1.89487908109999e-06
3.05251841792115e-02	9.99976461180730e-01,-1.90805900739992e-06
3.07375036257606e-02	9.99976461180679e-01,-1.92133060733696e-06
3.09512998708482e-02	9.99976461180627e-01,-1.93469451855170e-06
3.11665831864204e-02	9.99976461180575e-01,-1.94815138311984e-06
3.13833639158704e-02	9.99976461180522e-01,-1.96170184758310e-06
3.16016524745355e-02	9.99976461180469e-01,-1.97534656298021e-06
3.18214593501971e-02	9.99976461180414e-01,-1.98908618487828e-06
3.20427951035853e-02	9.99976461180359e-01,-2.00292137340422e-06
3.22656703688854e-02	9.99976461180303e-01,-2.01685279327649e-06
3.24900958542498e-02	9.99976461180246e-01,-2.03088111383704e-06
3.27160823423116e-02	9.99976461180189e-01,-2.04500700908346e-06
3.29436406907033e-02	9.99976461180130e-01,-2.05923115770137e-06
3.31727818325781e-02	9.99976461180071e-01,-2.07355424309699e-06
3.34035167771352e-02	9.99976461180011e-01,-2.08797695343005e-06
3.36358566101490e-02	9.99976461179950e-01,-2.10249998164678e-06
3.38698124945015e-02	9.99976461179888e-01,-2.11712402551324e-06
3.41053956707187e-02	9.99976461179826e-01,-2.13184978764885e-06
3.43426174575106e-02	9.99976461179762e-01,-2.14667797556011e-06
3.45814892523151e-02	9.99976461179698e-01,-2.16160930167463e-06
3.48220225318454e-02	9.99976461179633e-01,-2.17664448337536e-06
3.50642288526419e-02	9.99976461179567e-01,-2.19178424303501e-06
3.53081198516267e-02	9.99976461179499e-01,-2.20702930805082e-06
3.55537072466633e-02	9.99976461179432e-01,-2.22238041087946e-06
3.58010028371194e-02	9.99976461179362e-01,-2.23783828907225e-06
3.60500185044337e-02	9.99976461179293e-01,-2.25340368531058e-06
3.63007662126869e-02	9.99976461179222e-01,-2.26907734744159e-06
3.65532580091765e-02	9.99976461179150e-01,-2.28486002851412e-06
3.68075060249955e-02	9.99976461179077e-01,-2.30075248681488e-06
3.70635224756153e-02	9.99976461179003e-01,-2.31675548590487e-06
3.73213196614728e-02	9.99976461178928e-01,-2.33286979465609e-06
3.75809099685610e-02	9.99976461178852e-01,-2.34909618728845e-06
3.78423058690244e-02	9.99976461178775e-01,-2.36543544340700e-06
3.81055199217580e-02	9.99976461178697e-01,-2.38188834803937e-06
3.83705647730111e-02	9.99976461178618e-01,-2.39845569167348e-06
3.86374531569944e-02	9.99976461178538e-01,-2.41513827029554e-06
3.89061978964920e-02	9.99976461178456e-01,-2.43193688542828e-06
3.91768119034776e-02	9.99976461178374e-01,-2.44885234416946e-06
3.94493081797349e-02	9.99976461178290e-01,-2.46588545923063e-06
3.97236998174820e-02	9.99976461178205e-01,-2.48303704897624e-06
4.00000000000006e-02	9.99976461178119e-01,-2.50030793746286e-06
4.02782220022693e-02	9.99976461178032e-01,-2.51769895447888e-06
4.05583791916017e-02	9.99976461177943e-01,-2.53521093558428e-06
4.08404850282883e-02	9.99976461177853e-01,-2.55284472215085e-06
4.11245530662433e-02	9.99976461177762e-01,-2.57060116140257e-06
4.14105969536557e-02	9.99976461177670e-01,-2.58848110645632e-06
4.16986304336455e-02	9.99976461177577e-01,-2.60648541636291e-06
4.19886673449233e-02	9.99976461177482e-01,-2.62461495614828e-06
4.22807216224558e-02	9.99976461177386e-01,-2.64287059685513e-06
4.25748072981350e-02	9.99976461177288e-01,-2.66125321558472e-06
4.28709385014524e-02	9.99976461177189e-01,-2.67976369553906e-06
4.31691294601777e-02	9.99976461177089e-01,-2.69840292606329e-06
4.34693945010430e-02	9.99976461176987e-01,-2.71717180268844e-06
4.37717480504302e-02	9.99976461176884e-01,-2.73607122717447e-06
4.40762046350651e-02	9.99976461176780e-01,-2.75510210755354e-06
4.43827788827145e-02	9.99976461176674e-01,-2.77426535817371e-06
4.46914855228895e-02	9.99976461176567e-01,-2.79356189974280e-06
4.50023393875531e-02	9.99976461176458e-01,-2.81299265937270e-06
4.53153554118326e-02	9.99976461176347e-01,-2.83255857062384e-06
4.56305486347377e-02	9.99976461176235e-01,-2.85226057355008e-06
4.59479341998821e-02	9.99976461176121e-01,-2.87209961474389e-06
4.62675273562122e-02	9.99976461176006e-01,-2.89207664738179e-06
4.65893434587390e-02	9.99976461175889e-01,-2.91219263127018e-06
4.69133979692759e-02	9.99976461175771e-01,-2.93244853289144e-06
4.72397064571820e-02	9.99976461175651e-01,-2.95284532545037e-06
4.75682846001096e-02	9.99976461175529e-01,-2.97338398892092e-06
4.78991481847579e-02	9.99976461175406e-01,-2.99406551009334e-06
4.82323131076312e-02	9.99976461175281e-01,-3.01489088262151e-06
4.85677953758027e-02	9.99976461175154e-01,-3.03586110707075e-06
4.89056111076836e-02	9.99976461175025e-01,-3.05697719096583e-06
4.92457765337975e-02	9.99976461174895e-01,-3.07824014883944e-06
4.95883079975603e-02	9.99976461174763e-01,-3.09965100228088e-06
4.99332219560653e-02	9.99976461174628e-01,-3.12121077998519e-06
5.02805349808740e-02	9.99976461174492e-01,-3.14292051780252e-06
5.06302637588120e-02	9.99976461174355e-01,-3.16478125878794e-06
5.09824250927713e-02	9.99976461174215e-01,-3.18679405325156e-06
5.13370359025170e-02	9.99976461174073e-01,-3.20895995880895e-06
5.16941132255006e-02	9.99976461173929e-01,-3.23128004043199e-06
5.20536742176782e-02	9.99976461173783e-01,-3.25375537050002e-06
5.24157361543354e-02	9.99976461173635e-01,-3.27638702885137e-06
5.27803164309167e-02	9.99976461173486e-01,-3.29917610283523e-06
5.31474325638614e-02	9.99976461173334e-01,-3.32212368736393e-06
5.35171021914454e-02	9.99976461173180e-01,-3.34523088496548e-06
5.38893430746286e-02	9.99976461173024e-01,-3.36849880583662e-06
5.42641730979078e-02	9.99976461172865e-01,-3.39192856789607e-06
5.46416102701768e-02	9.99976461172705e-01,-3.41552129683834e-06
5.50216727255907e-02	9.99976461172542e-01,-3.43927812618773e-06
5.54043787244380e-02	9.99976461172376e-01,-3.46320019735284e-06
5.57897466540172e-02	9.99976461172209e-01,-3.48728865968138e-06
5.61777950295209e-02	9.99976461172039e-01,-3.51154467051542e-06
5.65685424949248e-02	9.99976461171867e-01,-3.53596939524699e-06
5.69620078238839e-02	9.99976461171693e-01,-3.56056400737403e-06
5.73582099206341e-02	9.99976461171516e-01,-3.58532968855684e-06
5.77571678209009e-02	9.99976461171336e-01,-3.61026762867479e-06
5.81589006928135e-02	9.99976461171154e-01,-3.63537902588353e-06
5.85634278378261e-02	9.99976461170970e-01,-3.66066508667253e-06
5.89707686916451e-02	9.99976461170783e-01,-3.68612702592308e-06
5.93809428251631e-02	9.99976461170593e-01,-3.71176606696660e-06
5.97939699453986e-02	9.99976461170401e-01,-3.73758344164350e-06
6.02098698964438e-02	9.99976461170206e-01,-3.76358039036228e-06
6.06286626604171e-02	9.99976461170008e-01,-3.78975816215918e-06
6.10503683584235e-02	9.99976461169808e-01,-3.81611801475818e-06
6.14750072515216e-02	9.99976461169604e-01,-3.84266121463139e-06
6.19025997416968e-02	9.99976461169398e-01,-3.86938903705997e-06
6.23331663728412e-02	9.99976461169189e-01,-3.89630276619535e-06
6.27667278317413e-02	9.99976461168977e-01,-3.92340369512092e-06
6.32033049490714e-02	9.99976461168762e-01,-3.95069312591420e-06
6.36429187003947e-02	9.99976461168545e-01,-3.97817236970937e-06
6.40855902071710e-02	9.99976461168324e-01,-4.00584274676025e-06
6.45313407377713e-02	9.99976461168099e-01,-4.03370558650378e-06
6.49801917085001e-02	9.99976461167872e-01,-4.06176222762386e-06
6.54321646846237e-02	9.99976461167642e-01,-4.09001401811564e-06
6.58872813814071e-02	9.99976461167408e-01,-4.11846231535036e-06
6.63455636651566e-02	9.99976461167172e-01,-4.14710848614051e-06
6.68070335542709e-02	9.99976461166932e-01,-4.17595390680551e-06
6.72717132202985e-02	9.99976461166688e-01,-4.20499996323782e-06
6.77396249890035e-02	9.99976461166441e-01,-4.23424805096957e-06
6.82107913414379e-02	9.99976461166191e-01,-4.26369957523959e-06
6.86852349150217e-02	9.99976461165937e-01,-4.29335595106089e-06
6.91629785046306e-02	9.99976461165680e-01,-4.32321860328869e-06
6.96440450636913e-02	9.99976461165419e-01,-4.35328896668887e-06
7.01284577052842e-02	9.99976461165154e-01,-4.38356848600688e-06
7.06162397032538e-02	9.99976461164886e-01,-4.41405861603717e-06
7.11074144933271e-02	9.99976461164614e-01,-4.44476082169310e-06
7.16020056742393e-02	9.99976461164339e-01,-4.47567657807729e-06
7.21000370088679e-02	9.99976461164059e-01,-4.50680737055253e-06
7.26015324253744e-02	9.99976461163775e-01,-4.53815469481312e-06
7.31065160183536e-02	9.99976461163488e-01,-4.56972005695671e-06
7.36150120499915e-02	9.99976461163196e-01,-4.60150497355672e-06
7.41270449512312e-02	9.99976461162901e-01,-4.63351097173517e-06
7.46426393229462e-02	9.99976461162601e-01,-4.66573958923603e-06
7.51618199371225e-02	9.99976461162297e-01,-4.69819237449915e-06
7.56846117380493e-02	9.99976461161989e-01,-4.73087088673461e-06
7.62110398435166e-02	9.99976461161676e-01,-4.76377669599768e-06
7.67411295460228e-02	9.99976461161360e-01,-4.79691138326420e-06
7.72749063139893e-02	9.99976461161038e-01,-4.83027654050659e-06
7.78123957929845e-02	9.99976461160713e-01,-4.86387377077030e-06
7.83536238069558e-02	9.99976461160383e-01,-4.89770468825083e-06
7.88986163594704e-02	9.99976461160048e-01,-4.93177091837134e-06
7.94473996349646e-02	9.99976461159708e-01,-4.96607409786065e-06
8.00000000000017e-02	9.99976461159364e-01,-5.00061587483198e-06
8.05564440045393e-02	9.99976461159015e-01,-5.03539790886204e-06
8.11167583832041e-02	9.99976461158661e-01,-5.07042187107083e-06
8.16809700565772e-02	9.99976461158302e-01,-5.10568944420191e-06
8.22491061324871e-02	9.99976461157938e-01,-5.14120232270325e-06
8.28211939073120e-02	9.99976461157569e-01,-5.17696221280862e-06
8.33972608672915e-02	9.99976461157195e-01,-5.21297083261960e-06
8.39773346898472e-02	9.99976461156816e-01,-5.24922991218811e-06
8.45614432449123e-02	9.99976461156431e-01,-5.28574119359953e-06
8.51496145962707e-02	9.99976461156041e-01,-5.32250643105639e-06
8.57418770029054e-02	9.99976461155645e-01,-5.35952739096270e-06
8.63382589203561e-02	9.99976461155244e-01,-5.39680585200873e-06
