Freq.	V(vout)
2.00000000000000e+01	9.99958341246162e-01,-2.00001919928903e-03
2.01391110011344e+01	9.99958285405070e-01,-2.01393032047932e-03
2.02791895958006e+01	9.99958228784473e-01,-2.02793819880629e-03
2.04202425141439e+01	9.99958171373489e-01,-2.04204350721939e-03
2.05622765331213e+01	9.99958113161083e-01,-2.05624692334776e-03
2.07052984768276e+01	9.99958054136070e-01,-2.07054912953276e-03
2.08493152168224e+01	9.99957994287105e-01,-2.08495081286073e-03
2.09943336724614e+01	9.99957933602687e-01,-2.09945266519596e-03
2.11403608112276e+01	9.99957872071153e-01,-2.11405538321389e-03
2.12874036490672e+01	9.99957809680680e-01,-2.12875966843458e-03
2.14354692507259e+01	9.99957746419275e-01,-2.14356622725637e-03
2.15845647300886e+01	9.99957682274783e-01,-2.15847577098975e-03
2.17346972505212e+01	9.99957617234875e-01,-2.17348901589156e-03
2.18858740252148e+01	9.99957551287052e-01,-2.18860668319935e-03
2.20381023175322e+01	9.99957484418642e-01,-2.20382949916597e-03
2.21913894413569e+01	9.99957416616791e-01,-2.21915819509446e-03
2.23457427614444e+01	9.99957347868472e-01,-2.23459350737312e-03
2.25011696937762e+01	9.99957278160472e-01,-2.25013617751087e-03
2.26576777059160e+01	9.99957207479394e-01,-2.26578695217287e-03
2.28152743173685e+01	9.99957135811656e-01,-2.28154658321627e-03
2.29739670999407e+01	9.99957063143483e-01,-2.29741582772639e-03
2.31337636781058e+01	9.99956989460911e-01,-2.31339544805298e-03
2.32946717293691e+01	9.99956914749781e-01,-2.32948621184685e-03
2.34566989846376e+01	9.99956838995733e-01,-2.34568889209669e-03
2.36198532285906e+01	9.99956762184209e-01,-2.36200426716617e-03
2.37841423000545e+01	9.99956684300449e-01,-2.37843312083129e-03
2.39495740923786e+01	9.99956605329484e-01,-2.39497624231799e-03
2.41161565538152e+01	9.99956525256139e-01,-2.41163442634006e-03
2.42838976879010e+01	9.99956444065024e-01,-2.42840847313719e-03
2.44528055538414e+01	9.99956361740537e-01,-2.44529918851347e-03
2.46228882668984e+01	9.99956278266857e-01,-2.46230738387599e-03
2.47941539987798e+01	9.99956193627942e-01,-2.47943387627378e-03
2.49666109780323e+01	9.99956107807526e-01,-2.49667948843705e-03
2.51402674904366e+01	9.99956020789117e-01,-2.51404504881663e-03
2.53151318794057e+01	9.99955932555992e-01,-2.53153139162375e-03
2.54912125463853e+01	9.99955843091194e-01,-2.54913935687004e-03
2.56685179512581e+01	9.99955752377531e-01,-2.56686979040784e-03
2.58470566127499e+01	9.99955660397568e-01,-2.58472354397078e-03
2.60268371088387e+01	9.99955567133631e-01,-2.60270147521468e-03
2.62078680771673e+01	9.99955472567795e-01,-2.62080444775863e-03
2.63901582154580e+01	9.99955376681888e-01,-2.63903333122649e-03
2.65737162819303e+01	9.99955279457482e-01,-2.65738900128856e-03
2.67585510957223e+01	9.99955180875893e-01,-2.67587233970363e-03
2.69446715373139e+01	9.99955080918177e-01,-2.69448423436124e-03
2.71320865489535e+01	9.99954979565123e-01,-2.71322557932430e-03
2.73208051350880e+01	9.99954876797254e-01,-2.73209727487197e-03
2.75108363627950e+01	9.99954772594821e-01,-2.75110022754287e-03
2.77021893622186e+01	9.99954666937798e-01,-2.77023535017850e-03
2.78948733270082e+01	9.99954559805881e-01,-2.78950356196712e-03
2.80888975147600e+01	9.99954451178481e-01,-2.80890578848775e-03
2.82842712474620e+01	9.99954341034724e-01,-2.82844296175462e-03
2.84810039119415e+01	9.99954229353442e-01,-2.84811602026187e-03
2.86791049603166e+01	9.99954116113172e-01,-2.86792590902854e-03
2.88785839104500e+01	9.99954001292154e-01,-2.88787357964391e-03
2.90794503464063e+01	9.99953884868321e-01,-2.90795999031314e-03
2.92817139189126e+01	9.99953766819299e-01,-2.92818610590321e-03
2.94853843458221e+01	9.99953647122403e-01,-2.94855289798922e-03
2.96904714125811e+01	9.99953525754630e-01,-2.96906134490095e-03
2.98969849726989e+01	9.99953402692656e-01,-2.98971243176982e-03
3.01049349482215e+01	9.99953277912831e-01,-3.01050715057608e-03
3.03143313302081e+01	9.99953151391177e-01,-3.03144650019643e-03
3.05251841792113e+01	9.99953023103379e-01,-3.05253148645188e-03
3.07375036257604e+01	9.99952893024785e-01,-3.07376312215598e-03
3.09512998708479e+01	9.99952761130395e-01,-3.09514242716342e-03
3.11665831864201e+01	9.99952627394863e-01,-3.11667042841891e-03
3.13833639158702e+01	9.99952491792489e-01,-3.13834816000639e-03
3.16016524745352e+01	9.99952354297215e-01,-3.16017666319867e-03
3.18214593501969e+01	9.99952214882616e-01,-3.18215698650728e-03
3.20427951035850e+01	9.99952073521902e-01,-3.20429018573281e-03
3.22656703688852e+01	9.99951930187907e-01,-3.22657732401548e-03
3.24900958542496e+01	9.99951784853086e-01,-3.24901947188611e-03
3.27160823423114e+01	9.99951637489509e-01,-3.27161770731746e-03
3.29436406907031e+01	9.99951488068858e-01,-3.29437311577590e-03
3.31727818325778e+01	9.99951336562418e-01,-3.31728679027342e-03
3.34035167771350e+01	9.99951182941073e-01,-3.34035983142004e-03
3.36358566101488e+01	9.99951027175303e-01,-3.36359334747657e-03
3.38698124945013e+01	9.99950869235173e-01,-3.38698845440770e-03
3.41053956707185e+01	9.99950709090332e-01,-3.41054627593555e-03
3.43426174575103e+01	9.99950546710005e-01,-3.43426794359345e-03
3.45814892523148e+01	9.99950382062987e-01,-3.45815459678020e-03
3.48220225318452e+01	9.99950215117637e-01,-3.48220738281470e-03
3.50642288526416e+01	9.99950045841874e-01,-3.50642745699091e-03
3.53081198516264e+01	9.99949874203168e-01,-3.53081598263320e-03
3.55537072466630e+01	9.99949700168535e-01,-3.55537413115211e-03
3.58010028371191e+01	9.99949523704531e-01,-3.58010308210049e-03
3.60500185044334e+01	9.99949344777245e-01,-3.60500402322999e-03
3.63007662126867e+01	9.99949163352293e-01,-3.63007815054800e-03
3.65532580091762e+01	9.99948979394809e-01,-3.65532666837494e-03
3.68075060249952e+01	9.99948792869444e-01,-3.68075078940194e-03
3.70635224756151e+01	9.99948603740353e-01,-3.70635173474896e-03
3.73213196614725e+01	9.99948411971192e-01,-3.73213073402331e-03
3.75809099685607e+01	9.99948217525108e-01,-3.75808902537849e-03
3.78423058690241e+01	9.99948020364734e-01,-3.78422785557356e-03
3.81055199217578e+01	9.99947820452184e-01,-3.81054848003282e-03
3.83705647730108e+01	9.99947617749041e-01,-3.83705216290596e-03
3.86374531569941e+01	9.99947412216350e-01,-3.86374017712861e-03
3.89061978964917e+01	9.99947203814617e-01,-3.89061380448332e-03
3.91768119034774e+01	9.99946992503792e-01,-3.91767433566089e-03
3.94493081797347e+01	9.99946778243270e-01,-3.94492307032223e-03
3.97236998174817e+01	9.99946560991876e-01,-3.97236131716061e-03
4.00000000000003e+01	9.99946340707862e-01,-3.99999039396427e-03
4.02782220022691e+01	9.99946117348896e-01,-4.02781162767957e-03
4.05583791916015e+01	9.99945890872058e-01,-4.05582635447449e-03
4.08404850282880e+01	9.99945661233825e-01,-4.08403591980264e-03
4.11245530662430e+01	9.99945428390070e-01,-4.11244167846765e-03
4.14105969536554e+01	9.99945192296048e-01,-4.14104499468801e-03
4.16986304336452e+01	9.99944952906390e-01,-4.16984724216243e-03
4.19886673449230e+01	9.99944710175094e-01,-4.19884980413555e-03
4.22807216224556e+01	9.99944464055516e-01,-4.22805407346418e-03
4.25748072981347e+01	9.99944214500360e-01,-4.25746145268395e-03
4.28709385014521e+01	9.99943961461671e-01,-4.28707335407643e-03
4.31691294601774e+01	9.99943704890824e-01,-4.31689119973675e-03
4.34693945010427e+01	9.99943444738517e-01,-4.34691642164163e-03
4.37717480504299e+01	9.99943180954756e-01,-4.37715046171791e-03
4.40762046350648e+01	9.99942913488854e-01,-4.40759477191156e-03
4.43827788827142e+01	9.99942642289413e-01,-4.43825081425715e-03
4.46914855228892e+01	9.99942367304319e-01,-4.46912006094775e-03
4.50023393875528e+01	9.99942088480730e-01,-4.50020399440547e-03
4.53153554118323e+01	9.99941805765068e-01,-4.53150410735226e-03
4.56305486347374e+01	9.99941519103006e-01,-4.56302190288140e-03
4.59479341998818e+01	9.99941228439458e-01,-4.59475889452938e-03
4.62675273562119e+01	9.99940933718571e-01,-4.62671660634827e-03
4.65893434587387e+01	9.99940634883711e-01,-4.65889657297862e-03
4.69133979692756e+01	9.99940331877454e-01,-4.69130033972287e-03
4.72397064571817e+01	9.99940024641575e-01,-4.72392946261924e-03
4.75682846001093e+01	9.99939713117036e-01,-4.75678550851614e-03
4.78991481847576e+01	9.99939397243974e-01,-4.78987005514708e-03
4.82323131076309e+01	9.99939076961693e-01,-4.82318469120612e-03
4.85677953758023e+01	9.99938752208647e-01,-4.85673101642380e-03
4.89056111076832e+01	9.99938422922432e-01,-4.89051064164366e-03
4.92457765337971e+01	9.99938089039775e-01,-4.92452518889917e-03
4.95883079975600e+01	9.99937750496518e-01,-4.95877629149134e-03
4.99332219560650e+01	9.99937407227606e-01,-4.99326559406675e-03
5.02805349808736e+01	9.99937059167080e-01,-5.02799475269611e-03
5.06302637588117e+01	9.99936706248058e-01,-5.06296543495349e-03
5.09824250927710e+01	9.99936348402724e-01,-5.09817931999594e-03
5.13370359025167e+01	9.99935985562316e-01,-5.13363809864371e-03
5.16941132255002e+01	9.99935617657114e-01,-5.16934347346110e-03
5.20536742176779e+01	9.99935244616424e-01,-5.20529715883774e-03
5.24157361543351e+01	9.99934866368563e-01,-5.24150088107050e-03
5.27803164309163e+01	9.99934482840851e-01,-5.27795637844595e-03
5.31474325638610e+01	9.99934093959593e-01,-5.31466540132342e-03
5.35171021914451e+01	9.99933699650063e-01,-5.35162971221853e-03
5.38893430746282e+01	9.99933299836495e-01,-5.38885108588739e-03
5.42641730979075e+01	9.99932894442064e-01,-5.42633130941136e-03
5.46416102701764e+01	9.99932483388873e-01,-5.46407218228235e-03
5.50216727255904e+01	9.99932066597938e-01,-5.50207551648875e-03
5.54043787244376e+01	9.99931643989174e-01,-5.54034313660191e-03
5.57897466540169e+01	9.99931215481376e-01,-5.57887687986324e-03
5.61777950295205e+01	9.99930780992207e-01,-5.61767859627194e-03
5.65685424949245e+01	9.99930340438180e-01,-5.65675014867320e-03
5.69620078238835e+01	9.99929893734645e-01,-5.69609341284719e-03
5.73582099206338e+01	9.99929440795769e-01,-5.73571027759850e-03
5.77571678209005e+01	9.99928981534520e-01,-5.77560264484630e-03
5.81589006928131e+01	9.99928515862654e-01,-5.81577242971504e-03
5.85634278378257e+01	9.99928043690694e-01,-5.85622156062581e-03
5.89707686916448e+01	9.99927564927914e-01,-5.89695197938834e-03
5.93809428251627e+01	9.99927079482323e-01,-5.93796564129359e-03
5.97939699453983e+01	9.99926587260645e-01,-5.97926451520699e-03
6.02098698964434e+01	9.99926088168303e-01,-6.02085058366235e-03
6.06286626604167e+01	9.99925582109401e-01,-6.06272584295631e-03
6.10503683584231e+01	9.99925068986703e-01,-6.10489230324360e-03
6.14750072515213e+01	9.99924548701617e-01,-6.14735198863279e-03
6.19025997416964e+01	9.99924021154174e-01,-6.19010693728278e-03
6.23331663728408e+01	9.99923486243012e-01,-6.23315920149993e-03
6.27667278317409e+01	9.99922943865352e-01,-6.27651084783586e-03
6.32033049490710e+01	9.99922393916983e-01,-6.32016395718590e-03
6.36429187003943e+01	9.99921836292239e-01,-6.36412062488823e-03
6.40855902071706e+01	9.99921270883979e-01,-6.40838296082369e-03
6.45313407377709e+01	9.99920697583566e-01,-6.45295308951625e-03
6.49801917084997e+01	9.99920116280849e-01,-6.49783315023422e-03
6.54321646846233e+01	9.99919526864138e-01,-6.54302529709205e-03
6.58872813814067e+01	9.99918929220186e-01,-6.58853169915298e-03
6.63455636651562e+01	9.99918323234166e-01,-6.63435454053222e-03
6.68070335542704e+01	9.99917708789645e-01,-6.68049602050092e-03
6.72717132202981e+01	9.99917085768570e-01,-6.72695835359087e-03
6.77396249890031e+01	9.99916454051237e-01,-6.77374376969986e-03
6.82107913414375e+01	9.99915813516273e-01,-6.82085451419776e-03
6.86852349150212e+01	9.99915164040613e-01,-6.86829284803336e-03
6.91629785046302e+01	9.99914505499472e-01,-6.91606104784190e-03
6.96440450636909e+01	9.99913837766325e-01,-6.96416140605337e-03
7.01284577052838e+01	9.99913160712881e-01,-7.01259623100147e-03
7.06162397032534e+01	9.99912474209059e-01,-7.06136784703342e-03
7.11074144933266e+01	9.99911778122964e-01,-7.11047859462039e-03
7.16020056742388e+01	9.99911072320858e-01,-7.15993083046881e-03
7.21000370088674e+01	9.99910356667140e-01,-7.20972692763232e-03
7.26015324253739e+01	9.99909631024314e-01,-7.25986927562457e-03
7.31065160183531e+01	9.99908895252966e-01,-7.31036028053271e-03
7.36150120499911e+01	9.99908149211740e-01,-7.36120236513169e-03
7.41270449512307e+01	9.99907392757302e-01,-7.41239796899935e-03
7.46426393229457e+01	9.99906625744323e-01,-7.46394954863226e-03
7.51618199371220e+01	9.99905848025443e-01,-7.51585957756231e-03
7.56846117380488e+01	9.99905059451247e-01,-7.56813054647419e-03
7.62110398435161e+01	9.99904259870236e-01,-7.62076496332358e-03
7.67411295460223e+01	9.99903449128795e-01,-7.67376535345614e-03
7.72749063139888e+01	9.99902627071168e-01,-7.72713425972738e-03
7.78123957929840e+01	9.99901793539424e-01,-7.78087424262323e-03
7.83536238069553e+01	9.99900948373430e-01,-7.83498788038154e-03
7.88986163594699e+01	9.99900091410816e-01,-7.88947776911429e-03
7.94473996349641e+01	9.99899222486951e-01,-7.94434652293070e-03
8.00000000000012e+01	9.99898341434902e-01,-7.99959677406117e-03
8.05564440045387e+01	9.99897448085410e-01,-8.05523117298199e-03
8.11167583832036e+01	9.99896542266854e-01,-8.11125238854097e-03
8.16809700565767e+01	9.99895623805218e-01,-8.16766310808385e-03
8.22491061324866e+01	9.99894692524058e-01,-8.22446603758160e-03
8.28211939073115e+01	9.99893748244469e-01,-8.28166390175860e-03
8.33972608672910e+01	9.99892790785049e-01,-8.33925944422159e-03
8.39773346898467e+01	9.99891819961866e-01,-8.39725542758959e-03
8.45614432449118e+01	9.99890835588421e-01,-8.45565463362463e-03
8.51496145962701e+01	9.99889837475613e-01,-8.51445986336338e-03
8.57418770029048e+01	9.99888825431705e-01,-8.57367393724969e-03
8.63382589203556e+01	9.99887799262282e-01,-8.63329969526793e-03
8.69387890020860e+01	9.99886758770218e-01,-8.69333999707732e-03
8.75434961008606e+01	9.99885703755638e-01,-8.75379772214714e-03
8.81524092701303e+01	9.99884634015876e-01,-8.81467576989282e-03
8.87655577654290e+01	9.99883549345440e-01,-8.87597705981289e-03
8.93829710457790e+01	9.99882449535972e-01,-8.93770453162701e-03
9.00046787751062e+01	9.99881334376207e-01,-8.99986114541475e-03
9.06307108236654e+01	9.99880203651931e-01,-9.06244988175541e-03
9.12610972694754e+01	9.99879057145943e-01,-9.12547374186868e-03
9.18958683997643e+01	9.99877894638013e-01,-9.18893574775632e-03
9.25350547124245e+01	9.99876715904837e-01,-9.25283894234480e-03
9.31786869174780e+01	9.99875520719997e-01,-9.31718638962877e-03
9.38267959385519e+01	9.99874308853916e-01,-9.38198117481560e-03
9.44794129143640e+01	9.99873080073813e-01,-9.44722640447085e-03
9.51365692002193e+01	9.99871834143664e-01,-9.51292520666471e-03
9.57982963695159e+01	9.99870570824148e-01,-9.57908073111938e-03
9.64646262152625e+01	9.99869289872609e-01,-9.64569614935747e-03
9.71355907516054e+01	9.99867991043003e-01,-9.71277465485141e-03
9.78112222153672e+01	9.99866674085857e-01,-9.78031946317375e-03
9.84915530675950e+01	9.99865338748217e-01,-9.84833381214857e-03
9.91766159951206e+01	9.99863984773600e-01,-9.91682096200384e-03
9.98664439121307e+01	9.99862611901945e-01,-9.98578419552477e-03
1.00561069961748e+02	9.99861219869566e-01,-1.00552268182082e-02
1.01260527517624e+02	9.99859808409096e-01,-1.01251521584181e-02
1.01964850185543e+02	9.99858377249441e-01,-1.01955635675419e-02
1.02674071805034e+02	9.99856926115726e-01,-1.02664644201479e-02
1.03388226451001e+02	9.99855454729239e-01,-1.03378581141440e-02
1.04107348435357e+02	9.99853962807384e-01,-1.04097480709372e-02
1.04831472308671e+02	9.99852450063622e-01,-1.04821377355939e-02
1.05560632861833e+02	9.99850916207418e-01,-1.05550305770021e-02
1.06294865127723e+02	9.99849360944184e-01,-1.06284300880337e-02
1.07034204382891e+02	9.99847783975225e-01,-1.07023397857083e-02
1.07778686149257e+02	9.99846184997678e-01,-1.07767632113585e-02
1.08528346195816e+02	9.99844563704459e-01,-1.08517039307954e-02
1.09283220540354e+02	9.99842919784198e-01,-1.09271655344758e-02
1.10043345451182e+02	9.99841252921185e-01,-1.10031516376704e-02
1.10808757448876e+02	9.99839562795306e-01,-1.10796658806330e-02
1.11579493308035e+02	9.99837849081983e-01,-1.11567119287709e-02
1.12355590059042e+02	9.99836111452112e-01,-1.12342934728161e-02
1.13137084989850e+02	9.99834349571998e-01,-1.13124142289983e-02
1.13924015647768e+02	9.99832563103295e-01,-1.13910779392184e-02
1.14716419841268e+02	9.99830751702936e-01,-1.14702883712230e-02
1.15514335641802e+02	9.99828915023072e-01,-1.15500493187810e-02
1.16317801385627e+02	9.99827052711003e-01,-1.16303646018604e-02
1.17126855675652e+02	9.99825164409109e-01,-1.17112380668065e-02
1.17941537383290e+02	9.99823249754786e-01,-1.17926735865213e-02
1.18761885650326e+02	9.99821308380372e-01,-1.18746750606444e-02
1.19587939890797e+02	9.99819339913079e-01,-1.19572464157345e-02
1.20419739792888e+02	9.99817343974920e-01,-1.20403916054522e-02
1.21257325320834e+02	9.99815320182640e-01,-1.21241146107446e-02
1.22100736716847e+02	9.99813268147637e-01,-1.22084194400302e-02
1.22950014503043e+02	9.99811187475894e-01,-1.22933101293853e-02
1.23805199483394e+02	9.99809077767898e-01,-1.23787907427322e-02
1.24666332745682e+02	9.99806938618567e-01,-1.24648653720276e-02
1.25533455663483e+02	9.99804769617169e-01,-1.25515381374532e-02
1.26406609898143e+02	9.99802570347250e-01,-1.26388131876066e-02
1.27285837400790e+02	9.99800340386546e-01,-1.27266946996939e-02
1.28171180414342e+02	9.99798079306906e-01,-1.28151868797240e-02
1.29062681475543e+02	9.99795786674214e-01,-1.29042939627031e-02
1.29960383417000e+02	9.99793462048297e-01,-1.29940202128311e-02
1.30864329369248e+02	9.99791104982849e-01,-1.30843699236994e-02
1.31774562762814e+02	9.99788715025341e-01,-1.31753474184894e-02
1.32691127330313e+02	9.99786291716936e-01,-1.32669570501727e-02
1.33614067108542e+02	9.99783834592401e-01,-1.33592032017123e-02
1.34543426440597e+02	9.99781343180017e-01,-1.34520902862655e-02
1.35479249978007e+02	9.99778817001491e-01,-1.35456227473876e-02
1.36421582682876e+02	9.99776255571861e-01,-1.36398050592368e-02
1.37370469830043e+02	9.99773658399406e-01,-1.37346417267814e-02
1.38325957009261e+02	9.99771024985553e-01,-1.38301372860067e-02
1.39288090127383e+02	9.99768354824777e-01,-1.39262963041248e-02
1.40256915410569e+02	9.99765647404508e-01,-1.40231233797848e-02
1.41232479406508e+02	9.99762902205032e-01,-1.41206231432841e-02
1.42214828986654e+02	9.99760118699394e-01,-1.42188002567823e-02
1.43204011348479e+02	9.99757296353289e-01,-1.43176594145147e-02
1.44200074017736e+02	9.99754434624972e-01,-1.44172053430085e-02
1.45203064850749e+02	9.99751532965144e-01,-1.45174428013000e-02
1.46213032036707e+02	9.99748590816851e-01,-1.46183765811527e-02
1.47230024099983e+02	9.99745607615380e-01,-1.47200115072769e-02
1.48254089902463e+02	9.99742582788146e-01,-1.48223524375517e-02
1.49285278645892e+02	9.99739515754587e-01,-1.49254042632464e-02
1.50323639874245e+02	9.99736405926048e-01,-1.50291719092453e-02
1.51369223476099e+02	9.99733252705675e-01,-1.51336603342725e-02
1.52422079687033e+02	9.99730055488295e-01,-1.52388745311186e-02
1.53482259092046e+02	9.99726813660304e-01,-1.53448195268690e-02
1.54549812627979e+02	9.99723526599547e-01,-1.54515003831329e-02
1.55624791585969e+02	9.99720193675202e-01,-1.55589221962747e-02
1.56707247613912e+02	9.99716814247657e-01,-1.56670900976459e-02
1.57797232718941e+02	9.99713387668390e-01,-1.57760092538190e-02
1.58894799269929e+02	9.99709913279842e-01,-1.58856848668222e-02
1.60000000000004e+02	9.99706390415295e-01,-1.59961221743765e-02
1.61112888009079e+02	9.99702818398742e-01,-1.61073264501335e-02
1.62233516766408e+02	9.99699196544760e-01,-1.62193030039144e-02
1.63361940113155e+02	9.99695524158375e-01,-1.63320571819515e-02
1.64498212264974e+02	9.99691800534935e-01,-1.64455943671300e-02
1.65642387814624e+02	9.99688024959972e-01,-1.65599199792320e-02
1.66794521734583e+02	9.99684196709065e-01,-1.66750394751818e-02
1.67954669379695e+02	9.99680315047704e-01,-1.67909583492922e-02
1.69122886489825e+02	9.99676379231147e-01,-1.69076821335132e-02
1.70299229192542e+02	9.99672388504282e-01,-1.70252163976813e-02
1.71483754005811e+02	9.99668342101478e-01,-1.71435667497706e-02
1.72676517840712e+02	9.99664239246442e-01,-1.72627388361456e-02
