Freq.	V(vout)
2.00000000000000e+01	9.99880850560354e-01,-4.99978468466934e-03
2.01391110011344e+01	9.99880501570680e-01,-5.03455918009723e-03
2.02791895958006e+01	9.99880147709541e-01,-5.06957551434711e-03
2.04202425141439e+01	9.99879788908940e-01,-5.10483536876526e-03
2.05622765331213e+01	9.99879425099932e-01,-5.14034043637635e-03
2.07052984768276e+01	9.99879056212610e-01,-5.17609242196431e-03
2.08493152168224e+01	9.99878682176091e-01,-5.21209304215381e-03
2.09943336724614e+01	9.99878302918503e-01,-5.24834402549222e-03
2.11403608112276e+01	9.99877918366969e-01,-5.28484711253222e-03
2.12874036490672e+01	9.99877528447599e-01,-5.32160405591488e-03
2.14354692507259e+01	9.99877133085467e-01,-5.35861662045341e-03
2.15845647300886e+01	9.99876732204605e-01,-5.39588658321739e-03
2.17346972505212e+01	9.99876325727982e-01,-5.43341573361769e-03
2.18858740252148e+01	9.99875913577495e-01,-5.47120587349182e-03
2.20381023175322e+01	9.99875495673949e-01,-5.50925881719002e-03
2.21913894413569e+01	9.99875071937043e-01,-5.54757639166184e-03
2.23457427614444e+01	9.99874642285357e-01,-5.58616043654336e-03
2.25011696937762e+01	9.99874206636333e-01,-5.62501280424497e-03
2.26576777059160e+01	9.99873764906264e-01,-5.66413536003979e-03
2.28152743173685e+01	9.99873317010272e-01,-5.70352998215269e-03
2.29739670999407e+01	9.99872862862294e-01,-5.74319856184989e-03
2.31337636781058e+01	9.99872402375067e-01,-5.78314300352919e-03
2.32946717293691e+01	9.99871935460112e-01,-5.82336522481083e-03
2.34566989846376e+01	9.99871462027712e-01,-5.86386715662897e-03
2.36198532285906e+01	9.99870981986900e-01,-5.90465074332377e-03
2.37841423000545e+01	9.99870495245438e-01,-5.94571794273412e-03
2.39495740923786e+01	9.99870001709803e-01,-5.98707072629101e-03
2.41161565538152e+01	9.99869501285164e-01,-6.02871107911152e-03
2.42838976879010e+01	9.99868993875369e-01,-6.07064100009349e-03
2.44528055538414e+01	9.99868479382924e-01,-6.11286250201074e-03
2.46228882668984e+01	9.99867957708972e-01,-6.15537761160909e-03
2.47941539987798e+01	9.99867428753278e-01,-6.19818836970292e-03
2.49666109780323e+01	9.99866892414210e-01,-6.24129683127240e-03
2.51402674904366e+01	9.99866348588715e-01,-6.28470506556146e-03
2.53151318794057e+01	9.99865797172303e-01,-6.32841515617633e-03
2.54912125463853e+01	9.99865238059026e-01,-6.37242920118483e-03
2.56685179512581e+01	9.99864671141457e-01,-6.41674931321629e-03
2.58470566127499e+01	9.99864096310670e-01,-6.46137761956215e-03
2.60268371088387e+01	9.99863513456218e-01,-6.50631626227733e-03
2.62078680771673e+01	9.99862922466116e-01,-6.55156739828213e-03
2.63901582154580e+01	9.99862323226813e-01,-6.59713319946500e-03
2.65737162819303e+01	9.99861715623174e-01,-6.64301585278588e-03
2.67585510957223e+01	9.99861099538459e-01,-6.68921756038030e-03
2.69446715373139e+01	9.99860474854296e-01,-6.73574053966421e-03
2.71320865489535e+01	9.99859841450665e-01,-6.78258702343945e-03
2.73208051350880e+01	9.99859199205867e-01,-6.82975925999999e-03
2.75108363627950e+01	9.99858547996509e-01,-6.87725951323891e-03
2.77021893622186e+01	9.99857887697474e-01,-6.92509006275608e-03
2.78948733270082e+01	9.99857218181897e-01,-6.97325320396653e-03
2.80888975147600e+01	9.99856539321147e-01,-7.02175124820963e-03
2.82842712474620e+01	9.99855850984795e-01,-7.07058652285898e-03
2.84810039119415e+01	9.99855153040594e-01,-7.11976137143305e-03
2.86791049603166e+01	9.99854445354449e-01,-7.16927815370653e-03
2.88785839104500e+01	9.99853727790397e-01,-7.21913924582254e-03
2.90794503464063e+01	9.99853000210575e-01,-7.26934704040546e-03
2.92817139189126e+01	9.99852262475199e-01,-7.31990394667464e-03
2.94853843458221e+01	9.99851514442533e-01,-7.37081239055886e-03
2.96904714125811e+01	9.99850755968862e-01,-7.42207481481145e-03
2.98969849726989e+01	9.99849986908468e-01,-7.47369367912642e-03
3.01049349482215e+01	9.99849207113600e-01,-7.52567146025513e-03
3.03143313302081e+01	9.99848416434442e-01,-7.57801065212388e-03
3.05251841792113e+01	9.99847614719092e-01,-7.63071376595234e-03
3.07375036257604e+01	9.99846801813525e-01,-7.68378333037262e-03
3.09512998708479e+01	9.99845977561569e-01,-7.73722189154931e-03
3.11665831864201e+01	9.99845141804872e-01,-7.79103201330024e-03
3.13833639158702e+01	9.99844294382873e-01,-7.84521627721806e-03
3.16016524745352e+01	9.99843435132771e-01,-7.89977728279269e-03
3.18214593501969e+01	9.99842563889492e-01,-7.95471764753451e-03
3.20427951035850e+01	9.99841680485660e-01,-8.01004000709851e-03
3.22656703688852e+01	9.99840784751564e-01,-8.06574701540912e-03
3.24900958542496e+01	9.99839876515125e-01,-8.12184134478602e-03
3.27160823423114e+01	9.99838955601862e-01,-8.17832568607071e-03
3.29436406907031e+01	9.99838021834861e-01,-8.23520274875397e-03
3.31727818325778e+01	9.99837075034740e-01,-8.29247526110420e-03
3.34035167771350e+01	9.99836115019612e-01,-8.35014597029650e-03
3.36358566101488e+01	9.99835141605055e-01,-8.40821764254282e-03
3.38698124945013e+01	9.99834154604073e-01,-8.46669306322280e-03
3.41053956707185e+01	9.99833153827060e-01,-8.52557503701559e-03
3.43426174575103e+01	9.99832139081765e-01,-8.58486638803255e-03
3.45814892523148e+01	9.99831110173258e-01,-8.64456995995073e-03
3.48220225318452e+01	9.99830066903885e-01,-8.70468861614746e-03
3.50642288526416e+01	9.99829009073238e-01,-8.76522523983561e-03
3.53081198516264e+01	9.99827936478110e-01,-8.82618273419992e-03
3.55537072466630e+01	9.99826848912462e-01,-8.88756402253413e-03
3.58010028371191e+01	9.99825746167379e-01,-8.94937204837916e-03
3.60500185044334e+01	9.99824628031032e-01,-9.01160977566203e-03
3.63007662126867e+01	9.99823494288637e-01,-9.07428018883591e-03
3.65532580091762e+01	9.99822344722413e-01,-9.13738629302097e-03
3.68075060249952e+01	9.99821179111542e-01,-9.20093111414618e-03
3.70635224756151e+01	9.99819997232124e-01,-9.26491769909213e-03
3.73213196614725e+01	9.99818798857138e-01,-9.32934911583471e-03
3.75809099685607e+01	9.99817583756393e-01,-9.39422845358987e-03
3.78423058690241e+01	9.99816351696490e-01,-9.45955882295916e-03
3.81055199217578e+01	9.99815102440771e-01,-9.52534335607646e-03
3.83705647730108e+01	9.99813835749280e-01,-9.59158520675548e-03
3.86374531569941e+01	9.99812551378712e-01,-9.65828755063838e-03
3.89061978964917e+01	9.99811249082368e-01,-9.72545358534533e-03
3.91768119034774e+01	9.99809928610109e-01,-9.79308653062502e-03
3.94493081797347e+01	9.99808589708305e-01,-9.86118962850628e-03
3.97236998174817e+01	9.99807232119790e-01,-9.92976614345056e-03
4.00000000000003e+01	9.99805855583810e-01,-9.99881936250556e-03
4.02782220022691e+01	9.99804459835974e-01,-1.00683525954598e-02
4.05583791916015e+01	9.99803044608203e-01,-1.01383691749981e-02
4.08404850282880e+01	9.99801609628679e-01,-1.02088724568584e-02
4.11245530662430e+01	9.99800154621794e-01,-1.02798658199895e-02
4.14105969536554e+01	9.99798679308093e-01,-1.03513526667093e-02
4.16986304336452e+01	9.99797183404226e-01,-1.04233364228651e-02
4.19886673449230e+01	9.99795666622890e-01,-1.04958205379940e-02
4.22807216224556e+01	9.99794128672775e-01,-1.05688084854851e-02
4.25748072981347e+01	9.99792569258506e-01,-1.06423037627423e-02
4.28709385014521e+01	9.99790988080593e-01,-1.07163098913480e-02
4.31691294601774e+01	9.99789384835365e-01,-1.07908304172287e-02
4.34693945010427e+01	9.99787759214918e-01,-1.08658689108209e-02
4.37717480504299e+01	9.99786110907053e-01,-1.09414289672381e-02
4.40762046350648e+01	9.99784439595217e-01,-1.10175142064398e-02
4.43827788827142e+01	9.99782744958442e-01,-1.10941282734001e-02
4.46914855228892e+01	9.99781026671285e-01,-1.11712748382791e-02
4.50023393875528e+01	9.99779284403764e-01,-1.12489575965940e-02
4.53153554118323e+01	9.99777517821294e-01,-1.13271802693920e-02
4.56305486347374e+01	9.99775726584627e-01,-1.14059466034243e-02
4.59479341998818e+01	9.99773910349781e-01,-1.14852603713213e-02
4.62675273562119e+01	9.99772068767979e-01,-1.15651253717684e-02
4.65893434587387e+01	9.99770201485580e-01,-1.16455454296838e-02
4.69133979692756e+01	9.99768308144012e-01,-1.17265243963964e-02
4.72397064571817e+01	9.99766388379703e-01,-1.18080661498260e-02
4.75682846001093e+01	9.99764441824010e-01,-1.18901745946638e-02
4.78991481847576e+01	9.99762468103152e-01,-1.19728536625547e-02
4.82323131076309e+01	9.99760466838135e-01,-1.20561073122798e-02
4.85677953758023e+01	9.99758437644679e-01,-1.21399395299416e-02
4.89056111076832e+01	9.99756380133149e-01,-1.22243543291487e-02
4.92457765337971e+01	9.99754293908475e-01,-1.23093557512031e-02
4.95883079975600e+01	9.99752178570080e-01,-1.23949478652881e-02
4.99332219560650e+01	9.99750033711801e-01,-1.24811347686570e-02
5.02805349808736e+01	9.99747858921813e-01,-1.25679205868237e-02
5.06302637588117e+01	9.99745653782549e-01,-1.26553094737547e-02
5.09824250927710e+01	9.99743417870621e-01,-1.27433056120610e-02
5.13370359025167e+01	9.99741150756736e-01,-1.28319132131929e-02
5.16941132255002e+01	9.99738852005619e-01,-1.29211365176349e-02
5.20536742176779e+01	9.99736521175927e-01,-1.30109797951025e-02
5.24157361543351e+01	9.99734157820161e-01,-1.31014473447396e-02
5.27803164309163e+01	9.99731761484588e-01,-1.31925434953179e-02
5.31474325638610e+01	9.99729331709145e-01,-1.32842726054367e-02
5.35171021914451e+01	9.99726868027361e-01,-1.33766390637252e-02
5.38893430746282e+01	9.99724369966259e-01,-1.34696472890447e-02
5.42641730979075e+01	9.99721837046270e-01,-1.35633017306930e-02
5.46416102701764e+01	9.99719268781141e-01,-1.36576068686100e-02
5.50216727255904e+01	9.99716664677839e-01,-1.37525672135839e-02
5.54043787244376e+01	9.99714024236462e-01,-1.38481873074598e-02
5.57897466540169e+01	9.99711346950138e-01,-1.39444717233487e-02
5.61777950295205e+01	9.99708632304932e-01,-1.40414250658383e-02
5.65685424949245e+01	9.99705879779743e-01,-1.41390519712048e-02
5.69620078238835e+01	9.99703088846211e-01,-1.42373571076262e-02
5.73582099206338e+01	9.99700258968609e-01,-1.43363451753974e-02
5.77571678209005e+01	9.99697389603746e-01,-1.44360209071456e-02
5.81589006928131e+01	9.99694480200860e-01,-1.45363890680477e-02
5.85634278378257e+01	9.99691530201514e-01,-1.46374544560494e-02
5.89707686916448e+01	9.99688539039489e-01,-1.47392219020848e-02
5.93809428251627e+01	9.99685506140674e-01,-1.48416962702979e-02
5.97939699453983e+01	9.99682430922958e-01,-1.49448824582656e-02
6.02098698964434e+01	9.99679312796121e-01,-1.50487853972214e-02
6.06286626604167e+01	9.99676151161717e-01,-1.51534100522816e-02
6.10503683584231e+01	9.99672945412959e-01,-1.52587614226714e-02
6.14750072515213e+01	9.99669694934609e-01,-1.53648445419539e-02
6.19025997416964e+01	9.99666399102856e-01,-1.54716644782594e-02
6.23331663728408e+01	9.99663057285194e-01,-1.55792263345168e-02
6.27667278317409e+01	9.99659668840310e-01,-1.56875352486860e-02
6.32033049490710e+01	9.99656233117951e-01,-1.57965963939918e-02
6.36429187003943e+01	9.99652749458809e-01,-1.59064149791593e-02
6.40855902071706e+01	9.99649217194389e-01,-1.60169962486509e-02
6.45313407377709e+01	9.99645635646882e-01,-1.61283454829042e-02
6.49801917084997e+01	9.99642004129038e-01,-1.62404679985720e-02
6.54321646846233e+01	9.99638321944036e-01,-1.63533691487633e-02
6.58872813814067e+01	9.99634588385343e-01,-1.64670543232857e-02
6.63455636651562e+01	9.99630802736588e-01,-1.65815289488898e-02
6.68070335542704e+01	9.99626964271422e-01,-1.66967984895146e-02
6.72717132202981e+01	9.99623072253378e-01,-1.68128684465340e-02
6.77396249890031e+01	9.99619125935731e-01,-1.69297443590061e-02
6.82107913414375e+01	9.99615124561356e-01,-1.70474318039221e-02
6.86852349150212e+01	9.99611067362585e-01,-1.71659363964588e-02
6.91629785046302e+01	9.99606953561056e-01,-1.72852637902304e-02
6.96440450636909e+01	9.99602782367570e-01,-1.74054196775437e-02
7.01284577052838e+01	9.99598552981937e-01,-1.75264097896537e-02
7.06162397032534e+01	9.99594264592823e-01,-1.76482398970208e-02
7.11074144933266e+01	9.99589916377596e-01,-1.77709158095699e-02
7.16020056742388e+01	9.99585507502172e-01,-1.78944433769508e-02
7.21000370088674e+01	9.99581037120851e-01,-1.80188284888000e-02
7.26015324253739e+01	9.99576504376158e-01,-1.81440770750041e-02
7.31065160183531e+01	9.99571908398681e-01,-1.82701951059651e-02
7.36150120499911e+01	9.99567248306902e-01,-1.83971885928663e-02
7.41270449512307e+01	9.99562523207032e-01,-1.85250635879410e-02
7.46426393229457e+01	9.99557732192837e-01,-1.86538261847415e-02
7.51618199371220e+01	9.99552874345470e-01,-1.87834825184105e-02
7.56846117380488e+01	9.99547948733292e-01,-1.89140387659535e-02
7.62110398435161e+01	9.99542954411696e-01,-1.90455011465134e-02
7.67411295460223e+01	9.99537890422928e-01,-1.91778759216458e-02
7.72749063139888e+01	9.99532755795902e-01,-1.93111693955965e-02
7.78123957929840e+01	9.99527549546016e-01,-1.94453879155804e-02
7.83536238069553e+01	9.99522270674966e-01,-1.95805378720618e-02
7.88986163594699e+01	9.99516918170554e-01,-1.97166256990365e-02
7.94473996349641e+01	9.99511491006496e-01,-1.98536578743152e-02
8.00000000000012e+01	9.99505988142229e-01,-1.99916409198087e-02
8.05564440045387e+01	9.99500408522705e-01,-2.01305814018147e-02
8.11167583832036e+01	9.99494751078201e-01,-2.02704859313059e-02
8.16809700565767e+01	9.99489014724106e-01,-2.04113611642197e-02
8.22491061324866e+01	9.99483198360722e-01,-2.05532138017500e-02
8.28211939073115e+01	9.99477300873050e-01,-2.06960505906401e-02
8.33972608672910e+01	9.99471321130577e-01,-2.08398783234768e-02
8.39773346898467e+01	9.99465257987068e-01,-2.09847038389875e-02
8.45614432449118e+01	9.99459110280338e-01,-2.11305340223368e-02
8.51496145962701e+01	9.99452876832041e-01,-2.12773758054269e-02
8.57418770029048e+01	9.99446556447436e-01,-2.14252361671979e-02
8.63382589203556e+01	9.99440147915170e-01,-2.15741221339304e-02
8.69387890020860e+01	9.99433650007040e-01,-2.17240407795498e-02
8.75434961008606e+01	9.99427061477762e-01,-2.18749992259317e-02
8.81524092701303e+01	9.99420381064736e-01,-2.20270046432096e-02
8.87655577654290e+01	9.99413607487805e-01,-2.21800642500831e-02
8.93829710457790e+01	9.99406739449010e-01,-2.23341853141291e-02
9.00046787751062e+01	9.99399775632347e-01,-2.24893751521134e-02
9.06307108236654e+01	9.99392714703514e-01,-2.26456411303044e-02
9.12610972694754e+01	9.99385555309659e-01,-2.28029906647883e-02
9.18958683997643e+01	9.99378296079123e-01,-2.29614312217859e-02
9.25350547124245e+01	9.99370935621181e-01,-2.31209703179712e-02
9.31786869174780e+01	9.99363472525775e-01,-2.32816155207910e-02
9.38267959385519e+01	9.99355905363249e-01,-2.34433744487866e-02
9.44794129143640e+01	9.99348232684077e-01,-2.36062547719170e-02
9.51365692002193e+01	9.99340453018589e-01,-2.37702642118836e-02
9.57982963695159e+01	9.99332564876690e-01,-2.39354105424562e-02
9.64646262152625e+01	9.99324566747580e-01,-2.41017015898010e-02
9.71355907516054e+01	9.99316457099467e-01,-2.42691452328101e-02
9.78112222153672e+01	9.99308234379274e-01,-2.44377494034323e-02
9.84915530675950e+01	9.99299897012348e-01,-2.46075220870055e-02
9.91766159951206e+01	9.99291443402163e-01,-2.47784713225911e-02
9.98664439121307e+01	9.99282871930012e-01,-2.49506052033092e-02
1.00561069961748e+02	9.99274180954705e-01,-2.51239318766759e-02
1.01260527517624e+02	9.99265368812257e-01,-2.52984595449421e-02
1.01964850185543e+02	9.99256433815574e-01,-2.54741964654335e-02
1.02674071805034e+02	9.99247374254130e-01,-2.56511509508923e-02
1.03388226451001e+02	9.99238188393649e-01,-2.58293313698206e-02
1.04107348435357e+02	9.99228874475773e-01,-2.60087461468252e-02
1.04831472308671e+02	9.99219430717730e-01,-2.61894037629633e-02
1.05560632861833e+02	9.99209855311997e-01,-2.63713127560909e-02
1.06294865127723e+02	9.99200146425961e-01,-2.65544817212116e-02
1.07034204382891e+02	9.99190302201567e-01,-2.67389193108274e-02
1.07778686149257e+02	9.99180320754973e-01,-2.69246342352909e-02
1.08528346195816e+02	9.99170200176191e-01,-2.71116352631586e-02
1.09283220540354e+02	9.99159938528724e-01,-2.72999312215464e-02
1.10043345451182e+02	9.99149533849206e-01,-2.74895309964855e-02
1.10808757448876e+02	9.99138984147028e-01,-2.76804435332810e-02
1.11579493308035e+02	9.99128287403962e-01,-2.78726778368703e-02
1.12355590059042e+02	9.99117441573780e-01,-2.80662429721848e-02
1.13137084989850e+02	9.99106444581872e-01,-2.82611480645109e-02
1.13924015647768e+02	9.99095294324848e-01,-2.84574022998544e-02
1.14716419841268e+02	9.99083988670148e-01,-2.86550149253046e-02
1.15514335641802e+02	9.99072525455637e-01,-2.88539952494006e-02
1.16317801385627e+02	9.99060902489196e-01,-2.90543526424992e-02
1.17126855675652e+02	9.99049117548314e-01,-2.92560965371430e-02
1.17941537383290e+02	9.99037168379664e-01,-2.94592364284306e-02
1.18761885650326e+02	9.99025052698682e-01,-2.96637818743884e-02
1.19587939890797e+02	9.99012768189137e-01,-2.98697424963425e-02
1.20419739792888e+02	9.99000312502694e-01,-3.00771279792929e-02
1.21257325320834e+02	9.98987683258472e-01,-3.02859480722885e-02
1.22100736716847e+02	9.98974878042599e-01,-3.04962125888032e-02
1.22950014503043e+02	9.98961894407755e-01,-3.07079314071133e-02
1.23805199483394e+02	9.98948729872713e-01,-3.09211144706762e-02
1.24666332745682e+02	9.98935381921874e-01,-3.11357717885099e-02
1.25533455663483e+02	9.98921848004796e-01,-3.13519134355738e-02
1.26406609898143e+02	9.98908125535709e-01,-3.15695495531507e-02
1.27285837400790e+02	9.98894211893037e-01,-3.17886903492295e-02
1.28171180414342e+02	9.98880104418902e-01,-3.20093460988896e-02
1.29062681475543e+02	9.98865800418625e-01,-3.22315271446852e-02
1.29960383417000e+02	9.98851297160226e-01,-3.24552438970319e-02
1.30864329369248e+02	9.98836591873905e-01,-3.26805068345931e-02
1.31774562762814e+02	9.98821681751526e-01,-3.29073265046681e-02
1.32691127330313e+02	9.98806563946094e-01,-3.31357135235809e-02
1.33614067108542e+02	9.98791235571219e-01,-3.33656785770694e-02
1.34543426440597e+02	9.98775693700573e-01,-3.35972324206762e-02
1.35479249978007e+02	9.98759935367350e-01,-3.38303858801393e-02
1.36421582682876e+02	9.98743957563704e-01,-3.40651498517848e-02
1.37370469830043e+02	9.98727757240191e-01,-3.43015353029189e-02
1.38325957009261e+02	9.98711331305197e-01,-3.45395532722215e-02
1.39288090127383e+02	9.98694676624363e-01,-3.47792148701403e-02
1.40256915410569e+02	9.98677790019997e-01,-3.50205312792856e-02
1.41232479406508e+02	9.98660668270482e-01,-3.52635137548252e-02
1.42214828986654e+02	9.98643308109676e-01,-3.55081736248801e-02
1.43204011348479e+02	9.98625706226300e-01,-3.57545222909212e-02
1.44200074017736e+02	9.98607859263326e-01,-3.60025712281658e-02
1.45203064850749e+02	9.98589763817344e-01,-3.62523319859743e-02
1.46213032036707e+02	9.98571416437938e-01,-3.65038161882484e-02
1.47230024099983e+02	9.98552813627032e-01,-3.67570355338283e-02
1.48254089902463e+02	9.98533951838251e-01,-3.70120017968909e-02
1.49285278645892e+02	9.98514827476252e-01,-3.72687268273481e-02
1.50323639874245e+02	9.98495436896060e-01,-3.75272225512456e-02
1.51369223476099e+02	9.98475776402392e-01,-3.77875009711606e-02
1.52422079687033e+02	9.98455842248966e-01,-3.80495741666011e-02
1.53482259092046e+02	9.98435630637810e-01,-3.83134542944043e-02
1.54549812627979e+02	9.98415137718556e-01,-3.85791535891352e-02
1.55624791585969e+02	9.98394359587723e-01,-3.88466843634848e-02
1.56707247613912e+02	9.98373292288000e-01,-3.91160590086686e-02
1.57797232718941e+02	9.98351931807506e-01,-3.93872899948248e-02
1.58894799269929e+02	9.98330274079051e-01,-3.96603898714116e-02
1.60000000000004e+02	9.98308314979383e-01,-3.99353712676050e-02
1.61112888009079e+02	9.98286050328423e-01,-4.02122468926954e-02
1.62233516766408e+02	9.98263475888497e-01,-4.04910295364845e-02
1.63361940113155e+02	9.98240587363547e-01,-4.07717320696806e-02
1.64498212264974e+02	9.98217380398342e-01,-4.10543674442947e-02
1.65642387814624e+02	9.98193850577674e-01,-4.13389486940341e-02
1.66794521734583e+02	9.98169993425540e-01,-4.16254889346971e-02
1.67954669379695e+02	9.98145804404322e-01,-4.19140013645649e-02
1.69122886489825e+02	9.98121278913948e-01,-4.22044992647948e-02
1.70299229192542e+02	9.98096412291043e-01,-4.24969959998099e-02
1.71483754005811e+02	9.98071199808077e-01,-4.27915050176898e-02
1.72676517840712e+02	9.98045636672491e-01,-4.30880398505589e-02
