Freq.	V(vout)
2.00000000000000e+01	9.99711752932084e-01,-9.99693706660954e-03
2.01391110011344e+01	9.99710357578344e-01,-1.00664572124519e-02
2.02791895958006e+01	9.99708942750168e-01,-1.01364606139615e-02
2.04202425141439e+01	9.99707508175816e-01,-1.02069506262462e-02
2.05622765331213e+01	9.99706053579757e-01,-1.02779306276202e-02
2.07052984768276e+01	9.99704578682615e-01,-1.03494040197630e-02
2.08493152168224e+01	9.99703083201119e-01,-1.04213742278785e-02
2.09943336724614e+01	9.99701566848048e-01,-1.04938447008565e-02
2.11403608112276e+01	9.99700029332175e-01,-1.05668189114340e-02
2.12874036490672e+01	9.99698470358207e-01,-1.06403003563582e-02
2.14354692507259e+01	9.99696889626739e-01,-1.07142925565508e-02
2.15845647300886e+01	9.99695286834187e-01,-1.07887990572727e-02
2.17346972505212e+01	9.99693661672731e-01,-1.08638234282901e-02
2.18858740252148e+01	9.99692013830262e-01,-1.09393692640421e-02
2.20381023175322e+01	9.99690342990316e-01,-1.10154401838086e-02
2.21913894413569e+01	9.99688648832016e-01,-1.10920398318799e-02
2.23457427614444e+01	9.99686931030011e-01,-1.11691718777272e-02
2.25011696937762e+01	9.99685189254411e-01,-1.12468400161744e-02
2.26576777059160e+01	9.99683423170726e-01,-1.13250479675705e-02
2.28152743173685e+01	9.99681632439804e-01,-1.14037994779639e-02
2.29739670999407e+01	9.99679816717760e-01,-1.14830983192769e-02
2.31337636781058e+01	9.99677975655915e-01,-1.15629482894824e-02
2.32946717293691e+01	9.99676108900728e-01,-1.16433532127810e-02
2.34566989846376e+01	9.99674216093729e-01,-1.17243169397793e-02
2.36198532285906e+01	9.99672296871447e-01,-1.18058433476696e-02
2.37841423000545e+01	9.99670350865345e-01,-1.18879363404109e-02
2.39495740923786e+01	9.99668377701745e-01,-1.19705998489103e-02
2.41161565538152e+01	9.99666377001761e-01,-1.20538378312068e-02
2.42838976879010e+01	9.99664348381223e-01,-1.21376542726552e-02
2.44528055538414e+01	9.99662291450604e-01,-1.22220531861115e-02
2.46228882668984e+01	9.99660205814947e-01,-1.23070386121200e-02
2.47941539987798e+01	9.99658091073786e-01,-1.23926146191008e-02
2.49666109780323e+01	9.99655946821075e-01,-1.24787853035392e-02
2.51402674904366e+01	9.99653772645103e-01,-1.25655547901756e-02
2.53151318794057e+01	9.99651568128422e-01,-1.26529272321975e-02
2.54912125463853e+01	9.99649332847763e-01,-1.27409068114322e-02
2.56685179512581e+01	9.99647066373955e-01,-1.28294977385404e-02
2.58470566127499e+01	9.99644768271845e-01,-1.29187042532118e-02
2.60268371088387e+01	9.99642438100214e-01,-1.30085306243616e-02
2.62078680771673e+01	9.99640075411692e-01,-1.30989811503281e-02
2.63901582154580e+01	9.99637679752669e-01,-1.31900601590715e-02
2.65737162819303e+01	9.99635250663217e-01,-1.32817720083747e-02
2.67585510957223e+01	9.99632787676994e-01,-1.33741210860444e-02
2.69446715373139e+01	9.99630290321156e-01,-1.34671118101139e-02
2.71320865489535e+01	9.99627758116271e-01,-1.35607486290477e-02
2.73208051350880e+01	9.99625190576222e-01,-1.36550360219460e-02
2.75108363627950e+01	9.99622587208116e-01,-1.37499784987524e-02
2.77021893622186e+01	9.99619947512191e-01,-1.38455806004611e-02
2.78948733270082e+01	9.99617270981718e-01,-1.39418468993266e-02
2.80888975147600e+01	9.99614557102907e-01,-1.40387819990741e-02
2.82842712474620e+01	9.99611805354806e-01,-1.41363905351117e-02
2.84810039119415e+01	9.99609015209201e-01,-1.42346771747433e-02
2.86791049603166e+01	9.99606186130518e-01,-1.43336466173835e-02
2.88785839104500e+01	9.99603317575720e-01,-1.44333035947735e-02
2.90794503464063e+01	9.99600408994198e-01,-1.45336528711982e-02
2.92817139189126e+01	9.99597459827674e-01,-1.46346992437050e-02
2.94853843458221e+01	9.99594469510088e-01,-1.47364475423237e-02
2.96904714125811e+01	9.99591437467491e-01,-1.48389026302881e-02
2.98969849726989e+01	9.99588363117938e-01,-1.49420694042582e-02
3.01049349482215e+01	9.99585245871373e-01,-1.50459527945450e-02
3.03143313302081e+01	9.99582085129519e-01,-1.51505577653354e-02
3.05251841792113e+01	9.99578880285762e-01,-1.52558893149194e-02
3.07375036257604e+01	9.99575630725037e-01,-1.53619524759183e-02
3.09512998708479e+01	9.99572335823707e-01,-1.54687523155144e-02
3.11665831864201e+01	9.99568994949447e-01,-1.55762939356820e-02
3.13833639158702e+01	9.99565607461122e-01,-1.56845824734199e-02
3.16016524745352e+01	9.99562172708666e-01,-1.57936231009855e-02
3.18214593501969e+01	9.99558690032954e-01,-1.59034210261298e-02
3.20427951035850e+01	9.99555158765680e-01,-1.60139814923345e-02
3.22656703688852e+01	9.99551578229228e-01,-1.61253097790501e-02
3.24900958542496e+01	9.99547947736540e-01,-1.62374112019353e-02
3.27160823423114e+01	9.99544266590991e-01,-1.63502911130984e-02
3.29436406907031e+01	9.99540534086249e-01,-1.64639549013398e-02
3.31727818325778e+01	9.99536749506145e-01,-1.65784079923957e-02
3.34035167771350e+01	9.99532912124533e-01,-1.66936558491839e-02
3.36358566101488e+01	9.99529021205155e-01,-1.68097039720507e-02
3.38698124945013e+01	9.99525076001495e-01,-1.69265578990188e-02
3.41053956707185e+01	9.99521075756645e-01,-1.70442232060381e-02
3.43426174575103e+01	9.99517019703149e-01,-1.71627055072360e-02
3.45814892523148e+01	9.99512907062868e-01,-1.72820104551711e-02
3.48220225318452e+01	9.99508737046824e-01,-1.74021437410871e-02
3.50642288526416e+01	9.99504508855052e-01,-1.75231110951686e-02
3.53081198516264e+01	9.99500221676448e-01,-1.76449182867988e-02
3.55537072466630e+01	9.99495874688612e-01,-1.77675711248178e-02
3.58010028371191e+01	9.99491467057694e-01,-1.78910754577835e-02
3.60500185044334e+01	9.99486997938233e-01,-1.80154371742332e-02
3.63007662126867e+01	9.99482466472996e-01,-1.81406622029469e-02
3.65532580091762e+01	9.99477871792816e-01,-1.82667565132123e-02
3.68075060249952e+01	9.99473213016422e-01,-1.83937261150915e-02
3.70635224756151e+01	9.99468489250279e-01,-1.85215770596885e-02
3.73213196614725e+01	9.99463699588408e-01,-1.86503154394191e-02
3.75809099685607e+01	9.99458843112220e-01,-1.87799473882816e-02
3.78423058690241e+01	9.99453918890340e-01,-1.89104790821300e-02
3.81055199217578e+01	9.99448925978426e-01,-1.90419167389473e-02
3.83705647730108e+01	9.99443863418995e-01,-1.91742666191219e-02
3.86374531569941e+01	9.99438730241234e-01,-1.93075350257245e-02
3.89061978964917e+01	9.99433525460818e-01,-1.94417283047871e-02
3.91768119034774e+01	9.99428248079725e-01,-1.95768528455830e-02
3.94493081797347e+01	9.99422897086043e-01,-1.97129150809094e-02
3.97236998174817e+01	9.99417471453777e-01,-1.98499214873700e-02
4.00000000000003e+01	9.99411970142655e-01,-1.99878785856611e-02
4.02782220022691e+01	9.99406392097929e-01,-2.01267929408572e-02
4.05583791916015e+01	9.99400736250176e-01,-2.02666711627001e-02
4.08404850282880e+01	9.99395001515092e-01,-2.04075199058880e-02
4.11245530662430e+01	9.99389186793287e-01,-2.05493458703675e-02
4.14105969536554e+01	9.99383290970077e-01,-2.06921558016260e-02
4.16986304336452e+01	9.99377312915269e-01,-2.08359564909864e-02
4.19886673449230e+01	9.99371251482948e-01,-2.09807547759036e-02
4.22807216224556e+01	9.99365105511259e-01,-2.11265575402615e-02
4.25748072981347e+01	9.99358873822185e-01,-2.12733717146728e-02
4.28709385014521e+01	9.99352555221326e-01,-2.14212042767799e-02
4.31691294601774e+01	9.99346148497666e-01,-2.15700622515570e-02
4.34693945010427e+01	9.99339652423350e-01,-2.17199527116144e-02
4.37717480504299e+01	9.99333065753445e-01,-2.18708827775040e-02
4.40762046350648e+01	9.99326387225707e-01,-2.20228596180268e-02
4.43827788827142e+01	9.99319615560338e-01,-2.21758904505413e-02
4.46914855228892e+01	9.99312749459745e-01,-2.23299825412744e-02
4.50023393875528e+01	9.99305787608295e-01,-2.24851432056328e-02
4.53153554118323e+01	9.99298728672062e-01,-2.26413798085171e-02
4.56305486347374e+01	9.99291571298574e-01,-2.27986997646366e-02
4.59479341998818e+01	9.99284314116560e-01,-2.29571105388265e-02
4.62675273562119e+01	9.99276955735685e-01,-2.31166196463655e-02
4.65893434587387e+01	9.99269494746289e-01,-2.32772346532966e-02
4.69133979692756e+01	9.99261929719119e-01,-2.34389631767477e-02
4.72397064571817e+01	9.99254259205056e-01,-2.36018128852553e-02
4.75682846001093e+01	9.99246481734844e-01,-2.37657914990889e-02
4.78991481847576e+01	9.99238595818807e-01,-2.39309067905772e-02
4.82323131076309e+01	9.99230599946573e-01,-2.40971665844360e-02
4.85677953758023e+01	9.99222492586777e-01,-2.42645787580973e-02
4.89056111076832e+01	9.99214272186782e-01,-2.44331512420404e-02
4.92457765337971e+01	9.99205937172380e-01,-2.46028920201242e-02
4.95883079975600e+01	9.99197485947490e-01,-2.47738091299213e-02
4.99332219560650e+01	9.99188916893863e-01,-2.49459106630537e-02
5.02805349808736e+01	9.99180228370771e-01,-2.51192047655294e-02
5.06302637588117e+01	9.99171418714698e-01,-2.52936996380815e-02
5.09824250927710e+01	9.99162486239022e-01,-2.54694035365081e-02
5.13370359025167e+01	9.99153429233702e-01,-2.56463247720140e-02
5.16941132255002e+01	9.99144245964948e-01,-2.58244717115539e-02
5.20536742176779e+01	9.99134934674897e-01,-2.60038527781772e-02
5.24157361543351e+01	9.99125493581278e-01,-2.61844764513738e-02
5.27803164309163e+01	9.99115920877078e-01,-2.63663512674222e-02
5.31474325638610e+01	9.99106214730198e-01,-2.65494858197383e-02
5.35171021914451e+01	9.99096373283108e-01,-2.67338887592266e-02
5.38893430746282e+01	9.99086394652494e-01,-2.69195687946314e-02
5.42641730979075e+01	9.99076276928904e-01,-2.71065346928910e-02
5.46416102701764e+01	9.99066018176390e-01,-2.72947952794926e-02
5.50216727255904e+01	9.99055616432135e-01,-2.74843594388286e-02
5.54043787244376e+01	9.99045069706091e-01,-2.76752361145543e-02
5.57897466540169e+01	9.99034375980597e-01,-2.78674343099472e-02
5.61777950295205e+01	9.99023533210001e-01,-2.80609630882682e-02
5.65685424949245e+01	9.99012539320276e-01,-2.82558315731225e-02
5.69620078238835e+01	9.99001392208624e-01,-2.84520489488240e-02
5.73582099206338e+01	9.98990089743084e-01,-2.86496244607595e-02
5.77571678209005e+01	9.98978629762129e-01,-2.88485674157550e-02
5.81589006928131e+01	9.98967010074257e-01,-2.90488871824429e-02
5.85634278378257e+01	9.98955228457581e-01,-2.92505931916308e-02
5.89707686916448e+01	9.98943282659407e-01,-2.94536949366717e-02
5.93809428251627e+01	9.98931170395815e-01,-2.96582019738347e-02
5.97939699453983e+01	9.98918889351224e-01,-2.98641239226783e-02
6.02098698964434e+01	9.98906437177958e-01,-3.00714704664234e-02
6.06286626604167e+01	9.98893811495807e-01,-3.02802513523288e-02
6.10503683584231e+01	9.98881009891576e-01,-3.04904763920670e-02
6.14750072515213e+01	9.98868029918632e-01,-3.07021554621018e-02
6.19025997416964e+01	9.98854869096447e-01,-3.09152985040668e-02
6.23331663728408e+01	9.98841524910129e-01,-3.11299155251448e-02
6.27667278317409e+01	9.98827994809951e-01,-3.13460165984487e-02
6.32033049490710e+01	9.98814276210870e-01,-3.15636118634032e-02
6.36429187003943e+01	9.98800366492046e-01,-3.17827115261279e-02
6.40855902071706e+01	9.98786262996348e-01,-3.20033258598210e-02
6.45313407377709e+01	9.98771963029854e-01,-3.22254652051442e-02
6.49801917084997e+01	9.98757463861350e-01,-3.24491399706088e-02
6.54321646846233e+01	9.98742762721815e-01,-3.26743606329624e-02
6.58872813814067e+01	9.98727856803902e-01,-3.29011377375766e-02
6.63455636651562e+01	9.98712743261414e-01,-3.31294818988359e-02
6.68070335542704e+01	9.98697419208771e-01,-3.33594038005270e-02
6.72717132202981e+01	9.98681881720469e-01,-3.35909141962293e-02
6.77396249890031e+01	9.98666127830532e-01,-3.38240239097058e-02
6.82107913414375e+01	9.98650154531959e-01,-3.40587438352954e-02
6.86852349150212e+01	9.98633958776163e-01,-3.42950849383053e-02
6.91629785046302e+01	9.98617537472397e-01,-3.45330582554044e-02
6.96440450636909e+01	9.98600887487182e-01,-3.47726748950171e-02
7.01284577052838e+01	9.98584005643716e-01,-3.50139460377182e-02
7.06162397032534e+01	9.98566888721286e-01,-3.52568829366279e-02
7.11074144933266e+01	9.98549533454667e-01,-3.55014969178075e-02
7.16020056742388e+01	9.98531936533509e-01,-3.57477993806557e-02
7.21000370088674e+01	9.98514094601725e-01,-3.59958017983051e-02
7.26015324253739e+01	9.98496004256861e-01,-3.62455157180196e-02
7.31065160183531e+01	9.98477662049466e-01,-3.64969527615915e-02
7.36150120499911e+01	9.98459064482447e-01,-3.67501246257391e-02
7.41270449512307e+01	9.98440208010422e-01,-3.70050430825053e-02
7.46426393229457e+01	9.98421089039056e-01,-3.72617199796553e-02
7.51618199371220e+01	9.98401703924397e-01,-3.75201672410752e-02
7.56846117380488e+01	9.98382048972196e-01,-3.77803968671704e-02
7.62110398435161e+01	9.98362120437222e-01,-3.80424209352643e-02
7.67411295460223e+01	9.98341914522567e-01,-3.83062515999968e-02
7.72749063139888e+01	9.98321427378941e-01,-3.85719010937227e-02
7.78123957929840e+01	9.98300655103958e-01,-3.88393817269103e-02
7.83536238069553e+01	9.98279593741414e-01,-3.91087058885396e-02
7.88986163594699e+01	9.98258239280553e-01,-3.93798860465002e-02
7.94473996349641e+01	9.98236587655324e-01,-3.96529347479891e-02
8.00000000000012e+01	9.98214634743628e-01,-3.99278646199080e-02
8.05564440045387e+01	9.98192376366559e-01,-4.02046883692603e-02
8.11167583832036e+01	9.98169808287627e-01,-4.04834187835475e-02
8.16809700565767e+01	9.98146926211978e-01,-4.07640687311650e-02
8.22491061324866e+01	9.98123725785600e-01,-4.10466511617974e-02
8.28211939073115e+01	9.98100202594519e-01,-4.13311791068132e-02
8.33972608672910e+01	9.98076352163987e-01,-4.16176656796581e-02
8.39773346898467e+01	9.98052169957653e-01,-4.19061240762485e-02
8.45614432449118e+01	9.98027651376734e-01,-4.21965675753627e-02
8.51496145962701e+01	9.98002791759159e-01,-4.24890095390327e-02
8.57418770029048e+01	9.97977586378719e-01,-4.27834634129331e-02
8.63382589203556e+01	9.97952030444195e-01,-4.30799427267706e-02
8.69387890020860e+01	9.97926119098479e-01,-4.33784610946705e-02
8.75434961008606e+01	9.97899847417676e-01,-4.36790322155633e-02
8.81524092701303e+01	9.97873210410209e-01,-4.39816698735692e-02
8.87655577654290e+01	9.97846203015897e-01,-4.42863879383806e-02
8.93829710457790e+01	9.97818820105030e-01,-4.45932003656438e-02
9.00046787751062e+01	9.97791056477430e-01,-4.49021211973385e-02
9.06307108236654e+01	9.97762906861497e-01,-4.52131645621553e-02
9.12610972694754e+01	9.97734365913246e-01,-4.55263446758720e-02
9.18958683997643e+01	9.97705428215330e-01,-4.58416758417264e-02
9.25350547124245e+01	9.97676088276050e-01,-4.61591724507887e-02
9.31786869174780e+01	9.97646340528352e-01,-4.64788489823304e-02
9.38267959385519e+01	9.97616179328816e-01,-4.68007200041908e-02
9.44794129143640e+01	9.97585598956619e-01,-4.71248001731418e-02
9.51365692002193e+01	9.97554593612502e-01,-4.74511042352494e-02
9.57982963695159e+01	9.97523157417709e-01,-4.77796470262328e-02
9.64646262152625e+01	9.97491284412919e-01,-4.81104434718201e-02
9.71355907516054e+01	9.97458968557165e-01,-4.84435085881017e-02
9.78112222153672e+01	9.97426203726736e-01,-4.87788574818797e-02
9.84915530675950e+01	9.97392983714066e-01,-4.91165053510153e-02
9.91766159951206e+01	9.97359302226608e-01,-4.94564674847712e-02
9.98664439121307e+01	9.97325152885698e-01,-4.97987592641518e-02
1.00561069961748e+02	9.97290529225396e-01,-5.01433961622389e-02
1.01260527517624e+02	9.97255424691319e-01,-5.04903937445236e-02
1.01964850185543e+02	9.97219832639460e-01,-5.08397676692349e-02
1.02674071805034e+02	9.97183746334986e-01,-5.11915336876634e-02
1.03388226451001e+02	9.97147158951019e-01,-5.15457076444804e-02
1.04107348435357e+02	9.97110063567419e-01,-5.19023054780542e-02
1.04831472308671e+02	9.97072453169525e-01,-5.22613432207595e-02
1.05560632861833e+02	9.97034320646902e-01,-5.26228369992837e-02
1.06294865127723e+02	9.96995658792059e-01,-5.29868030349275e-02
1.07034204382891e+02	9.96956460299160e-01,-5.33532576439005e-02
1.07778686149257e+02	9.96916717762712e-01,-5.37222172376112e-02
1.08528346195816e+02	9.96876423676238e-01,-5.40936983229520e-02
1.09283220540354e+02	9.96835570430933e-01,-5.44677175025782e-02
1.10043345451182e+02	9.96794150314308e-01,-5.48442914751808e-02
1.10808757448876e+02	9.96752155508810e-01,-5.52234370357537e-02
1.11579493308035e+02	9.96709578090428e-01,-5.56051710758544e-02
1.12355590059042e+02	9.96666410027281e-01,-5.59895105838580e-02
1.13137084989850e+02	9.96622643178190e-01,-5.63764726452049e-02
1.13924015647768e+02	9.96578269291230e-01,-5.67660744426410e-02
1.14716419841268e+02	9.96533280002263e-01,-5.71583332564514e-02
1.15514335641802e+02	9.96487666833459e-01,-5.75532664646862e-02
1.16317801385627e+02	9.96441421191786e-01,-5.79508915433786e-02
1.17126855675652e+02	9.96394534367499e-01,-5.83512260667561e-02
1.17941537383290e+02	9.96346997532596e-01,-5.87542877074424e-02
1.18761885650326e+02	9.96298801739257e-01,-5.91600942366514e-02
1.19587939890797e+02	9.96249937918271e-01,-5.95686635243732e-02
1.20419739792888e+02	9.96200396877436e-01,-5.99800135395507e-02
1.21257325320834e+02	9.96150169299946e-01,-6.03941623502467e-02
1.22100736716847e+02	9.96099245742750e-01,-6.08111281238028e-02
1.22950014503043e+02	9.96047616634899e-01,-6.12309291269874e-02
1.23805199483394e+02	9.95995272275867e-01,-6.16535837261350e-02
1.24666332745682e+02	9.95942202833858e-01,-6.20791103872743e-02
1.25533455663483e+02	9.95888398344084e-01,-6.25075276762459e-02
1.26406609898143e+02	9.95833848707028e-01,-6.29388542588105e-02
1.27285837400790e+02	9.95778543686687e-01,-6.33731089007439e-02
1.28171180414342e+02	9.95722472908787e-01,-6.38103104679227e-02
1.29062681475543e+02	9.95665625858985e-01,-6.42504779263968e-02
1.29960383417000e+02	9.95607991881044e-01,-6.46936303424503e-02
1.30864329369248e+02	9.95549560174985e-01,-6.51397868826509e-02
1.31774562762814e+02	9.95490319795225e-01,-6.55889668138851e-02
1.32691127330313e+02	9.95430259648682e-01,-6.60411895033815e-02
1.33614067108542e+02	9.95369368492864e-01,-6.64964744187202e-02
1.34543426440597e+02	9.95307634933936e-01,-6.69548411278290e-02
1.35479249978007e+02	9.95245047424760e-01,-6.74163092989648e-02
1.36421582682876e+02	9.95181594262917e-01,-6.78808987006807e-02
1.37370469830043e+02	9.95117263588699e-01,-6.83486292017791e-02
1.38325957009261e+02	9.95052043383084e-01,-6.88195207712482e-02
1.39288090127383e+02	9.94985921465684e-01,-6.92935934781840e-02
1.40256915410569e+02	9.94918885492672e-01,-6.97708674916956e-02
1.41232479406508e+02	9.94850922954676e-01,-7.02513630807945e-02
1.42214828986654e+02	9.94782021174665e-01,-7.07351006142670e-02
1.43204011348479e+02	9.94712167305793e-01,-7.12221005605288e-02
1.44200074017736e+02	9.94641348329229e-01,-7.17123834874628e-02
1.45203064850749e+02	9.94569551051960e-01,-7.22059700622377e-02
1.46213032036707e+02	9.94496762104567e-01,-7.27028810511092e-02
1.47230024099983e+02	9.94422967938977e-01,-7.32031373192008e-02
1.48254089902463e+02	9.94348154826191e-01,-7.37067598302665e-02
1.49285278645892e+02	9.94272308853980e-01,-7.42137696464322e-02
1.50323639874245e+02	9.94195415924565e-01,-7.47241879279175e-02
1.51369223476099e+02	9.94117461752261e-01,-7.52380359327361e-02
1.52422079687033e+02	9.94038431861103e-01,-7.57553350163747e-02
1.53482259092046e+02	9.93958311582440e-01,-7.62761066314503e-02
1.54549812627979e+02	9.93877086052502e-01,-7.68003723273444e-02
1.55624791585969e+02	9.93794740209946e-01,-7.73281537498143e-02
1.56707247613912e+02	9.93711258793369e-01,-7.78594726405814e-02
1.57797232718941e+02	9.93626626338795e-01,-7.83943508368943e-02
1.58894799269929e+02	9.93540827177138e-01,-7.89328102710680e-02
1.60000000000004e+02	9.93453845431631e-01,-7.94748729699972e-02
1.61112888009079e+02	9.93365665015236e-01,-8.00205610546444e-02
1.62233516766408e+02	9.93276269628016e-01,-8.05698967395007e-02
1.63361940113155e+02	9.93185642754487e-01,-8.11229023320197e-02
1.64498212264974e+02	9.93093767660939e-01,-8.16796002320248e-02
1.65642387814624e+02	9.93000627392726e-01,-8.22400129310860e-02
1.66794521734583e+02	9.92906204771531e-01,-8.28041630118697e-02
1.67954669379695e+02	9.92810482392600e-01,-8.33720731474576e-02
1.69122886489825e+02	9.92713442621950e-01,-8.39437661006361e-02
1.70299229192542e+02	9.92615067593542e-01,-8.45192647231537e-02
1.71483754005811e+02	9.92515339206434e-01,-8.50985919549478e-02
1.72676517840712e+02	9.92414239121894e-01,-8.56817708233386e-02
