Freq.	V(vout)
2.00000000000000e+01	9.80151772621987e-01,-1.30381782581398e-01
2.01391110011344e+01	9.79913931604455e-01,-1.31256801440308e-01
2.02791895958006e+01	9.79672888277004e-01,-1.32137253021483e-01
2.04202425141439e+01	9.79428601160240e-01,-1.33023161929055e-01
2.05622765331213e+01	9.79181028282654e-01,-1.33914552680025e-01
2.07052984768276e+01	9.78930127176038e-01,-1.34811449698860e-01
2.08493152168224e+01	9.78675854870906e-01,-1.35713877311981e-01
2.09943336724614e+01	9.78418167891901e-01,-1.36621859742117e-01
2.11403608112276e+01	9.78157022253209e-01,-1.37535421102557e-01
2.12874036490672e+01	9.77892373453961e-01,-1.38454585391261e-01
2.14354692507259e+01	9.77624176473641e-01,-1.39379376484862e-01
2.15845647300886e+01	9.77352385767497e-01,-1.40309818132527e-01
2.17346972505212e+01	9.77076955261949e-01,-1.41245933949700e-01
2.18858740252148e+01	9.76797838350007e-01,-1.42187747411710e-01
2.20381023175322e+01	9.76514987886691e-01,-1.43135281847251e-01
2.21913894413569e+01	9.76228356184463e-01,-1.44088560431719e-01
2.23457427614444e+01	9.75937895008664e-01,-1.45047606180423e-01
2.25011696937762e+01	9.75643555572969e-01,-1.46012441941651e-01
2.26576777059160e+01	9.75345288534848e-01,-1.46983090389601e-01
2.28152743173685e+01	9.75043043991048e-01,-1.47959574017165e-01
2.29739670999407e+01	9.74736771473091e-01,-1.48941915128574e-01
2.31337636781058e+01	9.74426419942790e-01,-1.49930135831894e-01
2.32946717293691e+01	9.74111937787789e-01,-1.50924258031376e-01
2.34566989846376e+01	9.73793272817126e-01,-1.51924303419654e-01
2.36198532285906e+01	9.73470372256820e-01,-1.52930293469795e-01
2.37841423000545e+01	9.73143182745492e-01,-1.53942249427195e-01
2.39495740923786e+01	9.72811650330010e-01,-1.54960192301313e-01
2.41161565538152e+01	9.72475720461174e-01,-1.55984142857257e-01
2.42838976879010e+01	9.72135337989434e-01,-1.57014121607204e-01
2.44528055538414e+01	9.71790447160645e-01,-1.58050148801661e-01
2.46228882668984e+01	9.71440991611867e-01,-1.59092244420564e-01
2.47941539987798e+01	9.71086914367207e-01,-1.60140428164206e-01
2.49666109780323e+01	9.70728157833712e-01,-1.61194719444009e-01
2.51402674904366e+01	9.70364663797302e-01,-1.62255137373112e-01
2.53151318794057e+01	9.69996373418770e-01,-1.63321700756802e-01
2.54912125463853e+01	9.69623227229827e-01,-1.64394428082766e-01
2.56685179512581e+01	9.69245165129213e-01,-1.65473337511164e-01
2.58470566127499e+01	9.68862126378867e-01,-1.66558446864535e-01
2.60268371088387e+01	9.68474049600167e-01,-1.67649773617518e-01
2.62078680771673e+01	9.68080872770232e-01,-1.68747334886394e-01
2.63901582154580e+01	9.67682533218309e-01,-1.69851147418449e-01
2.65737162819303e+01	9.67278967622226e-01,-1.70961227581148e-01
2.67585510957223e+01	9.66870112004931e-01,-1.72077591351128e-01
2.69446715373139e+01	9.66455901731112e-01,-1.73200254303004e-01
2.71320865489535e+01	9.66036271503911e-01,-1.74329231597984e-01
2.73208051350880e+01	9.65611155361725e-01,-1.75464537972293e-01
2.75108363627950e+01	9.65180486675103e-01,-1.76606187725407e-01
2.77021893622186e+01	9.64744198143751e-01,-1.77754194708096e-01
2.78948733270082e+01	9.64302221793629e-01,-1.78908572310263e-01
2.80888975147600e+01	9.63854488974176e-01,-1.80069333448599e-01
2.82842712474620e+01	9.63400930355627e-01,-1.81236490554028e-01
2.84810039119415e+01	9.62941475926467e-01,-1.82410055558962e-01
2.86791049603166e+01	9.62476054991000e-01,-1.83590039884348e-01
2.88785839104500e+01	9.62004596167045e-01,-1.84776454426520e-01
2.90794503464063e+01	9.61527027383767e-01,-1.85969309543845e-01
2.92817139189126e+01	9.61043275879653e-01,-1.87168615043158e-01
2.94853843458221e+01	9.60553268200614e-01,-1.88374380166008e-01
2.96904714125811e+01	9.60056930198257e-01,-1.89586613574679e-01
2.98969849726989e+01	9.59554187028292e-01,-1.90805323338019e-01
3.01049349482215e+01	9.59044963149114e-01,-1.92030516917051e-01
3.03143313302081e+01	9.58529182320536e-01,-1.93262201150379e-01
3.05251841792113e+01	9.58006767602705e-01,-1.94500382239387e-01
3.07375036257604e+01	9.57477641355187e-01,-1.95745065733224e-01
3.09512998708479e+01	9.56941725236236e-01,-1.96996256513577e-01
3.11665831864201e+01	9.56398940202255e-01,-1.98253958779241e-01
3.13833639158702e+01	9.55849206507448e-01,-1.99518176030465e-01
3.16016524745352e+01	9.55292443703672e-01,-2.00788911053103e-01
3.18214593501969e+01	9.54728570640503e-01,-2.02066165902535e-01
3.20427951035850e+01	9.54157505465509e-01,-2.03349941887393e-01
3.22656703688852e+01	9.53579165624749e-01,-2.04640239553063e-01
3.24900958542496e+01	9.52993467863494e-01,-2.05937058664984e-01
3.27160823423114e+01	9.52400328227185e-01,-2.07240398191730e-01
3.29436406907031e+01	9.51799662062637e-01,-2.08550256287889e-01
3.31727818325778e+01	9.51191384019480e-01,-2.09866630276725e-01
3.34035167771350e+01	9.50575408051870e-01,-2.11189516632634e-01
3.36358566101488e+01	9.49951647420446e-01,-2.12518910963396e-01
3.38698124945013e+01	9.49320014694573e-01,-2.13854807992212e-01
3.41053956707185e+01	9.48680421754856e-01,-2.15197201539541e-01
3.43426174575103e+01	9.48032779795936e-01,-2.16546084504736e-01
3.45814892523148e+01	9.47376999329585e-01,-2.17901448847466e-01
3.48220225318452e+01	9.46712990188099e-01,-2.19263285568953e-01
3.50642288526416e+01	9.46040661528002e-01,-2.20631584692995e-01
3.53081198516264e+01	9.45359921834067e-01,-2.22006335246799e-01
3.55537072466630e+01	9.44670678923659e-01,-2.23387525241626e-01
3.58010028371191e+01	9.43972839951413e-01,-2.24775141653231e-01
3.60500185044334e+01	9.43266311414261e-01,-2.26169170402123e-01
3.63007662126867e+01	9.42550999156796e-01,-2.27569596333636e-01
3.65532580091762e+01	9.41826808377008e-01,-2.28976403197817e-01
3.68075060249952e+01	9.41093643632377e-01,-2.30389573629138e-01
3.70635224756151e+01	9.40351408846353e-01,-2.31809089126021e-01
3.73213196614725e+01	9.39600007315211e-01,-2.33234930030206e-01
3.75809099685607e+01	9.38839341715303e-01,-2.34667075505937e-01
3.78423058690241e+01	9.38069314110723e-01,-2.36105503518995e-01
3.81055199217578e+01	9.37289825961365e-01,-2.37550190815565e-01
3.83705647730108e+01	9.36500778131420e-01,-2.39001112900948e-01
3.86374531569941e+01	9.35702070898295e-01,-2.40458244018130e-01
3.89061978964917e+01	9.34893603961968e-01,-2.41921557126204e-01
3.91768119034774e+01	9.34075276454803e-01,-2.43391023878648e-01
3.94493081797347e+01	9.33246986951812e-01,-2.44866614601481e-01
3.97236998174817e+01	9.32408633481392e-01,-2.46348298271286e-01
4.00000000000003e+01	9.31560113536534e-01,-2.47836042493116e-01
4.02782220022691e+01	9.30701324086521e-01,-2.49329813478285e-01
4.05583791916015e+01	9.29832161589121e-01,-2.50829576022060e-01
4.08404850282880e+01	9.28952522003287e-01,-2.52335293481244e-01
4.11245530662430e+01	9.28062300802366e-01,-2.53846927751684e-01
4.14105969536554e+01	9.27161392987840e-01,-2.55364439245679e-01
4.16986304336452e+01	9.26249693103597e-01,-2.56887786869335e-01
4.19886673449230e+01	9.25327095250741e-01,-2.58416927999837e-01
4.22807216224556e+01	9.24393493102960e-01,-2.59951818462675e-01
4.25748072981347e+01	9.23448779922457e-01,-2.61492412508827e-01
4.28709385014521e+01	9.22492848576444e-01,-2.63038662791899e-01
4.31691294601774e+01	9.21525591554227e-01,-2.64590520345241e-01
4.34693945010427e+01	9.20546900984869e-01,-2.66147934559055e-01
4.37717480504299e+01	9.19556668655464e-01,-2.67710853157490e-01
4.40762046350648e+01	9.18554786030009e-01,-2.69279222175752e-01
4.43827788827142e+01	9.17541144268897e-01,-2.70852985937229e-01
4.46914855228892e+01	9.16515634249039e-01,-2.72432087030649e-01
4.50023393875528e+01	9.15478146584609e-01,-2.74016466287288e-01
4.53153554118323e+01	9.14428571648447e-01,-2.75606062758224e-01
4.56305486347374e+01	9.13366799594100e-01,-2.77200813691677e-01
4.59479341998818e+01	9.12292720378534e-01,-2.78800654510419e-01
4.62675273562119e+01	9.11206223785503e-01,-2.80405518789296e-01
4.65893434587387e+01	9.10107199449600e-01,-2.82015338232857e-01
4.69133979692756e+01	9.08995536880992e-01,-2.83630042653113e-01
4.72397064571817e+01	9.07871125490845e-01,-2.85249559947447e-01
4.75682846001093e+01	9.06733854617441e-01,-2.86873816076673e-01
4.78991481847576e+01	9.05583613553011e-01,-2.88502735043289e-01
4.82323131076309e+01	9.04420291571272e-01,-2.90136238869908e-01
4.85677953758023e+01	9.03243777955684e-01,-2.91774247577912e-01
4.89056111076832e+01	9.02053962028434e-01,-2.93416679166333e-01
4.92457765337971e+01	9.00850733180148e-01,-2.95063449590979e-01
4.95883079975600e+01	8.99633980900340e-01,-2.96714472743829e-01
4.99332219560650e+01	8.98403594808602e-01,-2.98369660432716e-01
5.02805349808736e+01	8.97159464686540e-01,-3.00028922361312e-01
5.06302637588117e+01	8.95901480510458e-01,-3.01692166109438e-01
5.09824250927710e+01	8.94629532484806e-01,-3.03359297113724e-01
5.13370359025167e+01	8.93343511076368e-01,-3.05030218648632e-01
5.16941132255002e+01	8.92043307049234e-01,-3.06704831807869e-01
5.20536742176779e+01	8.90728811500512e-01,-3.08383035486209e-01
5.24157361543351e+01	8.89399915896828e-01,-3.10064726361747e-01
5.27803164309163e+01	8.88056512111577e-01,-3.11749798878610e-01
5.31474325638610e+01	8.86698492462955e-01,-3.13438145230142e-01
5.35171021914451e+01	8.85325749752749e-01,-3.15129655342591e-01
5.38893430746282e+01	8.83938177305907e-01,-3.16824216859324e-01
5.42641730979075e+01	8.82535669010874e-01,-3.18521715125588e-01
5.46416102701764e+01	8.81118119360690e-01,-3.20222033173843e-01
5.50216727255904e+01	8.79685423494863e-01,-3.21925051709697e-01
5.54043787244376e+01	8.78237477242000e-01,-3.23630649098464e-01
5.57897466540169e+01	8.76774177163200e-01,-3.25338701352370e-01
5.61777950295205e+01	8.75295420596204e-01,-3.27049082118433e-01
5.65685424949245e+01	8.73801105700299e-01,-3.28761662667051e-01
5.69620078238835e+01	8.72291131501964e-01,-3.30476311881307e-01
5.73582099206338e+01	8.70765397941262e-01,-3.32192896247043e-01
5.77571678209005e+01	8.69223805918965e-01,-3.33911279843701e-01
5.81589006928131e+01	8.67666257344402e-01,-3.35631324335985e-01
5.85634278378257e+01	8.66092655184032e-01,-3.37352888966354e-01
5.89707686916448e+01	8.64502903510716e-01,-3.39075830548382e-01
5.93809428251627e+01	8.62896907553698e-01,-3.40800003461011e-01
5.97939699453983e+01	8.61274573749267e-01,-3.42525259643718e-01
6.02098698964434e+01	8.59635809792094e-01,-3.44251448592645e-01
6.06286626604167e+01	8.57980524687237e-01,-3.45978417357691e-01
6.10503683584231e+01	8.56308628802790e-01,-3.47706010540620e-01
6.14750072515213e+01	8.54620033923166e-01,-3.49434070294203e-01
6.19025997416964e+01	8.52914653303003e-01,-3.51162436322413e-01
6.23331663728408e+01	8.51192401721664e-01,-3.52890945881726e-01
6.27667278317409e+01	8.49453195538328e-01,-3.54619433783532e-01
6.32033049490710e+01	8.47696952747641e-01,-3.56347732397699e-01
6.36429187003943e+01	8.45923593035910e-01,-3.58075671657308e-01
6.40855902071706e+01	8.44133037837826e-01,-3.59803079064608e-01
6.45313407377709e+01	8.42325210393686e-01,-3.61529779698181e-01
6.49801917084997e+01	8.40500035807095e-01,-3.63255596221393e-01
6.54321646846233e+01	8.38657441103114e-01,-3.64980348892119e-01
6.58872813814067e+01	8.36797355286850e-01,-3.66703855573784e-01
6.63455636651562e+01	8.34919709402441e-01,-3.68425931747760e-01
6.68070335542704e+01	8.33024436592410e-01,-3.70146390527117e-01
6.72717132202981e+01	8.31111472157379e-01,-3.71865042671784e-01
6.77396249890031e+01	8.29180753616084e-01,-3.73581696605128e-01
6.82107913414375e+01	8.27232220765685e-01,-3.75296158431975e-01
6.86852349150212e+01	8.25265815742319e-01,-3.77008231958117e-01
6.91629785046302e+01	8.23281483081887e-01,-3.78717718711304e-01
6.96440450636909e+01	8.21279169781006e-01,-3.80424417963766e-01
7.01284577052838e+01	8.19258825358124e-01,-3.82128126756273e-01
7.06162397032534e+01	8.17220401914742e-01,-3.83828639923767e-01
7.11074144933266e+01	8.15163854196708e-01,-3.85525750122578e-01
7.16020056742388e+01	8.13089139655547e-01,-3.87219247859254e-01
7.21000370088674e+01	8.10996218509786e-01,-3.88908921521014e-01
7.26015324253739e+01	8.08885053806230e-01,-3.90594557407856e-01
7.31065160183531e+01	8.06755611481148e-01,-3.92275939766325e-01
7.36150120499911e+01	8.04607860421326e-01,-3.93952850824972e-01
7.41270449512307e+01	8.02441772524941e-01,-3.95625070831504e-01
7.46426393229457e+01	8.00257322762215e-01,-3.97292378091659e-01
7.51618199371220e+01	7.98054489235786e-01,-3.98954549009796e-01
7.56846117380488e+01	7.95833253240779e-01,-4.00611358131241e-01
7.62110398435161e+01	7.93593599324487e-01,-4.02262578186373e-01
7.67411295460223e+01	7.91335515345655e-01,-4.03907980136479e-01
7.72749063139888e+01	7.89058992533283e-01,-4.05547333221379e-01
7.78123957929840e+01	7.86764025544910e-01,-4.07180405008830e-01
7.83536238069553e+01	7.84450612524332e-01,-4.08806961445708e-01
7.88986163594699e+01	7.82118755158688e-01,-4.10426766910988e-01
7.94473996349641e+01	7.79768458734869e-01,-4.12039584270508e-01
8.00000000000012e+01	7.77399732195192e-01,-4.13645174933528e-01
8.05564440045387e+01	7.75012588192279e-01,-4.15243298911079e-01
8.11167583832036e+01	7.72607043143100e-01,-4.16833714876102e-01
8.16809700565767e+01	7.70183117282100e-01,-4.18416180225375e-01
8.22491061324866e+01	7.67740834713374e-01,-4.19990451143212e-01
8.28211939073115e+01	7.65280223461821e-01,-4.21556282666943e-01
8.33972608672910e+01	7.62801315523219e-01,-4.23113428754149e-01
8.39773346898467e+01	7.60304146913170e-01,-4.24661642351651e-01
8.45614432449118e+01	7.57788757714841e-01,-4.26200675466236e-01
8.51496145962701e+01	7.55255192125463e-01,-4.27730279237104e-01
8.57418770029048e+01	7.52703498501505e-01,-4.29250204010022e-01
8.63382589203556e+01	7.50133729402488e-01,-4.30760199413157e-01
8.69387890020860e+01	7.47545941633357e-01,-4.32260014434581e-01
8.75434961008606e+01	7.44940196285361e-01,-4.33749397501407e-01
8.81524092701303e+01	7.42316558775394e-01,-4.35228096560548e-01
8.87655577654290e+01	7.39675098883709e-01,-4.36695859161050e-01
8.93829710457790e+01	7.37015890789978e-01,-4.38152432537992e-01
9.00046787751062e+01	7.34339013107612e-01,-4.39597563697904e-01
9.06307108236654e+01	7.31644548916303e-01,-4.41030999505675e-01
9.12610972694754e+01	7.28932585792721e-01,-4.42452486772909e-01
9.18958683997643e+01	7.26203215839307e-01,-4.43861772347701e-01
9.25350547124245e+01	7.23456535711114e-01,-4.45258603205780e-01
9.31786869174780e+01	7.20692646640630e-01,-4.46642726542977e-01
9.38267959385519e+01	7.17911654460538e-01,-4.48013889868986e-01
9.44794129143640e+01	7.15113669624354e-01,-4.49371841102349e-01
9.51365692002193e+01	7.12298807224890e-01,-4.50716328666630e-01
9.57982963695159e+01	7.09467187010493e-01,-4.52047101587720e-01
9.64646262152625e+01	7.06618933399010e-01,-4.53363909592222e-01
9.71355907516054e+01	7.03754175489423e-01,-4.54666503206856e-01
9.78112222153672e+01	7.00873047071118e-01,-4.55954633858820e-01
9.84915530675950e+01	6.97975686630734e-01,-4.57228053977065e-01
9.91766159951206e+01	6.95062237356545e-01,-4.58486517094398e-01
9.98664439121307e+01	6.92132847140345e-01,-4.59729777950362e-01
1.00561069961748e+02	6.89187668576779e-01,-4.60957592594826e-01
1.01260527517624e+02	6.86226858960093e-01,-4.62169718492207e-01
1.01964850185543e+02	6.83250580278258e-01,-4.63365914626266e-01
1.02674071805034e+02	6.80258999204440e-01,-4.64545941605390e-01
1.03388226451001e+02	6.77252287085777e-01,-4.65709561768310e-01
1.04107348435357e+02	6.74230619929435e-01,-4.66856539290143e-01
1.04831472308671e+02	6.71194178385917e-01,-4.67986640288723e-01
1.05560632861833e+02	6.68143147729589e-01,-4.69099632931103e-01
1.06294865127723e+02	6.65077717836418e-01,-4.70195287540175e-01
1.07034204382891e+02	6.61998083158878e-01,-4.71273376701313e-01
1.07778686149257e+02	6.58904442698026e-01,-4.72333675368958e-01
1.08528346195816e+02	6.55796999972719e-01,-4.73375960973061e-01
1.09283220540354e+02	6.52675962985969e-01,-4.74400013525300e-01
1.10043345451182e+02	6.49541544188410e-01,-4.75405615724989e-01
1.10808757448876e+02	6.46393960438893e-01,-4.76392553064570e-01
1.11579493308035e+02	6.43233432962185e-01,-4.77360613934634e-01
1.12355590059042e+02	6.40060187303778e-01,-4.78309589728354e-01
1.13137084989850e+02	6.36874453281813e-01,-4.79239274945246e-01
1.13924015647768e+02	6.33676464936113e-01,-4.80149467294188e-01
1.14716419841268e+02	6.30466460474351e-01,-4.81039967795571e-01
1.15514335641802e+02	6.27244682215341e-01,-4.81910580882527e-01
1.16317801385627e+02	6.24011376529490e-01,-4.82761114501116e-01
1.17126855675652e+02	6.20766793776408e-01,-4.83591380209403e-01
1.17941537383290e+02	6.17511188239707e-01,-4.84401193275311e-01
1.18761885650326e+02	6.14244818059018e-01,-4.85190372773187e-01
1.19587939890797e+02	6.10967945159237e-01,-4.85958741678964e-01
1.20419739792888e+02	6.07680835177047e-01,-4.86706126963845e-01
1.21257325320834e+02	6.04383757384739e-01,-4.87432359686426e-01
1.22100736716847e+02	6.01076984611373e-01,-4.88137275083144e-01
1.22950014503043e+02	5.97760793161320e-01,-4.88820712656994e-01
1.23805199483394e+02	5.94435462730223e-01,-4.89482516264404e-01
1.24666332745682e+02	5.91101276318434e-01,-4.90122534200202e-01
1.25533455663483e+02	5.87758520141961e-01,-4.90740619280573e-01
1.26406609898143e+02	5.84407483540995e-01,-4.91336628923937e-01
1.27285837400790e+02	5.81048458886061e-01,-4.91910425229667e-01
1.28171180414342e+02	5.77681741481852e-01,-4.92461875054553e-01
1.29062681475543e+02	5.74307629468819e-01,-4.92990850086952e-01
1.29960383417000e+02	5.70926423722568e-01,-4.93497226918545e-01
1.30864329369248e+02	5.67538427751137e-01,-4.93980887113614e-01
1.31774562762814e+02	5.64143947590230e-01,-4.94441717275783e-01
1.32691127330313e+02	5.60743291696468e-01,-4.94879609112154e-01
1.33614067108542e+02	5.57336770838745e-01,-4.95294459494753e-01
1.34543426440597e+02	5.53924697987758e-01,-4.95686170519245e-01
1.35479249978007e+02	5.50507388203798e-01,-4.96054649560842e-01
1.36421582682876e+02	5.47085158522882e-01,-4.96399809327352e-01
1.37370469830043e+02	5.43658327841313e-01,-4.96721567909303e-01
1.38325957009261e+02	5.40227216798750e-01,-4.97019848827105e-01
1.39288090127383e+02	5.36792147659884e-01,-4.97294581075181e-01
1.40256915410569e+02	5.33353444194815e-01,-4.97545699163037e-01
1.41232479406508e+02	5.29911431558203e-01,-4.97773143153217e-01
1.42214828986654e+02	5.26466436167316e-01,-4.97976858696101e-01
1.43204011348479e+02	5.23018785579048e-01,-4.98156797061517e-01
1.44200074017736e+02	5.19568808366019e-01,-4.98312915167125e-01
1.45203064850749e+02	5.16116833991846e-01,-4.98445175603545e-01
1.46213032036707e+02	5.12663192685694e-01,-4.98553546656204e-01
1.47230024099983e+02	5.09208215316201e-01,-4.98638002323875e-01
1.48254089902463e+02	5.05752233264887e-01,-4.98698522333888e-01
1.49285278645892e+02	5.02295578299136e-01,-4.98735092154000e-01
1.50323639874245e+02	4.98838582444874e-01,-4.98747703000906e-01
1.51369223476099e+02	4.95381577859027e-01,-4.98736351845387e-01
1.52422079687033e+02	4.91924896701877e-01,-4.98701041414082e-01
1.53482259092046e+02	4.88468871009413e-01,-4.98641780187895e-01
1.54549812627979e+02	4.85013832565786e-01,-4.98558582397023e-01
1.55624791585969e+02	4.81560112775966e-01,-4.98451468012618e-01
1.56707247613912e+02	4.78108042538712e-01,-4.98320462735100e-01
1.57797232718941e+02	4.74657952119952e-01,-4.98165597979115e-01
1.58894799269929e+02	4.71210171026677e-01,-4.97986910855174e-01
1.60000000000004e+02	4.67765027881463e-01,-4.97784444147979e-01
1.61112888009079e+02	4.64322850297694e-01,-4.97558246291467e-01
1.62233516766408e+02	4.60883964755621e-01,-4.97308371340592e-01
1.63361940113155e+02	4.57448696479330e-01,-4.97034878939892e-01
1.64498212264974e+02	4.54017369314726e-01,-4.96737834288846e-01
1.65642387814624e+02	4.50590305608632e-01,-4.96417308104090e-01
1.66794521734583e+02	4.47167826089098e-01,-4.96073376578511e-01
1.67954669379695e+02	4.43750249747000e-01,-4.95706121337272e-01
1.69122886489825e+02	4.40337893719041e-01,-4.95315629390811e-01
1.70299229192542e+02	4.36931073172230e-01,-4.94901993084870e-01
1.71483754005811e+02	4.33530101189926e-01,-4.94465310047598e-01
1.72676517840712e+02	4.30135288659541e-01,-4.94005683133791e-01
