Freq.	V(vout)
2.00000000000000e+01	9.92162837610491e-01,-7.92671235870351e-02
2.01391110011344e+01	9.92075001971812e-01,-7.98114037470728e-02
2.02791895958006e+01	9.91985956071132e-01,-8.03593224835594e-02
2.04202425141439e+01	9.91895683455813e-01,-8.09109020569909e-02
2.05622765331213e+01	9.91804167455789e-01,-8.14661648202255e-02
2.07052984768276e+01	9.91711391180866e-01,-8.20251332178682e-02
2.08493152168224e+01	9.91617337517994e-01,-8.25878297856261e-02
2.09943336724614e+01	9.91521989128511e-01,-8.31542771496341e-02
2.11403608112276e+01	9.91425328445361e-01,-8.37244980257509e-02
2.12874036490672e+01	9.91327337670275e-01,-8.42985152188234e-02
2.14354692507259e+01	9.91227998770932e-01,-8.48763516219210e-02
2.15845647300886e+01	9.91127293478085e-01,-8.54580302155359e-02
2.17346972505212e+01	9.91025203282662e-01,-8.60435740667517e-02
2.18858740252148e+01	9.90921709432828e-01,-8.66330063283779e-02
2.20381023175322e+01	9.90816792931033e-01,-8.72263502380500e-02
2.21913894413569e+01	9.90710434531013e-01,-8.78236291172946e-02
2.23457427614444e+01	9.90602614734776e-01,-8.84248663705585e-02
2.25011696937762e+01	9.90493313789548e-01,-8.90300854842008e-02
2.26576777059160e+01	9.90382511684694e-01,-8.96393100254479e-02
2.28152743173685e+01	9.90270188148604e-01,-9.02525636413106e-02
2.29739670999407e+01	9.90156322645557e-01,-9.08698700574606e-02
2.31337636781058e+01	9.90040894372544e-01,-9.14912530770687e-02
2.32946717293691e+01	9.89923882256073e-01,-9.21167365796014e-02
2.34566989846376e+01	9.89805264948929e-01,-9.27463445195759e-02
2.36198532285906e+01	9.89685020826917e-01,-9.33801009252724e-02
2.37841423000545e+01	9.89563127985567e-01,-9.40180298974035e-02
2.39495740923786e+01	9.89439564236810e-01,-9.46601556077387e-02
2.41161565538152e+01	9.89314307105623e-01,-9.53065022976841e-02
2.42838976879010e+01	9.89187333826644e-01,-9.59570942768155e-02
2.44528055538414e+01	9.89058621340757e-01,-9.66119559213644e-02
2.46228882668984e+01	9.88928146291646e-01,-9.72711116726564e-02
2.47941539987798e+01	9.88795885022315e-01,-9.79345860354999e-02
2.49666109780323e+01	9.88661813571585e-01,-9.86024035765248e-02
2.51402674904366e+01	9.88525907670552e-01,-9.92745889224704e-02
2.53151318794057e+01	9.88388142739019e-01,-9.99511667584206e-02
2.54912125463853e+01	9.88248493881901e-01,-1.00632161825987e-01
2.56685179512581e+01	9.88106935885589e-01,-1.01317598921436e-01
2.58470566127499e+01	9.87963443214296e-01,-1.02007502893762e-01
2.60268371088387e+01	9.87817990006364e-01,-1.02701898642705e-01
2.62078680771673e+01	9.87670550070545e-01,-1.03400811116707e-01
2.63901582154580e+01	9.87521096882252e-01,-1.04104265310813e-01
2.65737162819303e+01	9.87369603579779e-01,-1.04812286264513e-01
2.67585510957223e+01	9.87216042960490e-01,-1.05524899059518e-01
2.69446715373139e+01	9.87060387476985e-01,-1.06242128817481e-01
2.71320865489535e+01	9.86902609233228e-01,-1.06964000697646e-01
2.73208051350880e+01	9.86742679980653e-01,-1.07690539894443e-01
2.75108363627950e+01	9.86580571114237e-01,-1.08421771635006e-01
2.77021893622186e+01	9.86416253668546e-01,-1.09157721176631e-01
2.78948733270082e+01	9.86249698313755e-01,-1.09898413804166e-01
2.80888975147600e+01	9.86080875351634e-01,-1.10643874827327e-01
2.82842712474620e+01	9.85909754711516e-01,-1.11394129577944e-01
2.84810039119415e+01	9.85736305946225e-01,-1.12149203407140e-01
2.86791049603166e+01	9.85560498227990e-01,-1.12909121682430e-01
2.88785839104500e+01	9.85382300344322e-01,-1.13673909784746e-01
2.90794503464063e+01	9.85201680693874e-01,-1.14443593105392e-01
2.92817139189126e+01	9.85018607282266e-01,-1.15218197042911e-01
2.94853843458221e+01	9.84833047717891e-01,-1.15997746999880e-01
2.96904714125811e+01	9.84644969207695e-01,-1.16782268379625e-01
2.98969849726989e+01	9.84454338552933e-01,-1.17571786582849e-01
3.01049349482215e+01	9.84261122144897e-01,-1.18366327004181e-01
3.03143313302081e+01	9.84065285960627e-01,-1.19165915028635e-01
3.05251841792113e+01	9.83866795558596e-01,-1.19970576027988e-01
3.07375036257604e+01	9.83665616074373e-01,-1.20780335357070e-01
3.09512998708479e+01	9.83461712216265e-01,-1.21595218349957e-01
3.11665831864201e+01	9.83255048260936e-01,-1.22415250316080e-01
3.13833639158702e+01	9.83045588049014e-01,-1.23240456536242e-01
3.16016524745352e+01	9.82833294980668e-01,-1.24070862258533e-01
3.18214593501969e+01	9.82618132011171e-01,-1.24906492694159e-01
3.20427951035850e+01	9.82400061646451e-01,-1.25747373013165e-01
3.22656703688852e+01	9.82179045938613e-01,-1.26593528340064e-01
3.24900958542496e+01	9.81955046481456e-01,-1.27444983749364e-01
3.27160823423114e+01	9.81728024405972e-01,-1.28301764260991e-01
3.29436406907031e+01	9.81497940375824e-01,-1.29163894835609e-01
3.31727818325778e+01	9.81264754582821e-01,-1.30031400369837e-01
3.34035167771350e+01	9.81028426742374e-01,-1.30904305691350e-01
3.36358566101488e+01	9.80788916088946e-01,-1.31782635553880e-01
3.38698124945013e+01	9.80546181371484e-01,-1.32666414632101e-01
3.41053956707185e+01	9.80300180848852e-01,-1.33555667516402e-01
3.43426174575103e+01	9.80050872285250e-01,-1.34450418707546e-01
3.45814892523148e+01	9.79798212945629e-01,-1.35350692611209e-01
3.48220225318452e+01	9.79542159591097e-01,-1.36256513532407e-01
3.50642288526416e+01	9.79282668474331e-01,-1.37167905669797e-01
3.53081198516264e+01	9.79019695334972e-01,-1.38084893109861e-01
3.55537072466630e+01	9.78753195395036e-01,-1.39007499820961e-01
3.58010028371191e+01	9.78483123354306e-01,-1.39935749647272e-01
3.60500185044334e+01	9.78209433385750e-01,-1.40869666302587e-01
3.63007662126867e+01	9.77932079130916e-01,-1.41809273363990e-01
3.65532580091762e+01	9.77651013695355e-01,-1.42754594265403e-01
3.68075060249952e+01	9.77366189644039e-01,-1.43705652290992e-01
3.70635224756151e+01	9.77077558996789e-01,-1.44662470568445e-01
3.73213196614725e+01	9.76785073223718e-01,-1.45625072062109e-01
3.75809099685607e+01	9.76488683240680e-01,-1.46593479565992e-01
3.78423058690241e+01	9.76188339404739e-01,-1.47567715696616e-01
3.81055199217578e+01	9.75883991509652e-01,-1.48547802885734e-01
3.83705647730108e+01	9.75575588781372e-01,-1.49533763372905e-01
3.86374531569941e+01	9.75263079873567e-01,-1.50525619197909e-01
3.89061978964917e+01	9.74946412863166e-01,-1.51523392193029e-01
3.91768119034774e+01	9.74625535245933e-01,-1.52527103975174e-01
3.94493081797347e+01	9.74300393932056e-01,-1.53536775937845e-01
3.97236998174817e+01	9.73970935241783e-01,-1.54552429242960e-01
4.00000000000003e+01	9.73637104901073e-01,-1.55574084812508e-01
4.02782220022691e+01	9.73298848037296e-01,-1.56601763320053e-01
4.05583791916015e+01	9.72956109174959e-01,-1.57635485182077e-01
4.08404850282880e+01	9.72608832231482e-01,-1.58675270549156e-01
4.11245530662430e+01	9.72256960513006e-01,-1.59721139296977e-01
4.14105969536554e+01	9.71900436710257e-01,-1.60773111017183e-01
4.16986304336452e+01	9.71539202894453e-01,-1.61831205008059e-01
4.19886673449230e+01	9.71173200513260e-01,-1.62895440265037e-01
4.22807216224556e+01	9.70802370386811e-01,-1.63965835471036e-01
4.25748072981347e+01	9.70426652703771e-01,-1.65042408986627e-01
4.28709385014521e+01	9.70045987017477e-01,-1.66125178840022e-01
4.31691294601774e+01	9.69660312242130e-01,-1.67214162716883e-01
4.34693945010427e+01	9.69269566649061e-01,-1.68309377949956e-01
4.37717480504299e+01	9.68873687863065e-01,-1.69410841508523e-01
4.40762046350648e+01	9.68472612858816e-01,-1.70518569987666e-01
4.43827788827142e+01	9.68066277957352e-01,-1.71632579597354e-01
4.46914855228892e+01	9.67654618822649e-01,-1.72752886151336e-01
4.50023393875528e+01	9.67237570458277e-01,-1.73879505055857e-01
4.53153554118323e+01	9.66815067204152e-01,-1.75012451298168e-01
4.56305486347374e+01	9.66387042733371e-01,-1.76151739434860e-01
4.59479341998818e+01	9.65953430049161e-01,-1.77297383580000e-01
4.62675273562119e+01	9.65514161481916e-01,-1.78449397393065e-01
4.65893434587387e+01	9.65069168686351e-01,-1.79607794066694e-01
4.69133979692756e+01	9.64618382638761e-01,-1.80772586314232e-01
4.72397064571817e+01	9.64161733634403e-01,-1.81943786357077e-01
4.75682846001093e+01	9.63699151284993e-01,-1.83121405911834e-01
4.78991481847576e+01	9.63230564516329e-01,-1.84305456177257e-01
4.82323131076309e+01	9.62755901566048e-01,-1.85495947820993e-01
4.85677953758023e+01	9.62275089981515e-01,-1.86692890966130e-01
4.89056111076832e+01	9.61788056617858e-01,-1.87896295177525e-01
4.92457765337971e+01	9.61294727636139e-01,-1.89106169447936e-01
4.95883079975600e+01	9.60795028501685e-01,-1.90322522183950e-01
4.99332219560650e+01	9.60288883982575e-01,-1.91545361191690e-01
5.02805349808736e+01	9.59776218148280e-01,-1.92774693662330e-01
5.06302637588117e+01	9.59256954368487e-01,-1.94010526157386e-01
5.09824250927710e+01	9.58731015312077e-01,-1.95252864593805e-01
5.13370359025167e+01	9.58198322946299e-01,-1.96501714228846e-01
5.16941132255002e+01	9.57658798536123e-01,-1.97757079644740e-01
5.20536742176779e+01	9.57112362643780e-01,-1.99018964733145e-01
5.24157361543351e+01	9.56558935128509e-01,-2.00287372679395e-01
5.27803164309163e+01	9.55998435146500e-01,-2.01562305946523e-01
5.31474325638610e+01	9.55430781151055e-01,-2.02843766259086e-01
5.35171021914451e+01	9.54855890892956e-01,-2.04131754586767e-01
5.38893430746282e+01	9.54273681421071e-01,-2.05426271127779e-01
5.42641730979075e+01	9.53684069083176e-01,-2.06727315292039e-01
5.46416102701764e+01	9.53086969527027e-01,-2.08034885684151e-01
5.50216727255904e+01	9.52482297701666e-01,-2.09348980086164e-01
5.54043787244376e+01	9.51869967858985e-01,-2.10669595440128e-01
5.57897466540169e+01	9.51249893555553e-01,-2.11996727830439e-01
5.61777950295205e+01	9.50621987654697e-01,-2.13330372465977e-01
5.65685424949245e+01	9.49986162328869e-01,-2.14670523662036e-01
5.69620078238835e+01	9.49342329062289e-01,-2.16017174822051e-01
5.73582099206338e+01	9.48690398653875e-01,-2.17370318419121e-01
5.77571678209005e+01	9.48030281220477e-01,-2.18729945977327e-01
5.81589006928131e+01	9.47361886200411e-01,-2.20096048052855e-01
5.85634278378257e+01	9.46685122357303e-01,-2.21468614214917e-01
5.89707686916448e+01	9.45999897784265e-01,-2.22847633026475e-01
5.93809428251627e+01	9.45306119908387e-01,-2.24233092024780e-01
5.97939699453983e+01	9.44603695495576e-01,-2.25624977701705e-01
6.02098698964434e+01	9.43892530655737e-01,-2.27023275483907e-01
6.06286626604167e+01	9.43172530848313e-01,-2.28427969712791e-01
6.10503683584231e+01	9.42443600888179e-01,-2.29839043624299e-01
6.14750072515213e+01	9.41705644951917e-01,-2.31256479328517e-01
6.19025997416964e+01	9.40958566584470e-01,-2.32680257789111e-01
6.23331663728408e+01	9.40202268706181e-01,-2.34110358802591e-01
6.27667278317409e+01	9.39436653620236e-01,-2.35546760977405e-01
6.32033049490710e+01	9.38661623020509e-01,-2.36989441712877e-01
6.36429187003943e+01	9.37877077999828e-01,-2.38438377177986e-01
6.40855902071706e+01	9.37082919058667e-01,-2.39893542289988e-01
6.45313407377709e+01	9.36279046114268e-01,-2.41354910692896e-01
6.49801917084997e+01	9.35465358510211e-01,-2.42822454735818e-01
6.54321646846233e+01	9.34641755026437e-01,-2.44296145451158e-01
6.58872813814067e+01	9.33808133889735e-01,-2.45775952532687e-01
6.63455636651562e+01	9.32964392784696e-01,-2.47261844313493e-01
6.68070335542704e+01	9.32110428865155e-01,-2.48753787743810e-01
6.72717132202981e+01	9.31246138766122e-01,-2.50251748368745e-01
6.77396249890031e+01	9.30371418616210e-01,-2.51755690305894e-01
6.82107913414375e+01	9.29486164050575e-01,-2.53265576222869e-01
6.86852349150212e+01	9.28590270224382e-01,-2.54781367314741e-01
6.91629785046302e+01	9.27683631826789e-01,-2.56303023281395e-01
6.96440450636909e+01	9.26766143095473e-01,-2.57830502304826e-01
7.01284577052838e+01	9.25837697831712e-01,-2.59363761026370e-01
7.06162397032534e+01	9.24898189416011e-01,-2.60902754523881e-01
7.11074144933266e+01	9.23947510824302e-01,-2.62447436288874e-01
7.16020056742388e+01	9.22985554644724e-01,-2.63997758203630e-01
7.21000370088674e+01	9.22012213094977e-01,-2.65553670518283e-01
7.26015324253739e+01	9.21027378040278e-01,-2.67115121827897e-01
7.31065160183531e+01	9.20030941011920e-01,-2.68682059049546e-01
7.36150120499911e+01	9.19022793226442e-01,-2.70254427399404e-01
7.41270449512307e+01	9.18002825605420e-01,-2.71832170369861e-01
7.46426393229457e+01	9.16970928795889e-01,-2.73415229706679e-01
7.51618199371220e+01	9.15926993191404e-01,-2.75003545386197e-01
7.56846117380488e+01	9.14870908953745e-01,-2.76597055592597e-01
7.62110398435161e+01	9.13802566035287e-01,-2.78195696695254e-01
7.67411295460223e+01	9.12721854202020e-01,-2.79799403226166e-01
7.72749063139888e+01	9.11628663057256e-01,-2.81408107857509e-01
7.78123957929840e+01	9.10522882066003e-01,-2.83021741379289e-01
7.83536238069553e+01	9.09404400580034e-01,-2.84640232677154e-01
7.88986163594699e+01	9.08273107863648e-01,-2.86263508710341e-01
7.94473996349641e+01	9.07128893120137e-01,-2.87891494489800e-01
8.00000000000012e+01	9.05971645518954e-01,-2.89524113056500e-01
8.05564440045387e+01	9.04801254223604e-01,-2.91161285459942e-01
8.11167583832036e+01	9.03617608420257e-01,-2.92802930736887e-01
8.16809700565767e+01	9.02420597347080e-01,-2.94448965890322e-01
8.22491061324866e+01	9.01210110324314e-01,-2.96099305868689e-01
8.28211939073115e+01	8.99986036785084e-01,-2.97753863545380e-01
8.33972608672910e+01	8.98748266306952e-01,-2.99412549698535e-01
8.39773346898467e+01	8.97496688644226e-01,-3.01075272991154e-01
8.45614432449118e+01	8.96231193761011e-01,-3.02741939951534e-01
8.51496145962701e+01	8.94951671865028e-01,-3.04412454954076e-01
8.57418770029048e+01	8.93658013442186e-01,-3.06086720200460e-01
8.63382589203556e+01	8.92350109291917e-01,-3.07764635701217e-01
8.69387890020860e+01	8.91027850563283e-01,-3.09446099257727e-01
8.75434961008606e+01	8.89691128791847e-01,-3.11131006444658e-01
8.81524092701303e+01	8.88339835937309e-01,-3.12819250592866e-01
8.87655577654290e+01	8.86973864421917e-01,-3.14510722772786e-01
8.93829710457790e+01	8.85593107169650e-01,-3.16205311778341e-01
9.00046787751062e+01	8.84197457646166e-01,-3.17902904111376e-01
9.06307108236654e+01	8.82786809899522e-01,-3.19603383966662e-01
9.12610972694754e+01	8.81361058601663e-01,-3.21306633217482e-01
9.18958683997643e+01	8.79920099090674e-01,-3.23012531401824e-01
9.25350547124245e+01	8.78463827413800e-01,-3.24720955709214e-01
9.31786869174780e+01	8.76992140371217e-01,-3.26431780968213e-01
9.38267959385519e+01	8.75504935560573e-01,-3.28144879634592e-01
9.44794129143640e+01	8.74002111422260e-01,-3.29860121780233e-01
9.51365692002193e+01	8.72483567285452e-01,-3.31577375082759e-01
9.57982963695159e+01	8.70949203414865e-01,-3.33296504815945e-01
9.64646262152625e+01	8.69398921058260e-01,-3.35017373840908e-01
9.71355907516054e+01	8.67832622494660e-01,-3.36739842598137e-01
9.78112222153672e+01	8.66250211083292e-01,-3.38463769100359e-01
9.84915530675950e+01	8.64651591313224e-01,-3.40189008926287e-01
9.91766159951206e+01	8.63036668853704e-01,-3.41915415215282e-01
9.98664439121307e+01	8.61405350605176e-01,-3.43642838662938e-01
1.00561069961748e+02	8.59757544750972e-01,-3.45371127517633e-01
1.01260527517624e+02	8.58093160809658e-01,-3.47100127578080e-01
1.01964850185543e+02	8.56412109688024e-01,-3.48829682191882e-01
1.02674071805034e+02	8.54714303734698e-01,-3.50559632255149e-01
1.03388226451001e+02	8.52999656794379e-01,-3.52289816213187e-01
1.04107348435357e+02	8.51268084262655e-01,-3.54020070062287e-01
1.04831472308671e+02	8.49519503141408e-01,-3.55750227352659e-01
1.05560632861833e+02	8.47753832094760e-01,-3.57480119192518e-01
1.06294865127723e+02	8.45970991505570e-01,-3.59209574253369e-01
1.07034204382891e+02	8.44170903532436e-01,-3.60938418776504e-01
1.07778686149257e+02	8.42353492167194e-01,-3.62666476580756e-01
1.08528346195816e+02	8.40518683292881e-01,-3.64393569071512e-01
1.09283220540354e+02	8.38666404742144e-01,-3.66119515251049e-01
1.10043345451182e+02	8.36796586356067e-01,-3.67844131730183e-01
1.10808757448876e+02	8.34909160043384e-01,-3.69567232741284e-01
1.11579493308035e+02	8.33004059840062e-01,-3.71288630152671e-01
1.12355590059042e+02	8.31081221969207e-01,-3.73008133484419e-01
1.13137084989850e+02	8.29140584901281e-01,-3.74725549925599e-01
1.13924015647768e+02	8.27182089414583e-01,-3.76440684352985e-01
1.14716419841268e+02	8.25205678655973e-01,-3.78153339351234e-01
1.15514335641802e+02	8.23211298201795e-01,-3.79863315234591e-01
1.16317801385627e+02	8.21198896118972e-01,-3.81570410070117e-01
1.17126855675652e+02	8.19168423026235e-01,-3.83274419702475e-01
1.17941537383290e+02	8.17119832155439e-01,-3.84975137780298e-01
1.18761885650326e+02	8.15053079412943e-01,-3.86672355784149e-01
1.19587939890797e+02	8.12968123441003e-01,-3.88365863056110e-01
1.20419739792888e+02	8.10864925679145e-01,-3.90055446831006e-01
1.21257325320834e+02	8.08743450425461e-01,-3.91740892269281e-01
1.22100736716847e+02	8.06603664897808e-01,-3.93421982491565e-01
1.22950014503043e+02	8.04445539294847e-01,-3.95098498614917e-01
1.23805199483394e+02	8.02269046856878e-01,-3.96770219790791e-01
1.24666332745682e+02	8.00074163926445e-01,-3.98436923244710e-01
1.25533455663483e+02	7.97860870008632e-01,-4.00098384317692e-01
1.26406609898143e+02	7.95629147831023e-01,-4.01754376509408e-01
1.27285837400790e+02	7.93378983403281e-01,-4.03404671523113e-01
1.28171180414342e+02	7.91110366076269e-01,-4.05049039312334e-01
1.29062681475543e+02	7.88823288600697e-01,-4.06687248129340e-01
1.29960383417000e+02	7.86517747185213e-01,-4.08319064575396e-01
1.30864329369248e+02	7.84193741553898e-01,-4.09944253652800e-01
1.31774562762814e+02	7.81851275003119e-01,-4.11562578818717e-01
1.32691127330313e+02	7.79490354457668e-01,-4.13173802040801e-01
1.33614067108542e+02	7.77110990526141e-01,-4.14777683854616e-01
1.34543426440597e+02	7.74713197555511e-01,-4.16373983422844e-01
1.35479249978007e+02	7.72296993684810e-01,-4.17962458596290e-01
1.36421582682876e+02	7.69862400897902e-01,-4.19542865976664e-01
1.37370469830043e+02	7.67409445075250e-01,-4.21114960981147e-01
1.38325957009261e+02	7.64938156044648e-01,-4.22678497908720e-01
1.39288090127383e+02	7.62448567630849e-01,-4.24233230008259e-01
1.40256915410569e+02	7.59940717704023e-01,-4.25778909548373e-01
1.41232479406508e+02	7.57414648226996e-01,-4.27315287888974e-01
1.42214828986654e+02	7.54870405301214e-01,-4.28842115554565e-01
1.43204011348479e+02	7.52308039211352e-01,-4.30359142309222e-01
1.44200074017736e+02	7.49727604468539e-01,-4.31866117233260e-01
1.45203064850749e+02	7.47129159852106e-01,-4.33362788801548e-01
1.46213032036707e+02	7.44512768449829e-01,-4.34848904963453e-01
1.47230024099983e+02	7.41878497696581e-01,-4.36324213224392e-01
1.48254089902463e+02	7.39226419411356e-01,-4.37788460728957e-01
1.49285278645892e+02	7.36556609832586e-01,-4.39241394345581e-01
1.50323639874245e+02	7.33869149651708e-01,-4.40682760752710e-01
1.51369223476099e+02	7.31164124044921e-01,-4.42112306526462e-01
1.52422079687033e+02	7.28441622703061e-01,-4.43529778229706e-01
1.53482259092046e+02	7.25701739859558e-01,-4.44934922502548e-01
1.54549812627979e+02	7.22944574316403e-01,-4.46327486154167e-01
1.55624791585969e+02	7.20170229468083e-01,-4.47707216255961e-01
1.56707247613912e+02	7.17378813323413e-01,-4.49073860235955e-01
1.57797232718941e+02	7.14570438525228e-01,-4.50427165974422e-01
1.58894799269929e+02	7.11745222367872e-01,-4.51766881900668e-01
1.60000000000004e+02	7.08903286812442e-01,-4.53092757090925e-01
1.61112888009079e+02	7.06044758499727e-01,-4.54404541367299e-01
1.62233516766408e+02	7.03169768760796e-01,-4.55701985397713e-01
1.63361940113155e+02	7.00278453625203e-01,-4.56984840796783e-01
1.64498212264974e+02	6.97370953826736e-01,-4.58252860227576e-01
1.65642387814624e+02	6.94447414806692e-01,-4.59505797504172e-01
1.66794521734583e+02	6.91507986714623e-01,-4.60743407694972e-01
1.67954669379695e+02	6.88552824406510e-01,-4.61965447226687e-01
1.69122886489825e+02	6.85582087440343e-01,-4.63171673988928e-01
1.70299229192542e+02	6.82595940069046e-01,-4.64361847439336e-01
1.71483754005811e+02	6.79594551230741e-01,-4.65535728709173e-01
1.72676517840712e+02	6.76578094536291e-01,-4.66693080709303e-01
