Freq.	V(vout)
2.00000000000000e+01	9.97652921745534e-01,-3.98828691253793e-02
2.01391110011344e+01	9.97630700962376e-01,-4.01593819257493e-02
2.02791895958006e+01	9.97608170999294e-01,-4.04377992705268e-02
2.04202425141439e+01	9.97585327568640e-01,-4.07181340142414e-02
2.05622765331213e+01	9.97562166323708e-01,-4.10003990926342e-02
2.07052984768276e+01	9.97538682857927e-01,-4.12846075230516e-02
2.08493152168224e+01	9.97514872704054e-01,-4.15707724048394e-02
2.09943336724614e+01	9.97490731333347e-01,-4.18589069197349e-02
2.11403608112276e+01	9.97466254154731e-01,-4.21490243322592e-02
2.12874036490672e+01	9.97441436513954e-01,-4.24411379901080e-02
2.14354692507259e+01	9.97416273692730e-01,-4.27352613245408e-02
2.15845647300886e+01	9.97390760907869e-01,-4.30314078507701e-02
2.17346972505212e+01	9.97364893310402e-01,-4.33295911683481e-02
2.18858740252148e+01	9.97338665984688e-01,-4.36298249615527e-02
2.20381023175322e+01	9.97312073947511e-01,-4.39321229997721e-02
2.21913894413569e+01	9.97285112147166e-01,-4.42364991378875e-02
2.23457427614444e+01	9.97257775462537e-01,-4.45429673166543e-02
2.25011696937762e+01	9.97230058702152e-01,-4.48515415630819e-02
2.26576777059160e+01	9.97201956603240e-01,-4.51622359908109e-02
2.28152743173685e+01	9.97173463830762e-01,-4.54750648004893e-02
2.29739670999407e+01	9.97144574976438e-01,-4.57900422801457e-02
2.31337636781058e+01	9.97115284557761e-01,-4.61071828055609e-02
2.32946717293691e+01	9.97085587016995e-01,-4.64265008406375e-02
2.34566989846376e+01	9.97055476720159e-01,-4.67480109377661e-02
2.36198532285906e+01	9.97024947956002e-01,-4.70717277381903e-02
2.37841423000545e+01	9.96993994934963e-01,-4.73976659723679e-02
2.39495740923786e+01	9.96962611788118e-01,-4.77258404603298e-02
2.41161565538152e+01	9.96930792566111e-01,-4.80562661120367e-02
2.42838976879010e+01	9.96898531238072e-01,-4.83889579277316e-02
2.44528055538414e+01	9.96865821690526e-01,-4.87239309982899e-02
2.46228882668984e+01	9.96832657726280e-01,-4.90612005055663e-02
2.47941539987798e+01	9.96799033063303e-01,-4.94007817227378e-02
2.49666109780323e+01	9.96764941333584e-01,-4.97426900146436e-02
2.51402674904366e+01	9.96730376081983e-01,-5.00869408381213e-02
2.53151318794057e+01	9.96695330765064e-01,-5.04335497423387e-02
2.54912125463853e+01	9.96659798749911e-01,-5.07825323691226e-02
2.56685179512581e+01	9.96623773312933e-01,-5.11339044532824e-02
2.58470566127499e+01	9.96587247638647e-01,-5.14876818229302e-02
2.60268371088387e+01	9.96550214818459e-01,-5.18438803997959e-02
2.62078680771673e+01	9.96512667849410e-01,-5.22025161995384e-02
2.63901582154580e+01	9.96474599632924e-01,-5.25636053320509e-02
2.65737162819303e+01	9.96436002973532e-01,-5.29271640017623e-02
2.67585510957223e+01	9.96396870577576e-01,-5.32932085079330e-02
2.69446715373139e+01	9.96357195051907e-01,-5.36617552449452e-02
2.71320865489535e+01	9.96316968902558e-01,-5.40328207025881e-02
2.73208051350880e+01	9.96276184533402e-01,-5.44064214663369e-02
2.75108363627950e+01	9.96234834244797e-01,-5.47825742176267e-02
2.77021893622186e+01	9.96192910232209e-01,-5.51612957341195e-02
2.78948733270082e+01	9.96150404584820e-01,-5.55426028899654e-02
2.80888975147600e+01	9.96107309284120e-01,-5.59265126560570e-02
2.82842712474620e+01	9.96063616202479e-01,-5.63130421002774e-02
2.84810039119415e+01	9.96019317101701e-01,-5.67022083877411e-02
2.86791049603166e+01	9.95974403631563e-01,-5.70940287810281e-02
2.88785839104500e+01	9.95928867328330e-01,-5.74885206404096e-02
2.90794503464063e+01	9.95882699613262e-01,-5.78857014240680e-02
2.92817139189126e+01	9.95835891791088e-01,-5.82855886883067e-02
2.94853843458221e+01	9.95788435048476e-01,-5.86882000877542e-02
2.96904714125811e+01	9.95740320452473e-01,-5.90935533755580e-02
2.98969849726989e+01	9.95691538948929e-01,-5.95016664035711e-02
3.01049349482215e+01	9.95642081360907e-01,-5.99125571225295e-02
3.03143313302081e+01	9.95591938387066e-01,-6.03262435822198e-02
3.05251841792113e+01	9.95541100600026e-01,-6.07427439316388e-02
3.07375036257604e+01	9.95489558444717e-01,-6.11620764191423e-02
3.09512998708479e+01	9.95437302236704e-01,-6.15842593925851e-02
3.11665831864201e+01	9.95384322160491e-01,-6.20093112994496e-02
3.13833639158702e+01	9.95330608267809e-01,-6.24372506869652e-02
3.16016524745352e+01	9.95276150475878e-01,-6.28680962022157e-02
3.18214593501969e+01	9.95220938565652e-01,-6.33018665922370e-02
3.20427951035850e+01	9.95164962180038e-01,-6.37385807041023e-02
3.22656703688852e+01	9.95108210822102e-01,-6.41782574849963e-02
3.24900958542496e+01	9.95050673853244e-01,-6.46209159822768e-02
3.27160823423114e+01	9.94992340491355e-01,-6.50665753435249e-02
3.29436406907031e+01	9.94933199808955e-01,-6.55152548165816e-02
3.31727818325778e+01	9.94873240731307e-01,-6.59669737495719e-02
3.34035167771350e+01	9.94812452034501e-01,-6.64217515909155e-02
3.36358566101488e+01	9.94750822343530e-01,-6.68796078893239e-02
3.38698124945013e+01	9.94688340130330e-01,-6.73405622937830e-02
3.41053956707185e+01	9.94624993711806e-01,-6.78046345535217e-02
3.43426174575103e+01	9.94560771247827e-01,-6.82718445179660e-02
3.45814892523148e+01	9.94495660739203e-01,-6.87422121366766e-02
3.48220225318452e+01	9.94429650025640e-01,-6.92157574592728e-02
3.50642288526416e+01	9.94362726783662e-01,-6.96925006353386e-02
3.53081198516264e+01	9.94294878524519e-01,-7.01724619143140e-02
3.55537072466630e+01	9.94226092592064e-01,-7.06556616453679e-02
3.58010028371191e+01	9.94156356160613e-01,-7.11421202772555e-02
3.60500185044334e+01	9.94085656232769e-01,-7.16318583581563e-02
3.63007662126867e+01	9.94013979637231e-01,-7.21248965354955e-02
3.65532580091762e+01	9.93941313026574e-01,-7.26212555557461e-02
3.68075060249952e+01	9.93867642875005e-01,-7.31209562642118e-02
3.70635224756151e+01	9.93792955476089e-01,-7.36240196047908e-02
3.73213196614725e+01	9.93717236940459e-01,-7.41304666197197e-02
3.75809099685607e+01	9.93640473193487e-01,-7.46403184492970e-02
3.78423058690241e+01	9.93562649972943e-01,-7.51535963315851e-02
3.81055199217578e+01	9.93483752826615e-01,-7.56703216020914e-02
3.83705647730108e+01	9.93403767109910e-01,-7.61905156934274e-02
3.86374531569941e+01	9.93322677983430e-01,-7.67142001349453e-02
3.89061978964917e+01	9.93240470410511e-01,-7.72413965523512e-02
3.91768119034774e+01	9.93157129154749e-01,-7.77721266672953e-02
3.94493081797347e+01	9.93072638777486e-01,-7.83064122969378e-02
3.97236998174817e+01	9.92986983635276e-01,-7.88442753534900e-02
4.00000000000003e+01	9.92900147877322e-01,-7.93857378437302e-02
4.02782220022691e+01	9.92812115442885e-01,-7.99308218684938e-02
4.05583791916015e+01	9.92722870058662e-01,-8.04795496221371e-02
4.08404850282880e+01	9.92632395236144e-01,-8.10319433919739e-02
4.11245530662430e+01	9.92540674268934e-01,-8.15880255576841e-02
4.14105969536554e+01	9.92447690230048e-01,-8.21478185906949e-02
4.16986304336452e+01	9.92353425969181e-01,-8.27113450535323e-02
4.19886673449230e+01	9.92257864109947e-01,-8.32786275991431e-02
4.22807216224556e+01	9.92160987047084e-01,-8.38496889701874e-02
4.25748072981347e+01	9.92062776943640e-01,-8.44245519982984e-02
4.28709385014521e+01	9.91963215728125e-01,-8.50032396033132e-02
4.31691294601774e+01	9.91862285091628e-01,-8.55857747924685e-02
4.34693945010427e+01	9.91759966484915e-01,-8.61721806595655e-02
4.37717480504299e+01	9.91656241115490e-01,-8.67624803840997e-02
4.40762046350648e+01	9.91551089944629e-01,-8.73566972303564e-02
4.43827788827142e+01	9.91444493684385e-01,-8.79548545464715e-02
4.46914855228892e+01	9.91336432794560e-01,-8.85569757634560e-02
4.50023393875528e+01	9.91226887479650e-01,-8.91630843941829e-02
4.53153554118323e+01	9.91115837685758e-01,-8.97732040323380e-02
4.56305486347374e+01	9.91003263097479e-01,-9.03873583513307e-02
4.59479341998818e+01	9.90889143134752e-01,-9.10055711031671e-02
4.62675273562119e+01	9.90773456949684e-01,-9.16278661172814e-02
4.65893434587387e+01	9.90656183423341e-01,-9.22542672993280e-02
4.69133979692756e+01	9.90537301162512e-01,-9.28847986299305e-02
4.72397064571817e+01	9.90416788496439e-01,-9.35194841633887e-02
4.75682846001093e+01	9.90294623473516e-01,-9.41583480263421e-02
4.78991481847576e+01	9.90170783857966e-01,-9.48014144163884e-02
4.82323131076309e+01	9.90045247126473e-01,-9.54487076006573e-02
4.85677953758023e+01	9.89917990464795e-01,-9.61002519143372e-02
4.89056111076832e+01	9.89788990764342e-01,-9.67560717591554e-02
4.92457765337971e+01	9.89658224618722e-01,-9.74161916018092e-02
4.95883079975600e+01	9.89525668320260e-01,-9.80806359723488e-02
4.99332219560650e+01	9.89391297856485e-01,-9.87494294625089e-02
5.02805349808736e+01	9.89255088906584e-01,-9.94225967239894e-02
5.06302637588117e+01	9.89117016837825e-01,-1.00100162466684e-01
5.09824250927710e+01	9.88977056701960e-01,-1.00782151456857e-01
5.13370359025167e+01	9.88835183231580e-01,-1.01468588515260e-01
5.16941132255002e+01	9.88691370836459e-01,-1.02159498515201e-01
5.20536742176779e+01	9.88545593599847e-01,-1.02854906380552e-01
5.24157361543351e+01	9.88397825274756e-01,-1.03554837083699e-01
5.27803164309163e+01	9.88248039280193e-01,-1.04259315643435e-01
5.31474325638610e+01	9.88096208697384e-01,-1.04968367122791e-01
5.35171021914451e+01	9.87942306265953e-01,-1.05682016626809e-01
5.38893430746282e+01	9.87786304380079e-01,-1.06400289300247e-01
5.42641730979075e+01	9.87628175084622e-01,-1.07123210325229e-01
5.46416102701764e+01	9.87467890071223e-01,-1.07850804918821e-01
5.50216727255904e+01	9.87305420674366e-01,-1.08583098330545e-01
5.54043787244376e+01	9.87140737867426e-01,-1.09320115839832e-01
5.57897466540169e+01	9.86973812258674e-01,-1.10061882753391e-01
5.61777950295205e+01	9.86804614087266e-01,-1.10808424402527e-01
5.65685424949245e+01	9.86633113219196e-01,-1.11559766140371e-01
5.69620078238835e+01	9.86459279143225e-01,-1.12315933339050e-01
5.73582099206338e+01	9.86283080966786e-01,-1.13076951386774e-01
5.77571678209005e+01	9.86104487411856e-01,-1.13842845684858e-01
5.81589006928131e+01	9.85923466810808e-01,-1.14613641644654e-01
5.85634278378257e+01	9.85739987102231e-01,-1.15389364684419e-01
5.89707686916448e+01	9.85554015826734e-01,-1.16170040226092e-01
5.93809428251627e+01	9.85365520122714e-01,-1.16955693691999e-01
5.97939699453983e+01	9.85174466722111e-01,-1.17746350501472e-01
6.02098698964434e+01	9.84980821946125e-01,-1.18542036067381e-01
6.06286626604167e+01	9.84784551700930e-01,-1.19342775792587e-01
6.10503683584231e+01	9.84585621473342e-01,-1.20148595066306e-01
6.14750072515213e+01	9.84383996326486e-01,-1.20959519260382e-01
6.19025997416964e+01	9.84179640895428e-01,-1.21775573725472e-01
6.23331663728408e+01	9.83972519382790e-01,-1.22596783787144e-01
6.27667278317409e+01	9.83762595554348e-01,-1.23423174741873e-01
6.32033049490710e+01	9.83549832734608e-01,-1.24254771852953e-01
6.36429187003943e+01	9.83334193802365e-01,-1.25091600346301e-01
6.40855902071706e+01	9.83115641186241e-01,-1.25933685406175e-01
6.45313407377709e+01	9.82894136860209e-01,-1.26781052170787e-01
6.49801917084997e+01	9.82669642339104e-01,-1.27633725727811e-01
6.54321646846233e+01	9.82442118674112e-01,-1.28491731109797e-01
6.58872813814067e+01	9.82211526448250e-01,-1.29355093289473e-01
6.63455636651562e+01	9.81977825771832e-01,-1.30223837174946e-01
6.68070335542704e+01	9.81740976277922e-01,-1.31097987604790e-01
6.72717132202981e+01	9.81500937117777e-01,-1.31977569343032e-01
6.77396249890031e+01	9.81257666956279e-01,-1.32862607074018e-01
6.82107913414375e+01	9.81011123967359e-01,-1.33753125397168e-01
6.86852349150212e+01	9.80761265829413e-01,-1.34649148821624e-01
6.91629785046302e+01	9.80508049720716e-01,-1.35550701760771e-01
6.96440450636909e+01	9.80251432314823e-01,-1.36457808526642e-01
7.01284577052838e+01	9.79991369775970e-01,-1.37370493324208e-01
7.06162397032534e+01	9.79727817754478e-01,-1.38288780245537e-01
7.11074144933266e+01	9.79460731382149e-01,-1.39212693263838e-01
7.16020056742388e+01	9.79190065267665e-01,-1.40142256227372e-01
7.21000370088674e+01	9.78915773491991e-01,-1.41077492853240e-01
7.26015324253739e+01	9.78637809603779e-01,-1.42018426721033e-01
7.31065160183531e+01	9.78356126614780e-01,-1.42965081266367e-01
7.36150120499911e+01	9.78070676995263e-01,-1.43917479774262e-01
7.41270449512307e+01	9.77781412669439e-01,-1.44875645372406e-01
7.46426393229457e+01	9.77488285010902e-01,-1.45839601024269e-01
7.51618199371220e+01	9.77191244838080e-01,-1.46809369522081e-01
7.56846117380488e+01	9.76890242409694e-01,-1.47784973479673e-01
7.62110398435161e+01	9.76585227420250e-01,-1.48766435325166e-01
7.67411295460223e+01	9.76276148995530e-01,-1.49753777293524e-01
7.72749063139888e+01	9.75962955688118e-01,-1.50747021418955e-01
7.78123957929840e+01	9.75645595472942e-01,-1.51746189527161e-01
7.83536238069553e+01	9.75324015742847e-01,-1.52751303227444e-01
7.88986163594699e+01	9.74998163304187e-01,-1.53762383904651e-01
7.94473996349641e+01	9.74667984372454e-01,-1.54779452710970e-01
8.00000000000012e+01	9.74333424567939e-01,-1.55802530557566e-01
8.05564440045387e+01	9.73994428911427e-01,-1.56831638106058e-01
8.11167583832036e+01	9.73650941819924e-01,-1.57866795759841e-01
8.16809700565767e+01	9.73302907102432e-01,-1.58908023655232e-01
8.22491061324866e+01	9.72950267955769e-01,-1.59955341652471e-01
8.28211939073115e+01	9.72592966960422e-01,-1.61008769326533e-01
8.33972608672910e+01	9.72230946076464e-01,-1.62068325957791e-01
8.39773346898467e+01	9.71864146639510e-01,-1.63134030522498e-01
8.45614432449118e+01	9.71492509356742e-01,-1.64205901683098e-01
8.51496145962701e+01	9.71115974302976e-01,-1.65283957778364e-01
8.57418770029048e+01	9.70734480916802e-01,-1.66368216813362e-01
8.63382589203556e+01	9.70347967996786e-01,-1.67458696449235e-01
8.69387890020860e+01	9.69956373697738e-01,-1.68555413992806e-01
8.75434961008606e+01	9.69559635527055e-01,-1.69658386386001e-01
8.81524092701303e+01	9.69157690341132e-01,-1.70767630195089e-01
8.87655577654290e+01	9.68750474341865e-01,-1.71883161599741e-01
8.93829710457790e+01	9.68337923073224e-01,-1.73004996381892e-01
9.00046787751062e+01	9.67919971417918e-01,-1.74133149914423e-01
9.06307108236654e+01	9.67496553594156e-01,-1.75267637149654e-01
9.12610972694754e+01	9.67067603152488e-01,-1.76408472607638e-01
9.18958683997643e+01	9.66633052972762e-01,-1.77555670364269e-01
9.25350547124245e+01	9.66192835261175e-01,-1.78709244039191e-01
9.31786869174780e+01	9.65746881547432e-01,-1.79869206783511e-01
9.38267959385519e+01	9.65295122682017e-01,-1.81035571267320e-01
9.44794129143640e+01	9.64837488833586e-01,-1.82208349667005e-01
9.51365692002193e+01	9.64373909486472e-01,-1.83387553652368e-01
9.57982963695159e+01	9.63904313438329e-01,-1.84573194373544e-01
9.64646262152625e+01	9.63428628797892e-01,-1.85765282447711e-01
9.71355907516054e+01	9.62946782982888e-01,-1.86963827945596e-01
9.78112222153672e+01	9.62458702718074e-01,-1.88168840377786e-01
9.84915530675950e+01	9.61964314033435e-01,-1.89380328680816e-01
9.91766159951206e+01	9.61463542262524e-01,-1.90598301203065e-01
9.98664439121307e+01	9.60956312040965e-01,-1.91822765690437e-01
1.00561069961748e+02	9.60442547305112e-01,-1.93053729271831e-01
1.01260527517624e+02	9.59922171290890e-01,-1.94291198444408e-01
1.01964850185543e+02	9.59395106532790e-01,-1.95535179058643e-01
1.02674071805034e+02	9.58861274863067e-01,-1.96785676303168e-01
1.03388226451001e+02	9.58320597411103e-01,-1.98042694689401e-01
1.04107348435357e+02	9.57772994602982e-01,-1.99306238035969e-01
1.04831472308671e+02	9.57218386161245e-01,-2.00576309452914e-01
1.05560632861833e+02	9.56656691104866e-01,-2.01852911325689e-01
1.06294865127723e+02	9.56087827749428e-01,-2.03136045298942e-01
1.07034204382891e+02	9.55511713707522e-01,-2.04425712260092e-01
1.07778686149257e+02	9.54928265889375e-01,-2.05721912322680e-01
1.08528346195816e+02	9.54337400503699e-01,-2.07024644809529e-01
1.09283220540354e+02	9.53739033058785e-01,-2.08333908235674e-01
1.10043345451182e+02	9.53133078363848e-01,-2.09649700291092e-01
1.10808757448876e+02	9.52519450530611e-01,-2.10972017823223e-01
1.11579493308035e+02	9.51898062975164e-01,-2.12300856819275e-01
1.12355590059042e+02	9.51268828420075e-01,-2.13636212388328e-01
1.13137084989850e+02	9.50631658896794e-01,-2.14978078743231e-01
1.13924015647768e+02	9.49986465748321e-01,-2.16326449182286e-01
1.14716419841268e+02	9.49333159632179e-01,-2.17681316070744e-01
1.15514335641802e+02	9.48671650523676e-01,-2.19042670822078e-01
1.16317801385627e+02	9.48001847719478e-01,-2.20410503879077e-01
1.17126855675652e+02	9.47323659841493e-01,-2.21784804694728e-01
1.17941537383290e+02	9.46636994841078e-01,-2.23165561712908e-01
1.18761885650326e+02	9.45941760003581e-01,-2.24552762348878e-01
1.19587939890797e+02	9.45237861953212e-01,-2.25946392969595e-01
1.20419739792888e+02	9.44525206658270e-01,-2.27346438873826e-01
1.21257325320834e+02	9.43803699436724e-01,-2.28752884272083e-01
1.22100736716847e+02	9.43073244962157e-01,-2.30165712266379e-01
1.22950014503043e+02	9.42333747270080e-01,-2.31584904829794e-01
1.23805199483394e+02	9.41585109764635e-01,-2.33010442785883e-01
1.24666332745682e+02	9.40827235225684e-01,-2.34442305787904e-01
1.25533455663483e+02	9.40060025816300e-01,-2.35880472297877e-01
1.26406609898143e+02	9.39283383090662e-01,-2.37324919565492e-01
1.27285837400790e+02	9.38497208002374e-01,-2.38775623606850e-01
1.28171180414342e+02	9.37701400913211e-01,-2.40232559183057e-01
1.29062681475543e+02	9.36895861602294e-01,-2.41695699778674e-01
1.29960383417000e+02	9.36080489275718e-01,-2.43165017580018e-01
1.30864329369248e+02	9.35255182576629e-01,-2.44640483453336e-01
1.31774562762814e+02	9.34419839595775e-01,-2.46122066922845e-01
1.32691127330313e+02	9.33574357882514e-01,-2.47609736148649e-01
1.33614067108542e+02	9.32718634456324e-01,-2.49103457904549e-01
1.34543426440597e+02	9.31852565818788e-01,-2.50603197555727e-01
1.35479249978007e+02	9.30976047966098e-01,-2.52108919036348e-01
1.36421582682876e+02	9.30088976402052e-01,-2.53620584827055e-01
1.37370469830043e+02	9.29191246151588e-01,-2.55138155932382e-01
1.38325957009261e+02	9.28282751774838e-01,-2.56661591858091e-01
1.39288090127383e+02	9.27363387381729e-01,-2.58190850588441e-01
1.40256915410569e+02	9.26433046647125e-01,-2.59725888563394e-01
1.41232479406508e+02	9.25491622826537e-01,-2.61266660655774e-01
1.42214828986654e+02	9.24539008772391e-01,-2.62813120148383e-01
1.43204011348479e+02	9.23575096950885e-01,-2.64365218711092e-01
1.44200074017736e+02	9.22599779459422e-01,-2.65922906377906e-01
1.45203064850749e+02	9.21612948044642e-01,-2.67486131524024e-01
1.46213032036707e+02	9.20614494121064e-01,-2.69054840842902e-01
1.47230024099983e+02	9.19604308790333e-01,-2.70628979323329e-01
1.48254089902463e+02	9.18582282861100e-01,-2.72208490226530e-01
1.49285278645892e+02	9.17548306869523e-01,-2.73793315063305e-01
1.50323639874245e+02	9.16502271100415e-01,-2.75383393571231e-01
1.51369223476099e+02	9.15444065609042e-01,-2.76978663691909e-01
1.52422079687033e+02	9.14373580243570e-01,-2.78579061548315e-01
1.53482259092046e+02	9.13290704668186e-01,-2.80184521422220e-01
1.54549812627979e+02	9.12195328386890e-01,-2.81794975731738e-01
1.55624791585969e+02	9.11087340767964e-01,-2.83410355008981e-01
1.56707247613912e+02	9.09966631069135e-01,-2.85030587877865e-01
1.57797232718941e+02	9.08833088463431e-01,-2.86655601032061e-01
1.58894799269929e+02	9.07686602065744e-01,-2.88285319213120e-01
1.60000000000004e+02	9.06527060960095e-01,-2.89919665188785e-01
1.61112888009079e+02	9.05354354227628e-01,-2.91558559731511e-01
1.62233516766408e+02	9.04168370975318e-01,-2.93201921597200e-01
1.63361940113155e+02	9.02969000365410e-01,-2.94849667504181e-01
1.64498212264974e+02	9.01756131645595e-01,-2.96501712112448e-01
1.65642387814624e+02	9.00529654179923e-01,-2.98157968003179e-01
1.66794521734583e+02	8.99289457480465e-01,-2.99818345658543e-01
1.67954669379695e+02	8.98035431239725e-01,-3.01482753441835e-01
1.69122886489825e+02	8.96767465363797e-01,-3.03151097577940e-01
1.70299229192542e+02	8.95485450006295e-01,-3.04823282134160e-01
1.71483754005811e+02	8.94189275603031e-01,-3.06499209001419e-01
1.72676517840712e+02	8.92878832907463e-01,-3.08178777875869e-01
