Freq.	V(vout)
2.00000000000000e+01	9.41006715513482e-01,-2.35736915793364e-01
2.01391110011344e+01	9.40232370402975e-01,-2.37181467806782e-01
2.02791895958006e+01	9.39448514586118e-01,-2.38632296971134e-01
2.04202425141439e+01	9.38655048477783e-01,-2.40089378490987e-01
2.05622765331213e+01	9.37851871905564e-01,-2.41552686300475e-01
2.07052984768276e+01	9.37038884119252e-01,-2.43022193041616e-01
2.08493152168224e+01	9.36215983800748e-01,-2.44497870042498e-01
2.09943336724614e+01	9.35383069074453e-01,-2.45979687295333e-01
2.11403608112276e+01	9.34540037518116e-01,-2.47467613434380e-01
2.12874036490672e+01	9.33686786174169e-01,-2.48961615713756e-01
2.14354692507259e+01	9.32823211561548e-01,-2.50461659985132e-01
2.15845647300886e+01	9.31949209688017e-01,-2.51967710675323e-01
2.17346972505212e+01	9.31064676062996e-01,-2.53479730763785e-01
2.18858740252148e+01	9.30169505710910e-01,-2.54997681760021e-01
2.20381023175322e+01	9.29263593185068e-01,-2.56521523680903e-01
2.21913894413569e+01	9.28346832582072e-01,-2.58051215027932e-01
2.23457427614444e+01	9.27419117556778e-01,-2.59586712764421e-01
2.25011696937762e+01	9.26480341337815e-01,-2.61127972292633e-01
2.26576777059160e+01	9.25530396743662e-01,-2.62674947430878e-01
2.28152743173685e+01	9.24569176199304e-01,-2.64227590390562e-01
2.29739670999407e+01	9.23596571753474e-01,-2.65785851753229e-01
2.31337636781058e+01	9.22612475096487e-01,-2.67349680447578e-01
2.32946717293691e+01	9.21616777578671e-01,-2.68919023726484e-01
2.34566989846376e+01	9.20609370229420e-01,-2.70493827144025e-01
2.36198532285906e+01	9.19590143776854e-01,-2.72074034532538e-01
2.37841423000545e+01	9.18558988668127e-01,-2.73659587979697e-01
2.39495740923786e+01	9.17515795090347e-01,-2.75250427805652e-01
2.41161565538152e+01	9.16460452992173e-01,-2.76846492540219e-01
2.42838976879010e+01	9.15392852106038e-01,-2.78447718900143e-01
2.44528055538414e+01	9.14312881971060e-01,-2.80054041766458e-01
2.46228882668984e+01	9.13220431956606e-01,-2.81665394161939e-01
2.47941539987798e+01	9.12115391286544e-01,-2.83281707228676e-01
2.49666109780323e+01	9.10997649064185e-01,-2.84902910205780e-01
2.51402674904366e+01	9.09867094297911e-01,-2.86528930407241e-01
2.53151318794057e+01	9.08723615927510e-01,-2.88159693199939e-01
2.54912125463853e+01	9.07567102851221e-01,-2.89795121981853e-01
2.56685179512581e+01	9.06397443953491e-01,-2.91435138160449e-01
2.58470566127499e+01	9.05214528133455e-01,-2.93079661131303e-01
2.60268371088387e+01	9.04018244334148e-01,-2.94728608256941e-01
2.62078680771673e+01	9.02808481572444e-01,-2.96381894845942e-01
2.63901582154580e+01	9.01585128969741e-01,-2.98039434132308e-01
2.65737162819303e+01	9.00348075783387e-01,-2.99701137255122e-01
2.67585510957223e+01	8.99097211438855e-01,-3.01366913238521e-01
2.69446715373139e+01	8.97832425562677e-01,-3.03036668971992e-01
2.71320865489535e+01	8.96553608016127e-01,-3.04710309191030e-01
2.73208051350880e+01	8.95260648929672e-01,-3.06387736458153e-01
2.75108363627950e+01	8.93953438738188e-01,-3.08068851144322e-01
2.77021893622186e+01	8.92631868216937e-01,-3.09753551410772e-01
2.78948733270082e+01	8.91295828518317e-01,-3.11441733191279e-01
2.80888975147600e+01	8.89945211209383e-01,-3.13133290174888e-01
2.82842712474620e+01	8.88579908310139e-01,-3.14828113789127e-01
2.84810039119415e+01	8.87199812332603e-01,-3.16526093183724e-01
2.86791049603166e+01	8.85804816320640e-01,-3.18227115214857e-01
2.88785839104500e+01	8.84394813890574e-01,-3.19931064429957e-01
2.90794503464063e+01	8.82969699272566e-01,-3.21637823053095e-01
2.92817139189126e+01	8.81529367352758e-01,-3.23347270970969e-01
2.94853843458221e+01	8.80073713716189e-01,-3.25059285719523e-01
2.96904714125811e+01	8.78602634690468e-01,-3.26773742471225e-01
2.98969849726989e+01	8.77116027390209e-01,-3.28490514023022e-01
3.01049349482215e+01	8.75613789762222e-01,-3.30209470785009e-01
3.03143313302081e+01	8.74095820631445e-01,-3.31930480769826e-01
3.05251841792113e+01	8.72562019747627e-01,-3.33653409582824e-01
3.07375036257604e+01	8.71012287832740e-01,-3.35378120413019e-01
3.09512998708479e+01	8.69446526629123e-01,-3.37104474024858e-01
3.11665831864201e+01	8.67864638948345e-01,-3.38832328750839e-01
3.13833639158702e+01	8.66266528720771e-01,-3.40561540484990e-01
3.16016524745352e+01	8.64652101045836e-01,-3.42291962677263e-01
3.18214593501969e+01	8.63021262243005e-01,-3.44023446328847e-01
3.20427951035850e+01	8.61373919903401e-01,-3.45755839988442e-01
3.22656703688852e+01	8.59709982942105e-01,-3.47488989749518e-01
3.24900958542496e+01	8.58029361651102e-01,-3.49222739248589e-01
3.27160823423114e+01	8.56331967752857e-01,-3.50956929664527e-01
3.29436406907031e+01	8.54617714454512e-01,-3.52691399718954e-01
3.31727818325778e+01	8.52886516502686e-01,-3.54425985677725e-01
3.34035167771350e+01	8.51138290238846e-01,-3.56160521353552e-01
3.36358566101488e+01	8.49372953655258e-01,-3.57894838109772e-01
3.38698124945013e+01	8.47590426451468e-01,-3.59628764865310e-01
3.41053956707185e+01	8.45790630091305e-01,-3.61362128100857e-01
3.43426174575103e+01	8.43973487860399e-01,-3.63094751866282e-01
3.45814892523148e+01	8.42138924924151e-01,-3.64826457789325e-01
3.48220225318452e+01	8.40286868386174e-01,-3.66557065085581e-01
3.50642288526416e+01	8.38417247347154e-01,-3.68286390569814e-01
3.53081198516264e+01	8.36529992964102e-01,-3.70014248668618e-01
3.55537072466630e+01	8.34625038509991e-01,-3.71740451434467e-01
3.58010028371191e+01	8.32702319433724e-01,-3.73464808561163e-01
3.60500185044334e+01	8.30761773420417e-01,-3.75187127400717e-01
3.63007662126867e+01	8.28803340451963e-01,-3.76907212981696e-01
3.65532580091762e+01	8.26826962867847e-01,-3.78624868029038e-01
3.68075060249952e+01	8.24832585426162e-01,-3.80339892985388e-01
3.70635224756151e+01	8.22820155364822e-01,-3.82052086033955e-01
3.73213196614725e+01	8.20789622462902e-01,-3.83761243122929e-01
3.75809099685607e+01	8.18740939102096e-01,-3.85467157991466e-01
3.78423058690241e+01	8.16674060328232e-01,-3.87169622197283e-01
3.81055199217578e+01	8.14588943912819e-01,-3.88868425145857e-01
3.83705647730108e+01	8.12485550414585e-01,-3.90563354121273e-01
3.86374531569941e+01	8.10363843240954e-01,-3.92254194318727e-01
3.89061978964917e+01	8.08223788709427e-01,-3.93940728878698e-01
3.91768119034774e+01	8.06065356108823e-01,-3.95622738922825e-01
3.94493081797347e+01	8.03888517760332e-01,-3.97300003591475e-01
3.97236998174817e+01	8.01693249078336e-01,-3.98972300083052e-01
4.00000000000003e+01	7.99479528630946e-01,-4.00639403695031e-01
4.02782220022691e+01	7.97247338200218e-01,-4.02301087866742e-01
4.05583791916015e+01	7.94996662841983e-01,-4.03957124223924e-01
4.08404850282880e+01	7.92727490945258e-01,-4.05607282625034e-01
4.11245530662430e+01	7.90439814291168e-01,-4.07251331209350e-01
4.14105969536554e+01	7.88133628111348e-01,-4.08889036446845e-01
4.16986304336452e+01	7.85808931145755e-01,-4.10520163189867e-01
4.19886673449230e+01	7.83465725699841e-01,-4.12144474726601e-01
4.22807216224556e+01	7.81104017701041e-01,-4.13761732836338e-01
4.25748072981347e+01	7.78723816754510e-01,-4.15371697846535e-01
4.28709385014521e+01	7.76325136198057e-01,-4.16974128691682e-01
4.31691294601774e+01	7.73907993156219e-01,-4.18568782973952e-01
4.34693945010427e+01	7.71472408593423e-01,-4.20155417025651e-01
4.37717480504299e+01	7.69018407366172e-01,-4.21733785973452e-01
4.40762046350648e+01	7.66546018274193e-01,-4.23303643804398e-01
4.43827788827142e+01	7.64055274110505e-01,-4.24864743433678e-01
4.46914855228892e+01	7.61546211710327e-01,-4.26416836774159e-01
4.50023393875528e+01	7.59018871998789e-01,-4.27959674807654e-01
4.53153554118323e+01	7.56473300037358e-01,-4.29493007657914e-01
4.56305486347374e+01	7.53909545068955e-01,-4.31016584665336e-01
4.59479341998818e+01	7.51327660561670e-01,-4.32530154463351e-01
4.62675273562119e+01	7.48727704251037e-01,-4.34033465056477e-01
4.65893434587387e+01	7.46109738180799e-01,-4.35526263900017e-01
4.69133979692756e+01	7.43473828742108e-01,-4.37008297981369e-01
4.72397064571817e+01	7.40820046711097e-01,-4.38479313902927e-01
4.75682846001093e+01	7.38148467284771e-01,-4.39939057966528e-01
4.78991481847576e+01	7.35459170115147e-01,-4.41387276259433e-01
4.82323131076309e+01	7.32752239341600e-01,-4.42823714741791e-01
4.85677953758023e+01	7.30027763621344e-01,-4.44248119335550e-01
4.89056111076832e+01	7.27285836157996e-01,-4.45660236014785e-01
4.92457765337971e+01	7.24526554728170e-01,-4.47059810897391e-01
4.95883079975600e+01	7.21750021706041e-01,-4.48446590338105e-01
4.99332219560650e+01	7.18956344085817e-01,-4.49820321022802e-01
5.02805349808736e+01	7.16145633502093e-01,-4.51180750064026e-01
5.06302637588117e+01	7.13318006247990e-01,-4.52527625097696e-01
5.09824250927710e+01	7.10473583291072e-01,-4.53860694380946e-01
5.13370359025167e+01	7.07612490286961e-01,-4.55179706891030e-01
5.16941132255002e+01	7.04734857590616e-01,-4.56484412425244e-01
5.20536742176779e+01	7.01840820265217e-01,-4.57774561701806e-01
5.24157361543351e+01	6.98930518088622e-01,-4.59049906461627e-01
5.27803164309163e+01	6.96004095557342e-01,-4.60310199570910e-01
5.31474325638610e+01	6.93061701887996e-01,-4.61555195124525e-01
5.35171021914451e+01	6.90103491016197e-01,-4.62784648550066e-01
5.38893430746282e+01	6.87129621592848e-01,-4.63998316712551e-01
5.42641730979075e+01	6.84140256977796e-01,-4.65195958019668e-01
5.46416102701764e+01	6.81135565230804e-01,-4.66377332527513e-01
5.50216727255904e+01	6.78115719099833e-01,-4.67542202046734e-01
5.54043787244376e+01	6.75080896006580e-01,-4.68690330249006e-01
5.57897466540169e+01	6.72031278029245e-01,-4.69821482773765e-01
5.61777950295205e+01	6.68967051882526e-01,-4.70935427335115e-01
5.65685424949245e+01	6.65888408894785e-01,-4.72031933828829e-01
5.69620078238835e+01	6.62795544982387e-01,-4.73110774439363e-01
5.73582099206338e+01	6.59688660621188e-01,-4.74171723746799e-01
5.77571678209005e+01	6.56567960815157e-01,-4.75214558833628e-01
5.81589006928131e+01	6.53433655062114e-01,-4.76239059391293e-01
5.85634278378257e+01	6.50285957316583e-01,-4.77245007826404e-01
5.89707686916448e+01	6.47125085949751e-01,-4.78232189366530e-01
5.93809428251627e+01	6.43951263706521e-01,-4.79200392165490e-01
5.97939699453983e+01	6.40764717659671e-01,-4.80149407408045e-01
6.02098698964434e+01	6.37565679161113e-01,-4.81079029413909e-01
6.06286626604167e+01	6.34354383790255e-01,-4.81989055740975e-01
6.10503683584231e+01	6.31131071299487e-01,-4.82879287287688e-01
6.14750072515213e+01	6.27895985556788e-01,-4.83749528394443e-01
6.19025997416964e+01	6.24649374485476e-01,-4.84599586943951e-01
6.23331663728408e+01	6.21391490001117e-01,-4.85429274460454e-01
6.27667278317409e+01	6.18122587945624e-01,-4.86238406207713e-01
6.32033049490710e+01	6.14842928018548e-01,-4.87026801285673e-01
6.36429187003943e+01	6.11552773705614e-01,-4.87794282725717e-01
6.40855902071706e+01	6.08252392204517e-01,-4.88540677584420e-01
6.45313407377709e+01	6.04942054348020e-01,-4.89265817035706e-01
6.49801917084997e+01	6.01622034524382e-01,-4.89969536461335e-01
6.54321646846233e+01	5.98292610595174e-01,-4.90651675539613e-01
6.58872813814067e+01	5.94954063810506e-01,-4.91312078332256e-01
6.63455636651562e+01	5.91606678721730e-01,-4.91950593369318e-01
6.68070335542704e+01	5.88250743091660e-01,-4.92567073732085e-01
6.72717132202981e+01	5.84886547802361e-01,-4.93161377133877e-01
6.77396249890031e+01	5.81514386760571e-01,-4.93733365998659e-01
6.82107913414375e+01	5.78134556800814e-01,-4.94282907537385e-01
6.86852349150212e+01	5.74747357586256e-01,-4.94809873822005e-01
6.91629785046302e+01	5.71353091507385e-01,-4.95314141857049e-01
6.96440450636909e+01	5.67952063578574e-01,-4.95795593648725e-01
7.01284577052838e+01	5.64544581332598e-01,-4.96254116271451e-01
7.06162397032534e+01	5.61130954713183e-01,-4.96689601931754e-01
7.11074144933266e+01	5.57711495965662e-01,-4.97101948029479e-01
7.16020056742388e+01	5.54286519525812e-01,-4.97491057216228e-01
7.21000370088674e+01	5.50856341906962e-01,-4.97856837450979e-01
7.26015324253739e+01	5.47421281585450e-01,-4.98199202052827e-01
7.31065160183531e+01	5.43981658884513e-01,-4.98518069750776e-01
7.36150120499911e+01	5.40537795856708e-01,-4.98813364730555e-01
7.41270449512307e+01	5.37090016164935e-01,-4.99085016678385e-01
7.46426393229457e+01	5.33638644962184e-01,-4.99332960821655e-01
7.51618199371220e+01	5.30184008770064e-01,-4.99557137966482e-01
7.56846117380488e+01	5.26726435356235e-01,-4.99757494532082e-01
7.62110398435161e+01	5.23266253610839e-01,-4.99933982581943e-01
7.67411295460223e+01	5.19803793422006e-01,-5.00086559851757e-01
7.72749063139888e+01	5.16339385550563e-01,-5.00215189774072e-01
7.78123957929840e+01	5.12873361504029e-01,-5.00319841499656e-01
7.83536238069553e+01	5.09406053409997e-01,-5.00400489915525e-01
7.88986163594699e+01	5.05937793889025e-01,-5.00457115659644e-01
7.94473996349641e+01	5.02468915927108e-01,-5.00489705132260e-01
8.00000000000012e+01	4.98999752747863e-01,-5.00498250503870e-01
8.05564440045387e+01	4.95530637684517e-01,-5.00482749719806e-01
8.11167583832036e+01	4.92061904051805e-01,-5.00443206501441e-01
8.16809700565767e+01	4.88593885017886e-01,-5.00379630344010e-01
8.22491061324866e+01	4.85126913476369e-01,-5.00292036511042e-01
8.28211939073115e+01	4.81661321918579e-01,-5.00180446025419e-01
8.33972608672910e+01	4.78197442306138e-01,-5.00044885657077e-01
8.39773346898467e+01	4.74735605943980e-01,-4.99885387907335e-01
8.45614432449118e+01	4.71276143353909e-01,-4.99701990989906e-01
8.51496145962701e+01	4.67819384148784e-01,-4.99494738808577e-01
8.57418770029048e+01	4.64365656907447e-01,-4.99263680931612e-01
8.63382589203556e+01	4.60915289050493e-01,-4.99008872562880e-01
8.69387890020860e+01	4.57468606716972e-01,-4.98730374509753e-01
8.75434961008606e+01	4.54025934642128e-01,-4.98428253147810e-01
8.81524092701303e+01	4.50587596036279e-01,-4.98102580382377e-01
8.87655577654290e+01	4.47153912464910e-01,-4.97753433606952e-01
8.93829710457790e+01	4.43725203730102e-01,-4.97380895658550e-01
9.00046787751062e+01	4.40301787753359e-01,-4.96985054770027e-01
9.06307108236654e+01	4.36883980459948e-01,-4.96566004519431e-01
9.12610972694754e+01	4.33472095664817e-01,-4.96123843776419e-01
9.18958683997643e+01	4.30066444960203e-01,-4.95658676645824e-01
9.25350547124245e+01	4.26667337604974e-01,-4.95170612408404e-01
9.31786869174780e+01	4.23275080415836e-01,-4.94659765458856e-01
9.38267959385519e+01	4.19889977660432e-01,-4.94126255241146e-01
9.44794129143640e+01	4.16512330952450e-01,-4.93570206181230e-01
9.51365692002193e+01	4.13142439148783e-01,-4.92991747617229e-01
9.57982963695159e+01	4.09780598248836e-01,-4.92391013727142e-01
9.64646262152625e+01	4.06427101296025e-01,-4.91768143454154e-01
9.71355907516054e+01	4.03082238281549e-01,-4.91123280429626e-01
9.78112222153672e+01	3.99746296050489e-01,-4.90456572893851e-01
9.84915530675950e+01	3.96419558210297e-01,-4.89768173614635e-01
9.91766159951206e+01	3.93102305041724e-01,-4.89058239803805e-01
9.98664439121307e+01	3.89794813412247e-01,-4.88326933031717e-01
1.00561069961748e+02	3.86497356692041e-01,-4.87574419139853e-01
1.01260527517624e+02	3.83210204672540e-01,-4.86800868151580e-01
1.01964850185543e+02	3.79933623487636e-01,-4.86006454181181e-01
1.02674071805034e+02	3.76667875537552e-01,-4.85191355341223e-01
1.03388226451001e+02	3.73413219415423e-01,-4.84355753648362e-01
1.04107348435357e+02	3.70169909836625e-01,-4.83499834927673e-01
1.04831472308671e+02	3.66938197570876e-01,-4.82623788715591e-01
1.05560632861833e+02	3.63718329377143e-01,-4.81727808161563e-01
1.06294865127723e+02	3.60510547941365e-01,-4.80812089928489e-01
1.07034204382891e+02	3.57315091817032e-01,-4.79876834092052e-01
1.07778686149257e+02	3.54132195368622e-01,-4.78922244039022e-01
1.08528346195816e+02	3.50962088717908e-01,-4.77948526364637e-01
1.09283220540354e+02	3.47804997693166e-01,-4.76955890769132e-01
1.10043345451182e+02	3.44661143781262e-01,-4.75944549953529e-01
1.10808757448876e+02	3.41530744082652e-01,-4.74914719514758e-01
1.11579493308035e+02	3.38414011269272e-01,-4.73866617840217e-01
1.12355590059042e+02	3.35311153545334e-01,-4.72800466001841e-01
1.13137084989850e+02	3.32222374611012e-01,-4.71716487649794e-01
1.13924015647768e+02	3.29147873629012e-01,-4.70614908905838e-01
1.14716419841268e+02	3.26087845194026e-01,-4.69495958256501e-01
1.15514335641802e+02	3.23042479305043e-01,-4.68359866446102e-01
1.16317801385627e+02	3.20011961340506e-01,-4.67206866369734e-01
1.17126855675652e+02	3.16996472036297e-01,-4.66037192966279e-01
1.17941537383290e+02	3.13996187466536e-01,-4.64851083111546e-01
1.18761885650326e+02	3.11011279027146e-01,-4.63648775511602e-01
1.19587939890797e+02	3.08041913422196e-01,-4.62430510596385e-01
1.20419739792888e+02	3.05088252652950e-01,-4.61196530413665e-01
1.21257325320834e+02	3.02150454009626e-01,-4.59947078523451e-01
1.22100736716847e+02	2.99228670065816e-01,-4.58682399892882e-01
1.22950014503043e+02	2.96323048675527e-01,-4.57402740791717e-01
1.23805199483394e+02	2.93433732972818e-01,-4.56108348688460e-01
1.24666332745682e+02	2.90560861373987e-01,-4.54799472147205e-01
1.25533455663483e+02	2.87704567582265e-01,-4.53476360725272e-01
1.26406609898143e+02	2.84864980594978e-01,-4.52139264871680e-01
1.27285837400790e+02	2.82042224713128e-01,-4.50788435826543e-01
1.28171180414342e+02	2.79236419553353e-01,-4.49424125521435e-01
1.29062681475543e+02	2.76447680062209e-01,-4.48046586480784e-01
1.29960383417000e+02	2.73676116532732e-01,-4.46656071724356e-01
1.30864329369248e+02	2.70921834623230e-01,-4.45252834670882e-01
1.31774562762814e+02	2.68184935378242e-01,-4.43837129042878e-01
1.32691127330313e+02	2.65465515251631e-01,-4.42409208772713e-01
1.33614067108542e+02	2.62763666131731e-01,-4.40969327909965e-01
1.34543426440597e+02	2.60079475368521e-01,-4.39517740530118e-01
1.35479249978007e+02	2.57413025802745e-01,-4.38054700644640e-01
1.36421582682876e+02	2.54764395796940e-01,-4.36580462112482e-01
1.37370469830043e+02	2.52133659268300e-01,-4.35095278553042e-01
1.38325957009261e+02	2.49520885723338e-01,-4.33599403260623e-01
1.39288090127383e+02	2.46926140294258e-01,-4.32093089120428e-01
1.40256915410569e+02	2.44349483777007e-01,-4.30576588526115e-01
1.41232479406508e+02	2.41790972670936e-01,-4.29050153298947e-01
1.42214828986654e+02	2.39250659220001e-01,-4.27514034608576e-01
1.43204011348479e+02	2.36728591455464e-01,-4.25968482895454e-01
1.44200074017736e+02	2.34224813240021e-01,-4.24413747794939e-01
1.45203064850749e+02	2.31739364313293e-01,-4.22850078063075e-01
1.46213032036707e+02	2.29272280338641e-01,-4.21277721504100e-01
1.47230024099983e+02	2.26823592951224e-01,-4.19696924899671e-01
1.48254089902463e+02	2.24393329807244e-01,-4.18107933939845e-01
1.49285278645892e+02	2.21981514634338e-01,-4.16510993155809e-01
1.50323639874245e+02	2.19588167283027e-01,-4.14906345854386e-01
1.51369223476099e+02	2.17213303779194e-01,-4.13294234054320e-01
1.52422079687033e+02	2.14856936377512e-01,-4.11674898424342e-01
1.53482259092046e+02	2.12519073615771e-01,-4.10048578223032e-01
1.54549812627979e+02	2.10199720370053e-01,-4.08415511240478e-01
1.55624791585969e+02	2.07898877910693e-01,-4.06775933741731e-01
1.56707247613912e+02	2.05616543958961e-01,-4.05130080412057e-01
1.57797232718941e+02	2.03352712744436e-01,-4.03478184303990e-01
1.58894799269929e+02	2.01107375062989e-01,-4.01820476786175e-01
1.60000000000004e+02	1.98880518335339e-01,-4.00157187494004e-01
1.61112888009079e+02	1.96672126666125e-01,-3.98488544282035e-01
1.62233516766408e+02	1.94482180903440e-01,-3.96814773178186e-01
1.63361940113155e+02	1.92310658698780e-01,-3.95136098339695e-01
1.64498212264974e+02	1.90157534567355e-01,-3.93452742010845e-01
1.65642387814624e+02	1.88022779948718e-01,-3.91764924482423e-01
1.66794521734583e+02	1.85906363267649e-01,-3.90072864052923e-01
1.67954669379695e+02	1.83808249995277e-01,-3.88376776991462e-01
1.69122886489825e+02	1.81728402710359e-01,-3.86676877502397e-01
1.70299229192542e+02	1.79666781160694e-01,-3.84973377691639e-01
1.71483754005811e+02	1.77623342324628e-01,-3.83266487534629e-01
1.72676517840712e+02	1.75598040472590e-01,-3.81556414845968e-01
