Freq.	V(vout)
2.00000000000000e+01	9.99021461424405e-01,-3.12818900595725e-02
2.01391110011344e+01	9.99007815074546e-01,-3.14990429672896e-02
2.02791895958006e+01	9.98993978609009e-01,-3.17176972730418e-02
2.04202425141439e+01	9.98979949384554e-01,-3.19378632307761e-02
2.05622765331213e+01	9.98965724721339e-01,-3.21595511618030e-02
2.07052984768276e+01	9.98951301902424e-01,-3.23827714551820e-02
2.08493152168224e+01	9.98936678173256e-01,-3.26075345681091e-02
2.09943336724614e+01	9.98921850741156e-01,-3.28338510263040e-02
2.11403608112276e+01	9.98906816774794e-01,-3.30617314243990e-02
2.12874036490672e+01	9.98891573403662e-01,-3.32911864263287e-02
2.14354692507259e+01	9.98876117717533e-01,-3.35222267657204e-02
2.15845647300886e+01	9.98860446765919e-01,-3.37548632462853e-02
2.17346972505212e+01	9.98844557557516e-01,-3.39891067422103e-02
2.18858740252148e+01	9.98828447059650e-01,-3.42249681985514e-02
2.20381023175322e+01	9.98812112197706e-01,-3.44624586316263e-02
2.21913894413569e+01	9.98795549854553e-01,-3.47015891294095e-02
2.23457427614444e+01	9.98778756869965e-01,-3.49423708519263e-02
2.25011696937762e+01	9.98761730040031e-01,-3.51848150316486e-02
2.26576777059160e+01	9.98744466116553e-01,-3.54289329738906e-02
2.28152743173685e+01	9.98726961806445e-01,-3.56747360572056e-02
2.29739670999407e+01	9.98709213771116e-01,-3.59222357337826e-02
2.31337636781058e+01	9.98691218625850e-01,-3.61714435298437e-02
2.32946717293691e+01	9.98672972939173e-01,-3.64223710460418e-02
2.34566989846376e+01	9.98654473232217e-01,-3.66750299578591e-02
2.36198532285906e+01	9.98635715978068e-01,-3.69294320160048e-02
2.37841423000545e+01	9.98616697601117e-01,-3.71855890468141e-02
2.39495740923786e+01	9.98597414476388e-01,-3.74435129526470e-02
2.41161565538152e+01	9.98577862928868e-01,-3.77032157122869e-02
2.42838976879010e+01	9.98558039232824e-01,-3.79647093813402e-02
2.44528055538414e+01	9.98537939611112e-01,-3.82280060926347e-02
2.46228882668984e+01	9.98517560234472e-01,-3.84931180566191e-02
2.47941539987798e+01	9.98496897220824e-01,-3.87600575617616e-02
2.49666109780323e+01	9.98475946634541e-01,-3.90288369749491e-02
2.51402674904366e+01	9.98454704485726e-01,-3.92994687418852e-02
2.53151318794057e+01	9.98433166729471e-01,-3.95719653874892e-02
2.54912125463853e+01	9.98411329265107e-01,-3.98463395162936e-02
2.56685179512581e+01	9.98389187935445e-01,-4.01226038128420e-02
2.58470566127499e+01	9.98366738526011e-01,-4.04007710420860e-02
2.60268371088387e+01	9.98343976764261e-01,-4.06808540497820e-02
2.62078680771673e+01	9.98320898318800e-01,-4.09628657628872e-02
2.63901582154580e+01	9.98297498798572e-01,-4.12468191899549e-02
2.65737162819303e+01	9.98273773752062e-01,-4.15327274215291e-02
2.67585510957223e+01	9.98249718666464e-01,-4.18206036305381e-02
2.69446715373139e+01	9.98225328966855e-01,-4.21104610726876e-02
2.71320865489535e+01	9.98200600015353e-01,-4.24023130868525e-02
2.73208051350880e+01	9.98175527110261e-01,-4.26961730954678e-02
2.75108363627950e+01	9.98150105485204e-01,-4.29920546049180e-02
2.77021893622186e+01	9.98124330308249e-01,-4.32899712059255e-02
2.78948733270082e+01	9.98098196681025e-01,-4.35899365739383e-02
2.80888975147600e+01	9.98071699637813e-01,-4.38919644695147e-02
2.82842712474620e+01	9.98044834144645e-01,-4.41960687387085e-02
2.84810039119415e+01	9.98017595098375e-01,-4.45022633134506e-02
2.86791049603166e+01	9.97989977325746e-01,-4.48105622119304e-02
2.88785839104500e+01	9.97961975582441e-01,-4.51209795389749e-02
2.90794503464063e+01	9.97933584552126e-01,-4.54335294864253e-02
2.92817139189126e+01	9.97904798845476e-01,-4.57482263335127e-02
2.94853843458221e+01	9.97875612999191e-01,-4.60650844472309e-02
2.96904714125811e+01	9.97846021474998e-01,-4.63841182827067e-02
2.98969849726989e+01	9.97816018658640e-01,-4.67053423835691e-02
3.01049349482215e+01	9.97785598858854e-01,-4.70287713823147e-02
3.03143313302081e+01	9.97754756306333e-01,-4.73544200006712e-02
3.05251841792113e+01	9.97723485152675e-01,-4.76823030499582e-02
3.07375036257604e+01	9.97691779469321e-01,-4.80124354314447e-02
3.09512998708479e+01	9.97659633246476e-01,-4.83448321367044e-02
3.11665831864201e+01	9.97627040392016e-01,-4.86795082479673e-02
3.13833639158702e+01	9.97593994730388e-01,-4.90164789384680e-02
3.16016524745352e+01	9.97560490001484e-01,-4.93557594727915e-02
3.18214593501969e+01	9.97526519859509e-01,-4.96973652072145e-02
3.20427951035850e+01	9.97492077871835e-01,-5.00413115900437e-02
3.22656703688852e+01	9.97457157517832e-01,-5.03876141619497e-02
3.24900958542496e+01	9.97421752187696e-01,-5.07362885562982e-02
3.27160823423114e+01	9.97385855181251e-01,-5.10873504994754e-02
3.29436406907031e+01	9.97349459706741e-01,-5.14408158112105e-02
3.31727818325778e+01	9.97312558879609e-01,-5.17967004048933e-02
3.34035167771350e+01	9.97275145721254e-01,-5.21550202878874e-02
3.36358566101488e+01	9.97237213157778e-01,-5.25157915618381e-02
3.38698124945013e+01	9.97198754018712e-01,-5.28790304229762e-02
3.41053956707185e+01	9.97159761035731e-01,-5.32447531624164e-02
3.43426174575103e+01	9.97120226841351e-01,-5.36129761664502e-02
3.45814892523148e+01	9.97080143967607e-01,-5.39837159168334e-02
3.48220225318452e+01	9.97039504844715e-01,-5.43569889910687e-02
3.50642288526416e+01	9.96998301799722e-01,-5.47328120626813e-02
3.53081198516264e+01	9.96956527055132e-01,-5.51112019014894e-02
3.55537072466630e+01	9.96914172727521e-01,-5.54921753738680e-02
3.58010028371191e+01	9.96871230826130e-01,-5.58757494430066e-02
3.60500185044334e+01	9.96827693251441e-01,-5.62619411691600e-02
3.63007662126867e+01	9.96783551793740e-01,-5.66507677098924e-02
3.65532580091762e+01	9.96738798131655e-01,-5.70422463203146e-02
3.68075060249952e+01	9.96693423830680e-01,-5.74363943533133e-02
3.70635224756151e+01	9.96647420341682e-01,-5.78332292597738e-02
3.73213196614725e+01	9.96600778999385e-01,-5.82327685887940e-02
3.75809099685607e+01	9.96553491020838e-01,-5.86350299878914e-02
3.78423058690241e+01	9.96505547503866e-01,-5.90400312032008e-02
3.81055199217578e+01	9.96456939425495e-01,-5.94477900796647e-02
3.83705647730108e+01	9.96407657640366e-01,-5.98583245612140e-02
3.86374531569941e+01	9.96357692879127e-01,-6.02716526909398e-02
3.89061978964917e+01	9.96307035746798e-01,-6.06877926112570e-02
3.91768119034774e+01	9.96255676721128e-01,-6.11067625640570e-02
3.94493081797347e+01	9.96203606150924e-01,-6.15285808908515e-02
3.97236998174817e+01	9.96150814254359e-01,-6.19532660329058e-02
4.00000000000003e+01	9.96097291117267e-01,-6.23808365313620e-02
4.02782220022691e+01	9.96043026691406e-01,-6.28113110273514e-02
4.05583791916015e+01	9.95988010792714e-01,-6.32447082620959e-02
4.08404850282880e+01	9.95932233099531e-01,-6.36810470769985e-02
4.11245530662430e+01	9.95875683150802e-01,-6.41203464137214e-02
4.14105969536554e+01	9.95818350344273e-01,-6.45626253142535e-02
4.16986304336452e+01	9.95760223934639e-01,-6.50079029209643e-02
4.19886673449230e+01	9.95701293031696e-01,-6.54561984766462e-02
4.22807216224556e+01	9.95641546598452e-01,-6.59075313245436e-02
4.25748072981347e+01	9.95580973449228e-01,-6.63619209083686e-02
4.28709385014521e+01	9.95519562247729e-01,-6.68193867723036e-02
4.31691294601774e+01	9.95457301505094e-01,-6.72799485609895e-02
4.34693945010427e+01	9.95394179577925e-01,-6.77436260194996e-02
4.37717480504299e+01	9.95330184666292e-01,-6.82104389932993e-02
4.40762046350648e+01	9.95265304811712e-01,-6.86804074281901e-02
4.43827788827142e+01	9.95199527895107e-01,-6.91535513702386e-02
4.46914855228892e+01	9.95132841634741e-01,-6.96298909656894e-02
4.50023393875528e+01	9.95065233584123e-01,-7.01094464608619e-02
4.53153554118323e+01	9.94996691129898e-01,-7.05922382020305e-02
4.56305486347374e+01	9.94927201489704e-01,-7.10782866352872e-02
4.59479341998818e+01	9.94856751710010e-01,-7.15676123063874e-02
4.62675273562119e+01	9.94785328663927e-01,-7.20602358605773e-02
4.65893434587387e+01	9.94712919048996e-01,-7.25561780424028e-02
4.69133979692756e+01	9.94639509384946e-01,-7.30554596955001e-02
4.72397064571817e+01	9.94565086011430e-01,-7.35581017623663e-02
4.75682846001093e+01	9.94489635085736e-01,-7.40641252841101e-02
4.78991481847576e+01	9.94413142580472e-01,-7.45735514001838e-02
4.82323131076309e+01	9.94335594281221e-01,-7.50864013480921e-02
4.85677953758023e+01	9.94256975784176e-01,-7.56026964630812e-02
4.89056111076832e+01	9.94177272493742e-01,-7.61224581778063e-02
4.92457765337971e+01	9.94096469620118e-01,-7.66457080219756e-02
4.95883079975600e+01	9.94014552176845e-01,-7.71724676219723e-02
4.99332219560650e+01	9.93931504978335e-01,-7.77027587004530e-02
5.02805349808736e+01	9.93847312637366e-01,-7.82366030759225e-02
5.06302637588117e+01	9.93761959562552e-01,-7.87740226622833e-02
5.09824250927710e+01	9.93675429955786e-01,-7.93150394683606e-02
5.13370359025167e+01	9.93587707809658e-01,-7.98596755974020e-02
5.16941132255002e+01	9.93498776904838e-01,-8.04079532465500e-02
5.20536742176779e+01	9.93408620807435e-01,-8.09598947062886e-02
5.24157361543351e+01	9.93317222866332e-01,-8.15155223598614e-02
5.27803164309163e+01	9.93224566210484e-01,-8.20748586826631e-02
5.31474325638610e+01	9.93130633746193e-01,-8.26379262416002e-02
5.35171021914451e+01	9.93035408154354e-01,-8.32047476944247e-02
5.38893430746282e+01	9.92938871887671e-01,-8.37753457890357e-02
5.42641730979075e+01	9.92841007167843e-01,-8.43497433627513e-02
5.46416102701764e+01	9.92741795982722e-01,-8.49279633415490e-02
5.50216727255904e+01	9.92641220083442e-01,-8.55100287392741e-02
5.54043787244376e+01	9.92539260981521e-01,-8.60959626568144e-02
5.57897466540169e+01	9.92435899945926e-01,-8.66857882812427e-02
5.61777950295205e+01	9.92331118000114e-01,-8.72795288849239e-02
5.65685424949245e+01	9.92224895919045e-01,-8.78772078245879e-02
5.69620078238835e+01	9.92117214226160e-01,-8.84788485403659e-02
5.73582099206338e+01	9.92008053190329e-01,-8.90844745547906e-02
5.77571678209005e+01	9.91897392822778e-01,-8.96941094717594e-02
5.81589006928131e+01	9.91785212873971e-01,-9.03077769754585e-02
5.85634278378257e+01	9.91671492830474e-01,-9.09255008292485e-02
5.89707686916448e+01	9.91556211911781e-01,-9.15473048745107e-02
5.93809428251627e+01	9.91439349067117e-01,-9.21732130294516e-02
5.97939699453983e+01	9.91320882972202e-01,-9.28032492878671e-02
6.02098698964434e+01	9.91200792025993e-01,-9.34374377178630e-02
6.06286626604167e+01	9.91079054347384e-01,-9.40758024605338e-02
6.10503683584231e+01	9.90955647771888e-01,-9.47183677285953e-02
6.14750072515213e+01	9.90830549848284e-01,-9.53651578049743e-02
6.19025997416964e+01	9.90703737835226e-01,-9.60161970413506e-02
6.23331663728408e+01	9.90575188697829e-01,-9.66715098566522e-02
6.27667278317409e+01	9.90444879104226e-01,-9.73311207355036e-02
6.32033049490710e+01	9.90312785422089e-01,-9.79950542266240e-02
6.36429187003943e+01	9.90178883715120e-01,-9.86633349411762e-02
6.40855902071706e+01	9.90043149739510e-01,-9.93359875510638e-02
6.45313407377709e+01	9.89905558940377e-01,-1.00013036787178e-01
6.49801917084997e+01	9.89766086448160e-01,-1.00694507437588e-01
6.54321646846233e+01	9.89624707074993e-01,-1.01380424345684e-01
6.58872813814067e+01	9.89481395311041e-01,-1.02070812408256e-01
6.63455636651562e+01	9.89336125320814e-01,-1.02765696573522e-01
6.68070335542704e+01	9.89188870939440e-01,-1.03465101839100e-01
6.72717132202981e+01	9.89039605668920e-01,-1.04169053249918e-01
6.77396249890031e+01	9.88888302674343e-01,-1.04877575896065e-01
6.82107913414375e+01	9.88734934780080e-01,-1.05590694910582e-01
6.86852349150212e+01	9.88579474465939e-01,-1.06308435467192e-01
6.91629785046302e+01	9.88421893863299e-01,-1.07030822777962e-01
6.96440450636909e+01	9.88262164751213e-01,-1.07757882090911e-01
7.01284577052838e+01	9.88100258552474e-01,-1.08489638687537e-01
7.06162397032534e+01	9.87936146329667e-01,-1.09226117880294e-01
7.11074144933266e+01	9.87769798781181e-01,-1.09967345009985e-01
7.16020056742388e+01	9.87601186237196e-01,-1.10713345443099e-01
7.21000370088674e+01	9.87430278655644e-01,-1.11464144569067e-01
7.26015324253739e+01	9.87257045618140e-01,-1.12219767797454e-01
7.31065160183531e+01	9.87081456325888e-01,-1.12980240555070e-01
7.36150120499911e+01	9.86903479595562e-01,-1.13745588283012e-01
7.41270449512307e+01	9.86723083855153e-01,-1.14515836433627e-01
7.46426393229457e+01	9.86540237139801e-01,-1.15291010467402e-01
7.51618199371220e+01	9.86354907087588e-01,-1.16071135849764e-01
7.56846117380488e+01	9.86167060935323e-01,-1.16856238047815e-01
7.62110398435161e+01	9.85976665514288e-01,-1.17646342526970e-01
7.67411295460223e+01	9.85783687245962e-01,-1.18441474747525e-01
7.72749063139888e+01	9.85588092137733e-01,-1.19241660161130e-01
7.78123957929840e+01	9.85389845778572e-01,-1.20046924207181e-01
7.83536238069553e+01	9.85188913334695e-01,-1.20857292309123e-01
7.88986163594699e+01	9.84985259545199e-01,-1.21672789870664e-01
7.94473996349641e+01	9.84778848717677e-01,-1.22493442271897e-01
8.00000000000012e+01	9.84569644723816e-01,-1.23319274865330e-01
8.05564440045387e+01	9.84357610994970e-01,-1.24150312971823e-01
8.11167583832036e+01	9.84142710517721e-01,-1.24986581876428e-01
8.16809700565767e+01	9.83924905829416e-01,-1.25828106824134e-01
8.22491061324866e+01	9.83704159013689e-01,-1.26674913015506e-01
8.28211939073115e+01	9.83480431695967e-01,-1.27527025602236e-01
8.33972608672910e+01	9.83253685038964e-01,-1.28384469682578e-01
8.39773346898467e+01	9.83023879738150e-01,-1.29247270296687e-01
8.45614432449118e+01	9.82790976017222e-01,-1.30115452421854e-01
8.51496145962701e+01	9.82554933623546e-01,-1.30989040967626e-01
8.57418770029048e+01	9.82315711823601e-01,-1.31868060770824e-01
8.63382589203556e+01	9.82073269398406e-01,-1.32752536590444e-01
8.69387890020860e+01	9.81827564638938e-01,-1.33642493102453e-01
8.75434961008606e+01	9.81578555341545e-01,-1.34537954894461e-01
8.81524092701303e+01	9.81326198803350e-01,-1.35438946460285e-01
8.87655577654290e+01	9.81070451817648e-01,-1.36345492194391e-01
8.93829710457790e+01	9.80811270669304e-01,-1.37257616386218e-01
9.00046787751062e+01	9.80548611130143e-01,-1.38175343214374e-01
9.06307108236654e+01	9.80282428454341e-01,-1.39098696740720e-01
9.12610972694754e+01	9.80012677373819e-01,-1.40027700904316e-01
9.18958683997643e+01	9.79739312093629e-01,-1.40962379515252e-01
9.25350547124245e+01	9.79462286287355e-01,-1.41902756248335e-01
9.31786869174780e+01	9.79181553092512e-01,-1.42848854636661e-01
9.38267959385519e+01	9.78897065105955e-01,-1.43800698065040e-01
9.44794129143640e+01	9.78608774379289e-01,-1.44758309763297e-01
9.51365692002193e+01	9.78316632414303e-01,-1.45721712799427e-01
9.57982963695159e+01	9.78020590158398e-01,-1.46690930072619e-01
9.64646262152625e+01	9.77720598000046e-01,-1.47665984306132e-01
9.71355907516054e+01	9.77416605764253e-01,-1.48646898040035e-01
9.78112222153672e+01	9.77108562708045e-01,-1.49633693623798e-01
9.84915530675950e+01	9.76796417515973e-01,-1.50626393208735e-01
9.91766159951206e+01	9.76480118295641e-01,-1.51625018740307e-01
9.98664439121307e+01	9.76159612573257e-01,-1.52629591950263e-01
1.00561069961748e+02	9.75834847289210e-01,-1.53640134348635e-01
1.01260527517624e+02	9.75505768793681e-01,-1.54656667215582e-01
1.01964850185543e+02	9.75172322842277e-01,-1.55679211593065e-01
1.02674071805034e+02	9.74834454591709e-01,-1.56707788276380e-01
1.03388226451001e+02	9.74492108595497e-01,-1.57742417805517e-01
1.04107348435357e+02	9.74145228799723e-01,-1.58783120456366e-01
1.04831472308671e+02	9.73793758538820e-01,-1.59829916231750e-01
1.05560632861833e+02	9.73437640531408e-01,-1.60882824852302e-01
1.06294865127723e+02	9.73076816876179e-01,-1.61941865747167e-01
1.07034204382891e+02	9.72711229047828e-01,-1.63007058044536e-01
1.07778686149257e+02	9.72340817893046e-01,-1.64078420562005e-01
1.08528346195816e+02	9.71965523626563e-01,-1.65155971796768e-01
1.09283220540354e+02	9.71585285827255e-01,-1.66239729915629e-01
1.10043345451182e+02	9.71200043434309e-01,-1.67329712744833e-01
1.10808757448876e+02	9.70809734743464e-01,-1.68425937759728e-01
1.11579493308035e+02	9.70414297403315e-01,-1.69528422074234e-01
1.12355590059042e+02	9.70013668411696e-01,-1.70637182430140e-01
1.13137084989850e+02	9.69607784112132e-01,-1.71752235186209e-01
1.13924015647768e+02	9.69196580190387e-01,-1.72873596307099e-01
1.14716419841268e+02	9.68779991671084e-01,-1.74001281352096e-01
1.15514335641802e+02	9.68357952914419e-01,-1.75135305463660e-01
1.16317801385627e+02	9.67930397612972e-01,-1.76275683355772e-01
1.17126855675652e+02	9.67497258788608e-01,-1.77422429302099e-01
1.17941537383290e+02	9.67058468789490e-01,-1.78575557123954e-01
1.18761885650326e+02	9.66613959287184e-01,-1.79735080178066e-01
1.19587939890797e+02	9.66163661273890e-01,-1.80901011344153e-01
1.20419739792888e+02	9.65707505059777e-01,-1.82073363012290e-01
1.21257325320834e+02	9.65245420270443e-01,-1.83252147070088e-01
1.22100736716847e+02	9.64777335844496e-01,-1.84437374889658e-01
1.22950014503043e+02	9.64303180031270e-01,-1.85629057314382e-01
1.23805199483394e+02	9.63822880388668e-01,-1.86827204645476e-01
1.24666332745682e+02	9.63336363781154e-01,-1.88031826628349e-01
1.25533455663483e+02	9.62843556377877e-01,-1.89242932438756e-01
1.26406609898143e+02	9.62344383650959e-01,-1.90460530668742e-01
1.27285837400790e+02	9.61838770373929e-01,-1.91684629312382e-01
1.28171180414342e+02	9.61326640620318e-01,-1.92915235751307e-01
1.29062681475543e+02	9.60807917762428e-01,-1.94152356740021e-01
1.29960383417000e+02	9.60282524470266e-01,-1.95395998391016e-01
1.30864329369248e+02	9.59750382710659e-01,-1.96646166159664e-01
1.31774562762814e+02	9.59211413746554e-01,-1.97902864828902e-01
1.32691127330313e+02	9.58665538136508e-01,-1.99166098493712e-01
1.33614067108542e+02	9.58112675734371e-01,-2.00435870545378e-01
1.34543426440597e+02	9.57552745689178e-01,-2.01712183655540e-01
1.35479249978007e+02	9.56985666445246e-01,-2.02995039760026e-01
1.36421582682876e+02	9.56411355742489e-01,-2.04284440042482e-01
1.37370469830043e+02	9.55829730616955e-01,-2.05580384917786e-01
1.38325957009261e+02	9.55240707401587e-01,-2.06882874015242e-01
1.39288090127383e+02	9.54644201727234e-01,-2.08191906161577e-01
1.40256915410569e+02	9.54040128523889e-01,-2.09507479363717e-01
1.41232479406508e+02	9.53428402022191e-01,-2.10829590791354e-01
1.42214828986654e+02	9.52808935755172e-01,-2.12158236759307e-01
1.43204011348479e+02	9.52181642560281e-01,-2.13493412709670e-01
1.44200074017736e+02	9.51546434581675e-01,-2.14835113193760e-01
1.45203064850749e+02	9.50903223272787e-01,-2.16183331853850e-01
1.46213032036707e+02	9.50251919399189e-01,-2.17538061404700e-01
1.47230024099983e+02	9.49592433041742e-01,-2.18899293614892e-01
1.48254089902463e+02	9.48924673600058e-01,-2.20267019287955e-01
1.49285278645892e+02	9.48248549796271e-01,-2.21641228243293e-01
1.50323639874245e+02	9.47563969679121e-01,-2.23021909296920e-01
1.51369223476099e+02	9.46870840628374e-01,-2.24409050241997e-01
1.52422079687033e+02	9.46169069359578e-01,-2.25802637829176e-01
1.53482259092046e+02	9.45458561929157e-01,-2.27202657746755e-01
1.54549812627979e+02	9.44739223739863e-01,-2.28609094600652e-01
1.55624791585969e+02	9.44010959546590e-01,-2.30021931894189e-01
1.56707247613912e+02	9.43273673462556e-01,-2.31441152007696e-01
1.57797232718941e+02	9.42527268965867e-01,-2.32866736177947e-01
1.58894799269929e+02	9.41771648906466e-01,-2.34298664477416e-01
1.60000000000004e+02	9.41006715513479e-01,-2.35736915793369e-01
1.61112888009079e+02	9.40232370402972e-01,-2.37181467806787e-01
1.62233516766408e+02	9.39448514586116e-01,-2.38632296971139e-01
1.63361940113155e+02	9.38655048477781e-01,-2.40089378490992e-01
1.64498212264974e+02	9.37851871905562e-01,-2.41552686300480e-01
1.65642387814624e+02	9.37038884119249e-01,-2.43022193041620e-01
1.66794521734583e+02	9.36215983800745e-01,-2.44497870042503e-01
1.67954669379695e+02	9.35383069074450e-01,-2.45979687295338e-01
1.69122886489825e+02	9.34540037518113e-01,-2.47467613434385e-01
1.70299229192542e+02	9.33686786174166e-01,-2.48961615713761e-01
1.71483754005811e+02	9.32823211561545e-01,-2.50461659985137e-01
1.72676517840712e+02	9.31949209688014e-01,-2.51967710675328e-01
