Freq.	V(vout)
2.00000000000000e+01	4.98999752747870e-01,-5.00498250503870e-01
2.01391110011344e+01	4.95530637684524e-01,-5.00482749719806e-01
2.02791895958006e+01	4.92061904051813e-01,-5.00443206501442e-01
2.04202425141439e+01	4.88593885017893e-01,-5.00379630344011e-01
2.05622765331213e+01	4.85126913476377e-01,-5.00292036511042e-01
2.07052984768276e+01	4.81661321918587e-01,-5.00180446025420e-01
2.08493152168224e+01	4.78197442306145e-01,-5.00044885657077e-01
2.09943336724614e+01	4.74735605943988e-01,-4.99885387907336e-01
2.11403608112276e+01	4.71276143353917e-01,-4.99701990989906e-01
2.12874036490672e+01	4.67819384148791e-01,-4.99494738808578e-01
2.14354692507259e+01	4.64365656907455e-01,-4.99263680931613e-01
2.15845647300886e+01	4.60915289050501e-01,-4.99008872562881e-01
2.17346972505212e+01	4.57468606716979e-01,-4.98730374509753e-01
2.18858740252148e+01	4.54025934642136e-01,-4.98428253147810e-01
2.20381023175322e+01	4.50587596036286e-01,-4.98102580382378e-01
2.21913894413569e+01	4.47153912464918e-01,-4.97753433606953e-01
2.23457427614444e+01	4.43725203730110e-01,-4.97380895658550e-01
2.25011696937762e+01	4.40301787753367e-01,-4.96985054770028e-01
2.26576777059160e+01	4.36883980459955e-01,-4.96566004519432e-01
2.28152743173685e+01	4.33472095664825e-01,-4.96123843776420e-01
2.29739670999407e+01	4.30066444960210e-01,-4.95658676645825e-01
2.31337636781058e+01	4.26667337604982e-01,-4.95170612408405e-01
2.32946717293691e+01	4.23275080415843e-01,-4.94659765458857e-01
2.34566989846376e+01	4.19889977660440e-01,-4.94126255241147e-01
2.36198532285906e+01	4.16512330952457e-01,-4.93570206181231e-01
2.37841423000545e+01	4.13142439148791e-01,-4.92991747617230e-01
2.39495740923786e+01	4.09780598248844e-01,-4.92391013727144e-01
2.41161565538152e+01	4.06427101296032e-01,-4.91768143454155e-01
2.42838976879010e+01	4.03082238281556e-01,-4.91123280429628e-01
2.44528055538414e+01	3.99746296050496e-01,-4.90456572893853e-01
2.46228882668984e+01	3.96419558210304e-01,-4.89768173614637e-01
2.47941539987798e+01	3.93102305041731e-01,-4.89058239803806e-01
2.49666109780323e+01	3.89794813412254e-01,-4.88326933031719e-01
2.51402674904366e+01	3.86497356692048e-01,-4.87574419139854e-01
2.53151318794057e+01	3.83210204672547e-01,-4.86800868151581e-01
2.54912125463853e+01	3.79933623487643e-01,-4.86006454181183e-01
2.56685179512581e+01	3.76667875537559e-01,-4.85191355341225e-01
2.58470566127499e+01	3.73413219415430e-01,-4.84355753648364e-01
2.60268371088387e+01	3.70169909836632e-01,-4.83499834927675e-01
2.62078680771673e+01	3.66938197570883e-01,-4.82623788715593e-01
2.63901582154580e+01	3.63718329377150e-01,-4.81727808161565e-01
2.65737162819303e+01	3.60510547941372e-01,-4.80812089928491e-01
2.67585510957223e+01	3.57315091817040e-01,-4.79876834092054e-01
2.69446715373139e+01	3.54132195368629e-01,-4.78922244039024e-01
2.71320865489535e+01	3.50962088717915e-01,-4.77948526364639e-01
2.73208051350880e+01	3.47804997693173e-01,-4.76955890769134e-01
2.75108363627950e+01	3.44661143781269e-01,-4.75944549953531e-01
2.77021893622186e+01	3.41530744082658e-01,-4.74914719514761e-01
2.78948733270082e+01	3.38414011269279e-01,-4.73866617840219e-01
2.80888975147600e+01	3.35311153545341e-01,-4.72800466001844e-01
2.82842712474620e+01	3.32222374611019e-01,-4.71716487649796e-01
2.84810039119415e+01	3.29147873629018e-01,-4.70614908905840e-01
2.86791049603166e+01	3.26087845194033e-01,-4.69495958256504e-01
2.88785839104500e+01	3.23042479305050e-01,-4.68359866446105e-01
2.90794503464063e+01	3.20011961340513e-01,-4.67206866369736e-01
2.92817139189126e+01	3.16996472036304e-01,-4.66037192966282e-01
2.94853843458221e+01	3.13996187466542e-01,-4.64851083111549e-01
2.96904714125811e+01	3.11011279027153e-01,-4.63648775511605e-01
2.98969849726989e+01	3.08041913422202e-01,-4.62430510596387e-01
3.01049349482215e+01	3.05088252652956e-01,-4.61196530413668e-01
3.03143313302081e+01	3.02150454009633e-01,-4.59947078523453e-01
3.05251841792113e+01	2.99228670065822e-01,-4.58682399892885e-01
3.07375036257604e+01	2.96323048675533e-01,-4.57402740791720e-01
3.09512998708479e+01	2.93433732972824e-01,-4.56108348688463e-01
3.11665831864201e+01	2.90560861373993e-01,-4.54799472147208e-01
3.13833639158702e+01	2.87704567582271e-01,-4.53476360725275e-01
3.16016524745352e+01	2.84864980594984e-01,-4.52139264871683e-01
3.18214593501969e+01	2.82042224713134e-01,-4.50788435826546e-01
3.20427951035850e+01	2.79236419553359e-01,-4.49424125521438e-01
3.22656703688852e+01	2.76447680062215e-01,-4.48046586480787e-01
3.24900958542496e+01	2.73676116532738e-01,-4.46656071724359e-01
3.27160823423114e+01	2.70921834623236e-01,-4.45252834670885e-01
3.29436406907031e+01	2.68184935378248e-01,-4.43837129042881e-01
3.31727818325778e+01	2.65465515251637e-01,-4.42409208772716e-01
3.34035167771350e+01	2.62763666131737e-01,-4.40969327909968e-01
3.36358566101488e+01	2.60079475368527e-01,-4.39517740530121e-01
3.38698124945013e+01	2.57413025802751e-01,-4.38054700644643e-01
3.41053956707185e+01	2.54764395796945e-01,-4.36580462112485e-01
3.43426174575103e+01	2.52133659268306e-01,-4.35095278553045e-01
3.45814892523148e+01	2.49520885723344e-01,-4.33599403260627e-01
3.48220225318452e+01	2.46926140294263e-01,-4.32093089120432e-01
3.50642288526416e+01	2.44349483777013e-01,-4.30576588526118e-01
3.53081198516264e+01	2.41790972670942e-01,-4.29050153298951e-01
3.55537072466630e+01	2.39250659220007e-01,-4.27514034608579e-01
3.58010028371191e+01	2.36728591455470e-01,-4.25968482895458e-01
3.60500185044334e+01	2.34224813240026e-01,-4.24413747794942e-01
3.63007662126867e+01	2.31739364313298e-01,-4.22850078063079e-01
3.65532580091762e+01	2.29272280338647e-01,-4.21277721504104e-01
3.68075060249952e+01	2.26823592951229e-01,-4.19696924899675e-01
3.70635224756151e+01	2.24393329807250e-01,-4.18107933939849e-01
3.73213196614725e+01	2.21981514634343e-01,-4.16510993155812e-01
3.75809099685607e+01	2.19588167283032e-01,-4.14906345854390e-01
3.78423058690241e+01	2.17213303779200e-01,-4.13294234054324e-01
3.81055199217578e+01	2.14856936377517e-01,-4.11674898424345e-01
3.83705647730108e+01	2.12519073615776e-01,-4.10048578223035e-01
3.86374531569941e+01	2.10199720370058e-01,-4.08415511240482e-01
3.89061978964917e+01	2.07898877910697e-01,-4.06775933741735e-01
3.91768119034774e+01	2.05616543958966e-01,-4.05130080412061e-01
3.94493081797347e+01	2.03352712744441e-01,-4.03478184303993e-01
3.97236998174817e+01	2.01107375062994e-01,-4.01820476786178e-01
4.00000000000003e+01	1.98880518335344e-01,-4.00157187494008e-01
4.02782220022691e+01	1.96672126666129e-01,-3.98488544282039e-01
4.05583791916015e+01	1.94482180903444e-01,-3.96814773178190e-01
4.08404850282880e+01	1.92310658698784e-01,-3.95136098339699e-01
4.11245530662430e+01	1.90157534567360e-01,-3.93452742010848e-01
4.14105969536554e+01	1.88022779948722e-01,-3.91764924482426e-01
4.16986304336452e+01	1.85906363267654e-01,-3.90072864052927e-01
4.19886673449230e+01	1.83808249995282e-01,-3.88376776991465e-01
4.22807216224556e+01	1.81728402710363e-01,-3.86676877502401e-01
4.25748072981347e+01	1.79666781160699e-01,-3.84973377691643e-01
4.28709385014521e+01	1.77623342324633e-01,-3.83266487534633e-01
4.31691294601774e+01	1.75598040472595e-01,-3.81556414845972e-01
4.34693945010427e+01	1.73590827228644e-01,-3.79843365250684e-01
4.37717480504299e+01	1.71601651631971e-01,-3.78127542157094e-01
4.40762046350648e+01	1.69630460198328e-01,-3.76409146731293e-01
4.43827788827142e+01	1.67677196981332e-01,-3.74688377873174e-01
4.46914855228892e+01	1.65741803633626e-01,-3.72965432194018e-01
4.50023393875528e+01	1.63824219467842e-01,-3.71240503995602e-01
4.53153554118323e+01	1.61924381517345e-01,-3.69513785250801e-01
4.56305486347374e+01	1.60042224596722e-01,-3.67785465585680e-01
4.59479341998818e+01	1.58177681361972e-01,-3.66055732263018e-01
4.62675273562119e+01	1.56330682370388e-01,-3.64324770167272e-01
4.65893434587387e+01	1.54501156140081e-01,-3.62592761790928e-01
4.69133979692756e+01	1.52689029209124e-01,-3.60859887222234e-01
4.72397064571817e+01	1.50894226194293e-01,-3.59126324134273e-01
4.75682846001093e+01	1.49116669849376e-01,-3.57392247775348e-01
4.78991481847576e+01	1.47356281123017e-01,-3.55657830960672e-01
4.82323131076309e+01	1.45612979216082e-01,-3.53923244065307e-01
4.85677953758023e+01	1.43886681638518e-01,-3.52188655018341e-01
4.89056111076832e+01	1.42177304265684e-01,-3.50454229298279e-01
4.92457765337971e+01	1.40484761394130e-01,-3.48720129929598e-01
4.95883079975600e+01	1.38808965796814e-01,-3.46986517480463e-01
4.99332219560650e+01	1.37149828777724e-01,-3.45253550061560e-01
5.02805349808736e+01	1.35507260225898e-01,-3.43521383326014e-01
5.06302637588117e+01	1.33881168668823e-01,-3.41790170470387e-01
5.09824250927710e+01	1.32271461325190e-01,-3.40060062236690e-01
5.13370359025167e+01	1.30678044157007e-01,-3.38331206915418e-01
5.16941132255002e+01	1.29100821921034e-01,-3.36603750349554e-01
5.20536742176779e+01	1.27539698219546e-01,-3.34877835939522e-01
5.24157361543351e+01	1.25994575550401e-01,-3.33153604649065e-01
5.27803164309163e+01	1.24465355356407e-01,-3.31431195012014e-01
5.31474325638610e+01	1.22951938073981e-01,-3.29710743139916e-01
5.35171021914451e+01	1.21454223181076e-01,-3.27992382730505e-01
5.38893430746282e+01	1.19972109244388e-01,-3.26276245076983e-01
5.42641730979075e+01	1.18505493965820e-01,-3.24562459078075e-01
5.46416102701764e+01	1.17054274228204e-01,-3.22851151248844e-01
5.50216727255904e+01	1.15618346140274e-01,-3.21142445732234e-01
5.54043787244376e+01	1.14197605080876e-01,-3.19436464311308e-01
5.57897466540169e+01	1.12791945742431e-01,-3.17733326422169e-01
5.61777950295205e+01	1.11401262173621e-01,-3.16033149167524e-01
5.65685424949245e+01	1.10025447821316e-01,-3.14336047330869e-01
5.69620078238835e+01	1.08664395571734e-01,-3.12642133391278e-01
5.73582099206338e+01	1.07317997790819e-01,-3.10951517538760e-01
5.77571678209005e+01	1.05986146363862e-01,-3.09264307690165e-01
5.81589006928131e+01	1.04668732734337e-01,-3.07580609505615e-01
5.85634278378257e+01	1.03365647941975e-01,-3.05900526405432e-01
5.89707686916448e+01	1.02076782660056e-01,-3.04224159587549e-01
5.93809428251627e+01	1.00802027231940e-01,-3.02551608045364e-01
5.97939699453983e+01	9.95412717068251e-02,-3.00882968586037e-01
6.02098698964434e+01	9.82944058747388e-02,-2.99218335849187e-01
6.06286626604167e+01	9.70613193007682e-02,-2.97557802325977e-01
6.10503683584231e+01	9.58419013585286e-02,-2.95901458378571e-01
6.14750072515213e+01	9.46360412628750e-02,-2.94249392259927e-01
6.19025997416964e+01	9.34436281018620e-02,-2.92601690133922e-01
6.23331663728408e+01	9.22645508679551e-02,-2.90958436095773e-01
6.27667278317409e+01	9.10986984884992e-02,-2.89319712192751e-01
6.32033049490710e+01	8.99459598554489e-02,-2.87685598445155e-01
6.36429187003943e+01	8.88062238543662e-02,-2.86056172867531e-01
6.40855902071706e+01	8.76793793926925e-02,-2.84431511490130e-01
6.45313407377709e+01	8.65653154273000e-02,-2.82811688380560e-01
6.49801917084997e+01	8.54639209913290e-02,-2.81196775665646e-01
6.54321646846233e+01	8.43750852203193e-02,-2.79586843553461e-01
6.58872813814067e+01	8.32986973776411e-02,-2.77981960355512e-01
6.63455636651562e+01	8.22346468792340e-02,-2.76382192509077e-01
6.68070335542704e+01	8.11828233176605e-02,-2.74787604599665e-01
6.72717132202981e+01	8.01431164854827e-02,-2.73198259383592e-01
6.77396249890031e+01	7.91154163979702e-02,-2.71614217810654e-01
6.82107913414375e+01	7.80996133151467e-02,-2.70035539046882e-01
6.86852349150212e+01	7.70955977631836e-02,-2.68462280497369e-01
6.91629785046302e+01	7.61032605551498e-02,-2.66894497829153e-01
6.96440450636909e+01	7.51224928111265e-02,-2.65332244994144e-01
7.01284577052838e+01	7.41531859776939e-02,-2.63775574252076e-01
7.06162397032534e+01	7.31952318468015e-02,-2.62224536193488e-01
7.11074144933266e+01	7.22485225740283e-02,-2.60679179762698e-01
7.16020056742388e+01	7.13129506962442e-02,-2.59139552280787e-01
7.21000370088674e+01	7.03884091486800e-02,-2.57605699468552e-01
7.26015324253739e+01	6.94747912814167e-02,-2.56077665469445e-01
7.31065160183531e+01	6.85719908753018e-02,-2.54555492872465e-01
7.36150120499911e+01	6.76799021573044e-02,-2.53039222735010e-01
7.41270449512307e+01	6.67984198153154e-02,-2.51528894605667e-01
7.46426393229457e+01	6.59274390124053e-02,-2.50024546546941e-01
7.51618199371220e+01	6.50668554005468e-02,-2.48526215157908e-01
7.56846117380488e+01	6.42165651338124e-02,-2.47033935596782e-01
7.62110398435161e+01	6.33764648810574e-02,-2.45547741603392e-01
7.67411295460223e+01	6.25464518380966e-02,-2.44067665521563e-01
7.72749063139888e+01	6.17264237393846e-02,-2.42593738321387e-01
7.78123957929840e+01	6.09162788692087e-02,-2.41125989621383e-01
7.83536238069553e+01	6.01159160724059e-02,-2.39664447710530e-01
7.88986163594699e+01	5.93252347646099e-02,-2.38209139570183e-01
7.94473996349641e+01	5.85441349420408e-02,-2.36760090895846e-01
8.00000000000012e+01	5.77725171908449e-02,-2.35317326118811e-01
8.05564440045387e+01	5.70102826959949e-02,-2.33880868427650e-01
8.11167583832036e+01	5.62573332497589e-02,-2.32450739789559e-01
8.16809700565767e+01	5.55135712597482e-02,-2.31026960971541e-01
8.22491061324866e+01	5.47788997565525e-02,-2.29609551561437e-01
8.28211939073115e+01	5.40532224009714e-02,-2.28198529988781e-01
8.33972608672910e+01	5.33364434908526e-02,-2.26793913545500e-01
8.39773346898467e+01	5.26284679675431e-02,-2.25395718406424e-01
8.45614432449118e+01	5.19292014219651e-02,-2.24003959649635e-01
8.51496145962701e+01	5.12385501003233e-02,-2.22618651276623e-01
8.57418770029048e+01	5.05564209094530e-02,-2.21239806232265e-01
8.63382589203556e+01	4.98827214218181e-02,-2.19867436424613e-01
8.69387890020860e+01	4.92173598801662e-02,-2.18501552744497e-01
8.75434961008606e+01	4.85602452018506e-02,-2.17142165084925e-01
8.81524092701303e+01	4.79112869828262e-02,-2.15789282360301e-01
8.87655577654290e+01	4.72703955013287e-02,-2.14442912525434e-01
8.93829710457790e+01	4.66374817212446e-02,-2.13103062594353e-01
9.00046787751062e+01	4.60124572951791e-02,-2.11769738658919e-01
9.06307108236654e+01	4.53952345672318e-02,-2.10442945907234e-01
9.12610972694754e+01	4.47857265754865e-02,-2.09122688641844e-01
9.18958683997643e+01	4.41838470542226e-02,-2.07808970297736e-01
9.25350547124245e+01	4.35895104358567e-02,-2.06501793460126e-01
9.31786869174780e+01	4.30026318526212e-02,-2.05201159882043e-01
9.38267959385519e+01	4.24231271379874e-02,-2.03907070501696e-01
9.44794129143640e+01	4.18509128278399e-02,-2.02619525459638e-01
9.51365692002193e+01	4.12859061614102e-02,-2.01338524115712e-01
9.57982963695159e+01	4.07280250819756e-02,-2.00064065065791e-01
9.64646262152625e+01	4.01771882373314e-02,-1.98796146158304e-01
9.71355907516054e+01	3.96333149800414e-02,-1.97534764510546e-01
9.78112222153672e+01	3.90963253674757e-02,-1.96279916524783e-01
9.84915530675950e+01	3.85661401616400e-02,-1.95031597904139e-01
9.91766159951206e+01	3.80426808288043e-02,-1.93789803668273e-01
9.98664439121307e+01	3.75258695389370e-02,-1.92554528168843e-01
1.00561069961748e+02	3.70156291649500e-02,-1.91325765104758e-01
1.01260527517624e+02	3.65118832817617e-02,-1.90103507537224e-01
1.01964850185543e+02	3.60145561651835e-02,-1.88887747904566e-01
1.02674071805034e+02	3.55235727906350e-02,-1.87678478036858e-01
1.03388226451001e+02	3.50388588316950e-02,-1.86475689170328e-01
1.04107348435357e+02	3.45603406584924e-02,-1.85279371961562e-01
1.04831472308671e+02	3.40879453359441e-02,-1.84089516501500e-01
1.05560632861833e+02	3.36216006218437e-02,-1.82906112329221e-01
1.06294865127723e+02	3.31612349648068e-02,-1.81729148445528e-01
1.07034204382891e+02	3.27067775020797e-02,-1.80558613326323e-01
1.07778686149257e+02	3.22581580572130e-02,-1.79394494935780e-01
1.08528346195816e+02	3.18153071376091e-02,-1.78236780739319e-01
1.09283220540354e+02	3.13781559319455e-02,-1.77085457716371e-01
1.10043345451182e+02	3.09466363074798e-02,-1.75940512372954e-01
1.10808757448876e+02	3.05206808072411e-02,-1.74801930754038e-01
1.11579493308035e+02	3.01002226471121e-02,-1.73669698455726e-01
1.12355590059042e+02	2.96851957128059e-02,-1.72543800637228e-01
1.13137084989850e+02	2.92755345567431e-02,-1.71424222032648e-01
1.13924015647768e+02	2.88711743948320e-02,-1.70310946962578e-01
1.14716419841268e+02	2.84720511031565e-02,-1.69203959345494e-01
1.15514335641802e+02	2.80781012145765e-02,-1.68103242708978e-01
1.16317801385627e+02	2.76892619152436e-02,-1.67008780200732e-01
1.17126855675652e+02	2.73054710410365e-02,-1.65920554599424e-01
1.17941537383290e+02	2.69266670739196e-02,-1.64838548325343e-01
1.18761885650326e+02	2.65527891382293e-02,-1.63762743450866e-01
1.19587939890797e+02	2.61837769968900e-02,-1.62693121710756e-01
1.20419739792888e+02	2.58195710475647e-02,-1.61629664512272e-01
1.21257325320834e+02	2.54601123187429e-02,-1.60572352945107e-01
1.22100736716847e+02	2.51053424657691e-02,-1.59521167791146e-01
1.22950014503043e+02	2.47552037668153e-02,-1.58476089534059e-01
1.23805199483394e+02	2.44096391188008e-02,-1.57437098368714e-01
1.24666332745682e+02	2.40685920332615e-02,-1.56404174210426e-01
1.25533455663483e+02	2.37320066321729e-02,-1.55377296704034e-01
1.26406609898143e+02	2.33998276437286e-02,-1.54356445232821e-01
1.27285837400790e+02	2.30720003980778e-02,-1.53341598927260e-01
1.28171180414342e+02	2.27484708230240e-02,-1.52332736673604e-01
1.29062681475543e+02	2.24291854396880e-02,-1.51329837122316e-01
1.29960383417000e+02	2.21140913581374e-02,-1.50332878696339e-01
1.30864329369248e+02	2.18031362729857e-02,-1.49341839599212e-01
1.31774562762814e+02	2.14962684589623e-02,-1.48356697823036e-01
1.32691127330313e+02	2.11934367664569e-02,-1.47377431156274e-01
1.33614067108542e+02	2.08945906170406e-02,-1.46404017191421e-01
1.34543426440597e+02	2.05996799989639e-02,-1.45436433332511e-01
1.35479249978007e+02	2.03086554626378e-02,-1.44474656802481e-01
1.36421582682876e+02	2.00214681160948e-02,-1.43518664650397e-01
1.37370469830043e+02	1.97380696204369e-02,-1.42568433758530e-01
1.38325957009261e+02	1.94584121852694e-02,-1.41623940849297e-01
1.39288090127383e+02	1.91824485641227e-02,-1.40685162492063e-01
1.40256915410569e+02	1.89101320498659e-02,-1.39752075109800e-01
1.41232479406508e+02	1.86414164701115e-02,-1.38824654985627e-01
1.42214828986654e+02	1.83762561826144e-02,-1.37902878269198e-01
1.43204011348479e+02	1.81146060706670e-02,-1.36986720982974e-01
1.44200074017736e+02	1.78564215384907e-02,-1.36076159028363e-01
1.45203064850749e+02	1.76016585066266e-02,-1.35171168191725e-01
1.46213032036707e+02	1.73502734073268e-02,-1.34271724150268e-01
1.47230024099983e+02	1.71022231799470e-02,-1.33377802477802e-01
1.48254089902463e+02	1.68574652663425e-02,-1.32489378650390e-01
1.49285278645892e+02	1.66159576062687e-02,-1.31606428051863e-01
1.50323639874245e+02	1.63776586327874e-02,-1.30728925979231e-01
1.51369223476099e+02	1.61425272676801e-02,-1.29856847647972e-01
1.52422079687033e+02	1.59105229168700e-02,-1.28990168197205e-01
1.53482259092046e+02	1.56816054658532e-02,-1.28128862694756e-01
1.54549812627979e+02	1.54557352751404e-02,-1.27272906142109e-01
1.55624791585969e+02	1.52328731757108e-02,-1.26422273479252e-01
1.56707247613912e+02	1.50129804644781e-02,-1.25576939589416e-01
1.57797232718941e+02	1.47960188997709e-02,-1.24736879303704e-01
1.58894799269929e+02	1.45819506968275e-02,-1.23902067405620e-01
1.60000000000004e+02	1.43707385233064e-02,-1.23072478635499e-01
1.61112888009079e+02	1.41623454948135e-02,-1.22248087694834e-01
1.62233516766408e+02	1.39567351704462e-02,-1.21428869250499e-01
1.63361940113155e+02	1.37538715483569e-02,-1.20614797938888e-01
1.64498212264974e+02	1.35537190613338e-02,-1.19805848369944e-01
1.65642387814624e+02	1.33562425724034e-02,-1.19001995131110e-01
1.66794521734583e+02	1.31614073704515e-02,-1.18203212791171e-01
1.67954669379695e+02	1.29691791658672e-02,-1.17409475904022e-01
1.69122886489825e+02	1.27795240862075e-02,-1.16620759012335e-01
1.70299229192542e+02	1.25924086718847e-02,-1.15837036651142e-01
1.71483754005811e+02	1.24077998718770e-02,-1.15058283351339e-01
1.72676517840712e+02	1.22256650394627e-02,-1.14284473643093e-01
