Freq.	V(vout)
1.00000000000000e-02	9.98495744934505e-01,-3.98865400993403e-05
1.00695555005672e-02	9.98495744912263e-01,-4.01639729246959e-05
1.01395947979003e-02	9.98495744889710e-01,-4.04433354479369e-05
1.02101212570719e-02	9.98495744866843e-01,-4.07246410911730e-05
1.02811382665607e-02	9.98495744843657e-01,-4.10079033698723e-05
1.03526492384138e-02	9.98495744820146e-01,-4.12931358935103e-05
1.04246576084112e-02	9.98495744796308e-01,-4.15803523662237e-05
1.04971668362307e-02	9.98495744772137e-01,-4.18695665874695e-05
1.05701804056138e-02	9.98495744747628e-01,-4.21607924526869e-05
1.06437018245336e-02	9.98495744722777e-01,-4.24540439539659e-05
1.07177346253629e-02	9.98495744697579e-01,-4.27493351807190e-05
1.07922823650443e-02	9.98495744672030e-01,-4.30466803203585e-05
1.08673486252606e-02	9.98495744646124e-01,-4.33460936589777e-05
1.09429370126074e-02	9.98495744619856e-01,-4.36475895820377e-05
1.10190511587661e-02	9.98495744593222e-01,-4.39511825750583e-05
1.10956947206785e-02	9.98495744566215e-01,-4.42568872243141e-05
1.11728713807222e-02	9.98495744538832e-01,-4.45647182175352e-05
1.12505848468881e-02	9.98495744511066e-01,-4.48746903446130e-05
1.13288388529580e-02	9.98495744482914e-01,-4.51868184983107e-05
1.14076371586843e-02	9.98495744454367e-01,-4.55011176749787e-05
1.14869835499704e-02	9.98495744425423e-01,-4.58176029752755e-05
1.15668818390529e-02	9.98495744396074e-01,-4.61362896048928e-05
1.16473358646846e-02	9.98495744366316e-01,-4.64571928752863e-05
1.17283494923188e-02	9.98495744336142e-01,-4.67803282044114e-05
1.18099266142953e-02	9.98495744305547e-01,-4.71057111174635e-05
1.18920711500272e-02	9.98495744274525e-01,-4.74333572476247e-05
1.19747870461893e-02	9.98495744243070e-01,-4.77632823368141e-05
1.20580782769076e-02	9.98495744211176e-01,-4.80955022364447e-05
1.21419488439505e-02	9.98495744178837e-01,-4.84300329081848e-05
1.22264027769207e-02	9.98495744146046e-01,-4.87668904247247e-05
1.23114441334492e-02	9.98495744112797e-01,-4.91060909705493e-05
1.23970769993899e-02	9.98495744079085e-01,-4.94476508427152e-05
1.24833054890162e-02	9.98495744044901e-01,-4.97915864516342e-05
1.25701337452183e-02	9.98495744010241e-01,-5.01379143218616e-05
1.26575659397028e-02	9.98495743975096e-01,-5.04866510928898e-05
1.27456062731927e-02	9.98495743939461e-01,-5.08378135199482e-05
1.28342589756291e-02	9.98495743903329e-01,-5.11914184748078e-05
1.29235283063750e-02	9.98495743866692e-01,-5.15474829465924e-05
1.30134185544194e-02	9.98495743829544e-01,-5.19060240425942e-05
1.31039340385837e-02	9.98495743791877e-01,-5.22670589890960e-05
1.31950791077290e-02	9.98495743753685e-01,-5.26306051321990e-05
1.32868581409652e-02	9.98495743714959e-01,-5.29966799386560e-05
1.33792755478612e-02	9.98495743675692e-01,-5.33653009967107e-05
1.34723357686569e-02	9.98495743635878e-01,-5.37364860169424e-05
1.35660432744768e-02	9.98495743595508e-01,-5.41102528331177e-05
1.36604025675440e-02	9.98495743554574e-01,-5.44866194030465e-05
1.37554181813975e-02	9.98495743513069e-01,-5.48656038094451e-05
1.38510946811093e-02	9.98495743470984e-01,-5.52472242608053e-05
1.39474366635041e-02	9.98495743428312e-01,-5.56314990922686e-05
1.40444487573800e-02	9.98495743385044e-01,-5.60184467665077e-05
1.41421356237310e-02	9.98495743341172e-01,-5.64080858746133e-05
1.42405019559708e-02	9.98495743296688e-01,-5.68004351369874e-05
1.43395524801583e-02	9.98495743251583e-01,-5.71955134042424e-05
1.44392919552250e-02	9.98495743205848e-01,-5.75933396581074e-05
1.45397251732032e-02	9.98495743159475e-01,-5.79939330123395e-05
1.46408569594563e-02	9.98495743112454e-01,-5.83973127136428e-05
1.47426921729111e-02	9.98495743064778e-01,-5.88034981425926e-05
1.48452357062906e-02	9.98495743016435e-01,-5.92125088145668e-05
1.49484924863495e-02	9.98495742967417e-01,-5.96243643806834e-05
1.50524674741107e-02	9.98495742917716e-01,-6.00390846287448e-05
1.51571656651041e-02	9.98495742867320e-01,-6.04566894841883e-05
1.52625920896057e-02	9.98495742816222e-01,-6.08771990110436e-05
1.53687518128802e-02	9.98495742764409e-01,-6.13006334128968e-05
1.54756499354240e-02	9.98495742711874e-01,-6.17270130338611e-05
1.55832915932101e-02	9.98495742658605e-01,-6.21563583595539e-05
1.56916819579351e-02	9.98495742604592e-01,-6.25886900180814e-05
1.58008262372676e-02	9.98495742549826e-01,-6.30240287810298e-05
1.59107296750985e-02	9.98495742494295e-01,-6.34623955644629e-05
1.60213975517925e-02	9.98495742437989e-01,-6.39038114299273e-05
1.61328351844426e-02	9.98495742380897e-01,-6.43482975854639e-05
1.62450479271248e-02	9.98495742323008e-01,-6.47958753866277e-05
1.63580411711557e-02	9.98495742264310e-01,-6.52465663375127e-05
1.64718203453516e-02	9.98495742204794e-01,-6.57003920917861e-05
1.65863909162889e-02	9.98495742144446e-01,-6.61573744537282e-05
1.67017583885675e-02	9.98495742083256e-01,-6.66175353792797e-05
1.68179283050744e-02	9.98495742021212e-01,-6.70808969770973e-05
1.69349062472506e-02	9.98495741958302e-01,-6.75474815096153e-05
1.70526978353592e-02	9.98495741894514e-01,-6.80173113941154e-05
1.71713087287552e-02	9.98495741829835e-01,-6.84904092038041e-05
1.72907446261574e-02	9.98495741764253e-01,-6.89667976688965e-05
1.74110112659226e-02	9.98495741697756e-01,-6.94464996777092e-05
1.75321144263208e-02	9.98495741630331e-01,-6.99295382777593e-05
1.76540599258132e-02	9.98495741561964e-01,-7.04159366768721e-05
1.77768536233315e-02	9.98495741492643e-01,-7.09057182442962e-05
1.79005014185596e-02	9.98495741422354e-01,-7.13989065118259e-05
1.80250092522167e-02	9.98495741351084e-01,-7.18955251749322e-05
1.81503831063433e-02	9.98495741278820e-01,-7.23955980939010e-05
1.82766290045881e-02	9.98495741205546e-01,-7.28991492949796e-05
1.84037530124976e-02	9.98495741131250e-01,-7.34062029715310e-05
1.85317612378075e-02	9.98495741055916e-01,-7.39167834851963e-05
1.86606598307363e-02	9.98495740979531e-01,-7.44309153670653e-05
1.87904549842804e-02	9.98495740902079e-01,-7.49486233188547e-05
1.89211529345121e-02	9.98495740823547e-01,-7.54699322140954e-05
1.90527599608789e-02	9.98495740743918e-01,-7.59948670993272e-05
1.91852823865054e-02	9.98495740663177e-01,-7.65234531953024e-05
1.93187265784971e-02	9.98495740581310e-01,-7.70557158981975e-05
1.94530989482459e-02	9.98495740498299e-01,-7.75916807808330e-05
1.95884059517387e-02	9.98495740414130e-01,-7.81313735939029e-05
1.97246540898673e-02	9.98495740328786e-01,-7.86748202672110e-05
1.98618499087409e-02	9.98495740242250e-01,-7.92220469109171e-05
2.00000000000002e-02	9.98495740154507e-01,-7.97730798167915e-05
2.01391110011345e-02	9.98495740065538e-01,-8.03279454594785e-05
2.02791895958007e-02	9.98495739975328e-01,-8.08866704977675e-05
2.04202425141440e-02	9.98495739883858e-01,-8.14492817758746e-05
2.05622765331215e-02	9.98495739791112e-01,-8.20158063247324e-05
2.07052984768277e-02	9.98495739697071e-01,-8.25862713632880e-05
2.08493152168226e-02	9.98495739601717e-01,-8.31607042998115e-05
2.09943336724615e-02	9.98495739505032e-01,-8.37391327332123e-05
2.11403608112278e-02	9.98495739406997e-01,-8.43215844543655e-05
2.12874036490674e-02	9.98495739307594e-01,-8.49080874474468e-05
2.14354692507260e-02	9.98495739206803e-01,-8.54986698912774e-05
2.15845647300887e-02	9.98495739104605e-01,-8.60933601606772e-05
2.17346972505213e-02	9.98495739000981e-01,-8.66921868278290e-05
2.18858740252150e-02	9.98495738895910e-01,-8.72951786636503e-05
2.20381023175324e-02	9.98495738789372e-01,-8.79023646391765e-05
2.21913894413571e-02	9.98495738681347e-01,-8.85137739269522e-05
2.23457427614446e-02	9.98495738571814e-01,-8.91294359024329e-05
2.25011696937764e-02	9.98495738460752e-01,-8.97493801453966e-05
2.26576777059162e-02	9.98495738348140e-01,-9.03736364413649e-05
2.28152743173687e-02	9.98495738233955e-01,-9.10022347830338e-05
2.29739670999409e-02	9.98495738118177e-01,-9.16352053717152e-05
2.31337636781060e-02	9.98495738000783e-01,-9.22725786187872e-05
2.32946717293693e-02	9.98495737881749e-01,-9.29143851471562e-05
2.34566989846378e-02	9.98495737761054e-01,-9.35606557927271e-05
2.36198532285908e-02	9.98495737638675e-01,-9.42114216058860e-05
2.37841423000546e-02	9.98495737514586e-01,-9.48667138529908e-05
2.39495740923788e-02	9.98495737388766e-01,-9.55265640178744e-05
2.41161565538154e-02	9.98495737261189e-01,-9.61910038033568e-05
2.42838976879012e-02	9.98495737131832e-01,-9.68600651327687e-05
2.44528055538416e-02	9.98495737000668e-01,-9.75337801514846e-05
2.46228882668986e-02	9.98495736867674e-01,-9.82121812284679e-05
2.47941539987800e-02	9.98495736732823e-01,-9.88953009578259e-05
2.49666109780325e-02	9.98495736596090e-01,-9.95831721603754e-05
2.51402674904368e-02	9.98495736457448e-01,-1.00275827885220e-04
2.53151318794058e-02	9.98495736316870e-01,-1.00973301411339e-04
2.54912125463855e-02	9.98495736174331e-01,-1.01675626249183e-04
2.56685179512583e-02	9.98495736029801e-01,-1.02382836142288e-04
2.58470566127501e-02	9.98495735883254e-01,-1.03094965068893e-04
2.60268371088389e-02	9.98495735734661e-01,-1.03812047243577e-04
2.62078680771675e-02	9.98495735583994e-01,-1.04534117118896e-04
2.63901582154582e-02	9.98495735431224e-01,-1.05261209387047e-04
2.65737162819305e-02	9.98495735276321e-01,-1.05993358981526e-04
2.67585510957225e-02	9.98495735119255e-01,-1.06730601078813e-04
2.69446715373141e-02	9.98495734959998e-01,-1.07472971100058e-04
2.71320865489537e-02	9.98495734798516e-01,-1.08220504712787e-04
2.73208051350882e-02	9.98495734634781e-01,-1.08973237832611e-04
2.75108363627952e-02	9.98495734468760e-01,-1.09731206624953e-04
2.77021893622188e-02	9.98495734300422e-01,-1.10494447506789e-04
2.78948733270084e-02	9.98495734129734e-01,-1.11262997148392e-04
2.80888975147602e-02	9.98495733956663e-01,-1.12036892475098e-04
2.82842712474622e-02	9.98495733781175e-01,-1.12816170669080e-04
2.84810039119417e-02	9.98495733603239e-01,-1.13600869171132e-04
2.86791049603169e-02	9.98495733422818e-01,-1.14391025682469e-04
2.88785839104502e-02	9.98495733239879e-01,-1.15186678166539e-04
2.90794503464065e-02	9.98495733054386e-01,-1.15987864850846e-04
2.92817139189128e-02	9.98495732866303e-01,-1.16794624228788e-04
2.94853843458224e-02	9.98495732675595e-01,-1.17606995061505e-04
2.96904714125813e-02	9.98495732482225e-01,-1.18425016379741e-04
2.98969849726991e-02	9.98495732286156e-01,-1.19248727485722e-04
3.01049349482217e-02	9.98495732087349e-01,-1.20078167955041e-04
3.03143313302083e-02	9.98495731885768e-01,-1.20913377638560e-04
3.05251841792115e-02	9.98495731681372e-01,-1.21754396664329e-04
3.07375036257606e-02	9.98495731474123e-01,-1.22601265439506e-04
3.09512998708482e-02	9.98495731263981e-01,-1.23454024652305e-04
3.11665831864204e-02	9.98495731050906e-01,-1.24312715273950e-04
3.13833639158704e-02	9.98495730834856e-01,-1.25177378560639e-04
3.16016524745355e-02	9.98495730615790e-01,-1.26048056055532e-04
3.18214593501971e-02	9.98495730393666e-01,-1.26924789590743e-04
3.20427951035853e-02	9.98495730168441e-01,-1.27807621289351e-04
3.22656703688854e-02	9.98495729940072e-01,-1.28696593567425e-04
3.24900958542498e-02	9.98495729708516e-01,-1.29591749136059e-04
3.27160823423116e-02	9.98495729473727e-01,-1.30493131003428e-04
3.29436406907033e-02	9.98495729235660e-01,-1.31400782476852e-04
3.31727818325781e-02	9.98495728994271e-01,-1.32314747164874e-04
3.34035167771352e-02	9.98495728749511e-01,-1.33235068979361e-04
3.36358566101490e-02	9.98495728501335e-01,-1.34161792137612e-04
3.38698124945015e-02	9.98495728249694e-01,-1.35094961164478e-04
3.41053956707187e-02	9.98495727994541e-01,-1.36034620894506e-04
3.43426174575106e-02	9.98495727735826e-01,-1.36980816474092e-04
3.45814892523151e-02	9.98495727473499e-01,-1.37933593363649e-04
3.48220225318454e-02	9.98495727207510e-01,-1.38892997339794e-04
3.50642288526419e-02	9.98495726937809e-01,-1.39859074497541e-04
3.53081198516267e-02	9.98495726664342e-01,-1.40831871252524e-04
3.55537072466633e-02	9.98495726387058e-01,-1.41811434343221e-04
3.58010028371194e-02	9.98495726105903e-01,-1.42797810833202e-04
3.60500185044337e-02	9.98495725820824e-01,-1.43791048113389e-04
3.63007662126869e-02	9.98495725531764e-01,-1.44791193904333e-04
3.65532580091765e-02	9.98495725238670e-01,-1.45798296258510e-04
3.68075060249955e-02	9.98495724941485e-01,-1.46812403562624e-04
3.70635224756153e-02	9.98495724640150e-01,-1.47833564539936e-04
3.73213196614728e-02	9.98495724334610e-01,-1.48861828252605e-04
3.75809099685610e-02	9.98495724024804e-01,-1.49897244104042e-04
3.78423058690244e-02	9.98495723710673e-01,-1.50939861841286e-04
3.81055199217580e-02	9.98495723392157e-01,-1.51989731557393e-04
3.83705647730111e-02	9.98495723069195e-01,-1.53046903693845e-04
3.86374531569944e-02	9.98495722741725e-01,-1.54111429042970e-04
3.89061978964920e-02	9.98495722409683e-01,-1.55183358750386e-04
3.91768119034776e-02	9.98495722073006e-01,-1.56262744317455e-04
3.94493081797349e-02	9.98495721731629e-01,-1.57349637603759e-04
3.97236998174820e-02	9.98495721385487e-01,-1.58444090829591e-04
4.00000000000006e-02	9.98495721034513e-01,-1.59546156578467e-04
4.02782220022693e-02	9.98495720678639e-01,-1.60655887799646e-04
4.05583791916017e-02	9.98495720317798e-01,-1.61773337810681e-04
4.08404850282883e-02	9.98495719951920e-01,-1.62898560299975e-04
4.11245530662433e-02	9.98495719580934e-01,-1.64031609329363e-04
4.14105969536557e-02	9.98495719204769e-01,-1.65172539336712e-04
4.16986304336455e-02	9.98495718823353e-01,-1.66321405138531e-04
4.19886673449233e-02	9.98495718436613e-01,-1.67478261932608e-04
4.22807216224558e-02	9.98495718044474e-01,-1.68643165300661e-04
4.25748072981350e-02	9.98495717646861e-01,-1.69816171211010e-04
4.28709385014524e-02	9.98495717243698e-01,-1.70997336021265e-04
4.31691294601777e-02	9.98495716834906e-01,-1.72186716481032e-04
4.34693945010430e-02	9.98495716420408e-01,-1.73384369734642e-04
4.37717480504302e-02	9.98495716000124e-01,-1.74590353323896e-04
4.40762046350651e-02	9.98495715573973e-01,-1.75804725190829e-04
4.43827788827145e-02	9.98495715141874e-01,-1.77027543680492e-04
4.46914855228895e-02	9.98495714703742e-01,-1.78258867543761e-04
4.50023393875531e-02	9.98495714259494e-01,-1.79498755940154e-04
4.53153554118326e-02	9.98495713809045e-01,-1.80747268440674e-04
4.56305486347377e-02	9.98495713352307e-01,-1.82004465030675e-04
4.59479341998821e-02	9.98495712889194e-01,-1.83270406112740e-04
4.62675273562122e-02	9.98495712419616e-01,-1.84545152509583e-04
4.65893434587390e-02	9.98495711943483e-01,-1.85828765466976e-04
4.69133979692759e-02	9.98495711460704e-01,-1.87121306656685e-04
4.72397064571820e-02	9.98495710971185e-01,-1.88422838179439e-04
4.75682846001096e-02	9.98495710474832e-01,-1.89733422567909e-04
4.78991481847579e-02	9.98495709971551e-01,-1.91053122789714e-04
4.82323131076312e-02	9.98495709461244e-01,-1.92382002250449e-04
4.85677953758027e-02	9.98495708943814e-01,-1.93720124796726e-04
4.89056111076836e-02	9.98495708419161e-01,-1.95067554719246e-04
4.92457765337975e-02	9.98495707887183e-01,-1.96424356755887e-04
4.95883079975603e-02	9.98495707347780e-01,-1.97790596094812e-04
4.99332219560653e-02	9.98495706800847e-01,-1.99166338377603e-04
5.02805349808740e-02	9.98495706246279e-01,-2.00551649702414e-04
5.06302637588120e-02	9.98495705683969e-01,-2.01946596627149e-04
5.09824250927713e-02	9.98495705113810e-01,-2.03351246172656e-04
5.13370359025170e-02	9.98495704535692e-01,-2.04765665825949e-04
5.16941132255006e-02	9.98495703949503e-01,-2.06189923543451e-04
5.20536742176782e-02	9.98495703355132e-01,-2.07624087754256e-04
5.24157361543354e-02	9.98495702752463e-01,-2.09068227363423e-04
5.27803164309167e-02	9.98495702141382e-01,-2.10522411755279e-04
5.31474325638614e-02	9.98495701521770e-01,-2.11986710796756e-04
5.35171021914454e-02	9.98495700893509e-01,-2.13461194840751e-04
5.38893430746286e-02	9.98495700256477e-01,-2.14945934729499e-04
5.42641730979078e-02	9.98495699610553e-01,-2.16441001797983e-04
5.46416102701768e-02	9.98495698955613e-01,-2.17946467877359e-04
5.50216727255907e-02	9.98495698291529e-01,-2.19462405298404e-04
5.54043787244380e-02	9.98495697618175e-01,-2.20988886894997e-04
5.57897466540172e-02	9.98495696935422e-01,-2.22525986007614e-04
5.61777950295209e-02	9.98495696243137e-01,-2.24073776486855e-04
5.65685424949248e-02	9.98495695541189e-01,-2.25632332696986e-04
5.69620078238839e-02	9.98495694829442e-01,-2.27201729519520e-04
5.73582099206341e-02	9.98495694107759e-01,-2.28782042356810e-04
5.77571678209009e-02	9.98495693376003e-01,-2.30373347135670e-04
5.81589006928135e-02	9.98495692634031e-01,-2.31975720311027e-04
5.85634278378261e-02	9.98495691881701e-01,-2.33589238869593e-04
5.89707686916451e-02	9.98495691118869e-01,-2.35213980333562e-04
5.93809428251631e-02	9.98495690345389e-01,-2.36850022764337e-04
5.97939699453986e-02	9.98495689561111e-01,-2.38497444766280e-04
6.02098698964438e-02	9.98495688765886e-01,-2.40156325490485e-04
6.06286626604171e-02	9.98495687959559e-01,-2.41826744638587e-04
6.10503683584235e-02	9.98495687141976e-01,-2.43508782466585e-04
6.14750072515216e-02	9.98495686312980e-01,-2.45202519788704e-04
6.19025997416968e-02	9.98495685472412e-01,-2.46908037981272e-04
6.23331663728412e-02	9.98495684620110e-01,-2.48625418986634e-04
6.27667278317413e-02	9.98495683755911e-01,-2.50354745317086e-04
6.32033049490714e-02	9.98495682879647e-01,-2.52096100058841e-04
6.36429187003947e-02	9.98495681991152e-01,-2.53849566876019e-04
6.40855902071710e-02	9.98495681090253e-01,-2.55615230014672e-04
6.45313407377713e-02	9.98495680176779e-01,-2.57393174306822e-04
6.49801917085001e-02	9.98495679250553e-01,-2.59183485174547e-04
6.54321646846237e-02	9.98495678311397e-01,-2.60986248634077e-04
6.58872813814071e-02	9.98495677359131e-01,-2.62801551299933e-04
6.63455636651566e-02	9.98495676393572e-01,-2.64629480389082e-04
6.68070335542709e-02	9.98495675414534e-01,-2.66470123725135e-04
6.72717132202985e-02	9.98495674421829e-01,-2.68323569742558e-04
6.77396249890035e-02	9.98495673415267e-01,-2.70189907490927e-04
6.82107913414379e-02	9.98495672394654e-01,-2.72069226639204e-04
6.86852349150217e-02	9.98495671359793e-01,-2.73961617480047e-04
6.91629785046306e-02	9.98495670310486e-01,-2.75867170934144e-04
6.96440450636913e-02	9.98495669246532e-01,-2.77785978554585e-04
7.01284577052842e-02	9.98495668167725e-01,-2.79718132531259e-04
7.06162397032538e-02	9.98495667073859e-01,-2.81663725695286e-04
7.11074144933271e-02	9.98495665964722e-01,-2.83622851523471e-04
7.16020056742393e-02	9.98495664840103e-01,-2.85595604142802e-04
7.21000370088679e-02	9.98495663699785e-01,-2.87582078334967e-04
7.26015324253744e-02	9.98495662543549e-01,-2.89582369540911e-04
7.31065160183536e-02	9.98495661371172e-01,-2.91596573865420e-04
7.36150120499915e-02	9.98495660182429e-01,-2.93624788081738e-04
7.41270449512312e-02	9.98495658977092e-01,-2.95667109636219e-04
7.46426393229462e-02	9.98495657754929e-01,-2.97723636653004e-04
7.51618199371225e-02	9.98495656515706e-01,-2.99794467938740e-04
7.56846117380493e-02	9.98495655259183e-01,-3.01879702987325e-04
7.62110398435166e-02	9.98495653985121e-01,-3.03979441984689e-04
7.67411295460228e-02	9.98495652693273e-01,-3.06093785813604e-04
7.72749063139893e-02	9.98495651383391e-01,-3.08222836058538e-04
7.78123957929845e-02	9.98495650055224e-01,-3.10366695010527e-04
7.83536238069558e-02	9.98495648708517e-01,-3.12525465672097e-04
7.88986163594704e-02	9.98495647343010e-01,-3.14699251762207e-04
7.94473996349646e-02	9.98495645958442e-01,-3.16888157721236e-04
8.00000000000017e-02	9.98495644554545e-01,-3.19092288716000e-04
8.05564440045393e-02	9.98495643131051e-01,-3.21311750644803e-04
8.11167583832041e-02	9.98495641687686e-01,-3.23546650142525e-04
8.16809700565772e-02	9.98495640224172e-01,-3.25797094585749e-04
8.22491061324871e-02	9.98495638740229e-01,-3.28063192097913e-04
8.28211939073120e-02	9.98495637235570e-01,-3.30345051554511e-04
8.33972608672915e-02	9.98495635709907e-01,-3.32642782588322e-04
8.39773346898472e-02	9.98495634162946e-01,-3.34956495594677e-04
8.45614432449123e-02	9.98495632594391e-01,-3.37286301736759e-04
8.51496145962707e-02	9.98495631003940e-01,-3.39632312950952e-04
8.57418770029054e-02	9.98495629391286e-01,-3.41994641952212e-04
8.63382589203561e-02	9.98495627756121e-01,-3.44373402239485e-04
