Freq.	V(vout)
1.00000000000000e-02	9.94648346622497e-01,-1.41356256576879e-04
1.00695555005672e-02	9.94648346342064e-01,-1.42339467055198e-04
1.01395947979003e-02	9.94648346057716e-01,-1.43329516302372e-04
1.02101212570719e-02	9.94648345769398e-01,-1.44326451885783e-04
1.02811382665607e-02	9.94648345477056e-01,-1.45330321703668e-04
1.03526492384138e-02	9.94648345180633e-01,-1.46341173987425e-04
1.04246576084112e-02	9.94648344880072e-01,-1.47359057303925e-04
1.04971668362307e-02	9.94648344575315e-01,-1.48384020557849e-04
1.05701804056138e-02	9.94648344266304e-01,-1.49416112994037e-04
1.06437018245336e-02	9.94648343952979e-01,-1.50455384199852e-04
1.07177346253629e-02	9.94648343635281e-01,-1.51501884107566e-04
1.07922823650443e-02	9.94648343313147e-01,-1.52555662996756e-04
1.08673486252606e-02	9.94648342986517e-01,-1.53616771496720e-04
1.09429370126074e-02	9.94648342655328e-01,-1.54685260588911e-04
1.10190511587661e-02	9.94648342319515e-01,-1.55761181609386e-04
1.10956947206785e-02	9.94648341979014e-01,-1.56844586251270e-04
1.11728713807222e-02	9.94648341633760e-01,-1.57935526567245e-04
1.12505848468881e-02	9.94648341283686e-01,-1.59034054972045e-04
1.13288388529580e-02	9.94648340928726e-01,-1.60140224244977e-04
1.14076371586843e-02	9.94648340568810e-01,-1.61254087532456e-04
1.14869835499704e-02	9.94648340203870e-01,-1.62375698350563e-04
1.15668818390529e-02	9.94648339833837e-01,-1.63505110587607e-04
1.16473358646846e-02	9.94648339458637e-01,-1.64642378506722e-04
1.17283494923188e-02	9.94648339078200e-01,-1.65787556748472e-04
1.18099266142953e-02	9.94648338692452e-01,-1.66940700333473e-04
1.18920711500272e-02	9.94648338301319e-01,-1.68101864665043e-04
1.19747870461893e-02	9.94648337904727e-01,-1.69271105531855e-04
1.20580782769076e-02	9.94648337502598e-01,-1.70448479110627e-04
1.21419488439505e-02	9.94648337094855e-01,-1.71634041968814e-04
1.22264027769207e-02	9.94648336681421e-01,-1.72827851067328e-04
1.23114441334492e-02	9.94648336262215e-01,-1.74029963763275e-04
1.23970769993899e-02	9.94648335837158e-01,-1.75240437812711e-04
1.24833054890162e-02	9.94648335406167e-01,-1.76459331373417e-04
1.25701337452183e-02	9.94648334969159e-01,-1.77686703007692e-04
1.26575659397028e-02	9.94648334526051e-01,-1.78922611685166e-04
1.27456062731927e-02	9.94648334076758e-01,-1.80167116785638e-04
1.28342589756291e-02	9.94648333621192e-01,-1.81420278101922e-04
1.29235283063750e-02	9.94648333159267e-01,-1.82682155842724e-04
1.30134185544194e-02	9.94648332690894e-01,-1.83952810635535e-04
1.31039340385837e-02	9.94648332215983e-01,-1.85232303529543e-04
1.31950791077290e-02	9.94648331734442e-01,-1.86520695998563e-04
1.32868581409652e-02	9.94648331246179e-01,-1.87818049943997e-04
1.33792755478612e-02	9.94648330751100e-01,-1.89124427697803e-04
1.34723357686569e-02	9.94648330249111e-01,-1.90439892025490e-04
1.35660432744768e-02	9.94648329740113e-01,-1.91764506129137e-04
1.36604025675440e-02	9.94648329224011e-01,-1.93098333650425e-04
1.37554181813975e-02	9.94648328700703e-01,-1.94441438673699e-04
1.38510946811093e-02	9.94648328170091e-01,-1.95793885729045e-04
1.39474366635041e-02	9.94648327632072e-01,-1.97155739795389e-04
1.40444487573800e-02	9.94648327086542e-01,-1.98527066303620e-04
1.41421356237310e-02	9.94648326533397e-01,-1.99907931139735e-04
1.42405019559708e-02	9.94648325972530e-01,-2.01298400648004e-04
1.43395524801583e-02	9.94648325403834e-01,-2.02698541634154e-04
1.44392919552250e-02	9.94648324827199e-01,-2.04108421368585e-04
1.45397251732032e-02	9.94648324242515e-01,-2.05528107589597e-04
1.46408569594563e-02	9.94648323649668e-01,-2.06957668506645e-04
1.47426921729111e-02	9.94648323048546e-01,-2.08397172803618e-04
1.48452357062906e-02	9.94648322439033e-01,-2.09846689642140e-04
1.49484924863495e-02	9.94648321821011e-01,-2.11306288664888e-04
1.50524674741107e-02	9.94648321194362e-01,-2.12776039998943e-04
1.51571656651041e-02	9.94648320558965e-01,-2.14256014259156e-04
1.52625920896057e-02	9.94648319914698e-01,-2.15746282551542e-04
1.53687518128802e-02	9.94648319261437e-01,-2.17246916476698e-04
1.54756499354240e-02	9.94648318599058e-01,-2.18757988133239e-04
1.55832915932101e-02	9.94648317927432e-01,-2.20279570121266e-04
1.56916819579351e-02	9.94648317246430e-01,-2.21811735545850e-04
1.58008262372676e-02	9.94648316555922e-01,-2.23354558020549e-04
1.59107296750985e-02	9.94648315855775e-01,-2.24908111670941e-04
1.60213975517925e-02	9.94648315145855e-01,-2.26472471138188e-04
1.61328351844426e-02	9.94648314426024e-01,-2.28047711582619e-04
1.62450479271248e-02	9.94648313696144e-01,-2.29633908687345e-04
1.63580411711557e-02	9.94648312956076e-01,-2.31231138661893e-04
1.64718203453516e-02	9.94648312205677e-01,-2.32839478245865e-04
1.65863909162889e-02	9.94648311444803e-01,-2.34459004712631e-04
1.67017583885675e-02	9.94648310673307e-01,-2.36089795873036e-04
1.68179283050744e-02	9.94648309891042e-01,-2.37731930079141e-04
1.69349062472506e-02	9.94648309097856e-01,-2.39385486227988e-04
1.70526978353592e-02	9.94648308293599e-01,-2.41050543765389e-04
1.71713087287552e-02	9.94648307478114e-01,-2.42727182689743e-04
1.72907446261574e-02	9.94648306651245e-01,-2.44415483555881e-04
1.74110112659226e-02	9.94648305812834e-01,-2.46115527478935e-04
1.75321144263208e-02	9.94648304962719e-01,-2.47827396138235e-04
1.76540599258132e-02	9.94648304100737e-01,-2.49551171781235e-04
1.77768536233315e-02	9.94648303226722e-01,-2.51286937227462e-04
1.79005014185596e-02	9.94648302340506e-01,-2.53034775872497e-04
1.80250092522167e-02	9.94648301441919e-01,-2.54794771691982e-04
1.81503831063433e-02	9.94648300530788e-01,-2.56567009245652e-04
1.82766290045881e-02	9.94648299606939e-01,-2.58351573681400e-04
1.84037530124976e-02	9.94648298670193e-01,-2.60148550739369e-04
1.85317612378075e-02	9.94648297720370e-01,-2.61958026756067e-04
1.86606598307363e-02	9.94648296757288e-01,-2.63780088668520e-04
1.87904549842804e-02	9.94648295780763e-01,-2.65614824018444e-04
1.89211529345121e-02	9.94648294790605e-01,-2.67462320956456e-04
1.90527599608789e-02	9.94648293786626e-01,-2.69322668246306e-04
1.91852823865054e-02	9.94648292768631e-01,-2.71195955269140e-04
1.93187265784971e-02	9.94648291736426e-01,-2.73082272027801e-04
1.94530989482459e-02	9.94648290689811e-01,-2.74981709151145e-04
1.95884059517387e-02	9.94648289628587e-01,-2.76894357898399e-04
1.97246540898673e-02	9.94648288552548e-01,-2.78820310163549e-04
1.98618499087409e-02	9.94648287461489e-01,-2.80759658479748e-04
2.00000000000002e-02	9.94648286355199e-01,-2.82712496023766e-04
2.01391110011345e-02	9.94648285233465e-01,-2.84678916620467e-04
2.02791895958007e-02	9.94648284096073e-01,-2.86659014747315e-04
2.04202425141440e-02	9.94648282942803e-01,-2.88652885538914e-04
2.05622765331215e-02	9.94648281773434e-01,-2.90660624791578e-04
2.07052984768277e-02	9.94648280587742e-01,-2.92682328967935e-04
2.08493152168226e-02	9.94648279385498e-01,-2.94718095201559e-04
2.09943336724615e-02	9.94648278166471e-01,-2.96768021301639e-04
2.11403608112278e-02	9.94648276930427e-01,-2.98832205757679e-04
2.12874036490674e-02	9.94648275677129e-01,-3.00910747744227e-04
2.14354692507260e-02	9.94648274406335e-01,-3.03003747125639e-04
2.15845647300887e-02	9.94648273117802e-01,-3.05111304460884e-04
2.17346972505213e-02	9.94648271811281e-01,-3.07233521008365e-04
2.18858740252150e-02	9.94648270486522e-01,-3.09370498730795e-04
2.20381023175324e-02	9.94648269143270e-01,-3.11522340300084e-04
2.21913894413571e-02	9.94648267781267e-01,-3.13689149102283e-04
2.23457427614446e-02	9.94648266400252e-01,-3.15871029242544e-04
2.25011696937764e-02	9.94648264999958e-01,-3.18068085550122e-04
2.26576777059162e-02	9.94648263580116e-01,-3.20280423583417e-04
2.28152743173687e-02	9.94648262140454e-01,-3.22508149635037e-04
2.29739670999409e-02	9.94648260680696e-01,-3.24751370736914e-04
2.31337636781060e-02	9.94648259200560e-01,-3.27010194665439e-04
2.32946717293693e-02	9.94648257699762e-01,-3.29284729946643e-04
2.34566989846378e-02	9.94648256178013e-01,-3.31575085861411e-04
2.36198532285908e-02	9.94648254635022e-01,-3.33881372450733e-04
2.37841423000546e-02	9.94648253070492e-01,-3.36203700520989e-04
2.39495740923788e-02	9.94648251484121e-01,-3.38542181649274e-04
2.41161565538154e-02	9.94648249875606e-01,-3.40896928188758e-04
2.42838976879012e-02	9.94648248244636e-01,-3.43268053274085e-04
2.44528055538416e-02	9.94648246590899e-01,-3.45655670826806e-04
2.46228882668986e-02	9.94648244914077e-01,-3.48059895560856e-04
2.47941539987800e-02	9.94648243213847e-01,-3.50480842988061e-04
2.49666109780325e-02	9.94648241489883e-01,-3.52918629423693e-04
2.51402674904368e-02	9.94648239741853e-01,-3.55373371992053e-04
2.53151318794058e-02	9.94648237969422e-01,-3.57845188632099e-04
2.54912125463855e-02	9.94648236172248e-01,-3.60334198103119e-04
2.56685179512583e-02	9.94648234349987e-01,-3.62840519990425e-04
2.58470566127501e-02	9.94648232502288e-01,-3.65364274711109e-04
2.60268371088389e-02	9.94648230628796e-01,-3.67905583519822e-04
2.62078680771675e-02	9.94648228729151e-01,-3.70464568514602e-04
2.63901582154582e-02	9.94648226802988e-01,-3.73041352642742e-04
2.65737162819305e-02	9.94648224849937e-01,-3.75636059706691e-04
2.67585510957225e-02	9.94648222869623e-01,-3.78248814370007e-04
2.69446715373141e-02	9.94648220861664e-01,-3.80879742163347e-04
2.71320865489537e-02	9.94648218825675e-01,-3.83528969490492e-04
2.73208051350882e-02	9.94648216761264e-01,-3.86196623634427e-04
2.75108363627952e-02	9.94648214668036e-01,-3.88882832763451e-04
2.77021893622188e-02	9.94648212545588e-01,-3.91587725937339e-04
2.78948733270084e-02	9.94648210393510e-01,-3.94311433113539e-04
2.80888975147602e-02	9.94648208211392e-01,-3.97054085153415e-04
2.82842712474622e-02	9.94648205998812e-01,-3.99815813828540e-04
2.84810039119417e-02	9.94648203755345e-01,-4.02596751827020e-04
2.86791049603169e-02	9.94648201480561e-01,-4.05397032759873e-04
2.88785839104502e-02	9.94648199174022e-01,-4.08216791167446e-04
2.90794503464065e-02	9.94648196835285e-01,-4.11056162525879e-04
2.92817139189128e-02	9.94648194463900e-01,-4.13915283253617e-04
2.94853843458224e-02	9.94648192059413e-01,-4.16794290717959e-04
2.96904714125813e-02	9.94648189621359e-01,-4.19693323241662e-04
2.98969849726991e-02	9.94648187149272e-01,-4.22612520109584e-04
3.01049349482217e-02	9.94648184642676e-01,-4.25552021575376e-04
3.03143313302083e-02	9.94648182101089e-01,-4.28511968868221e-04
3.05251841792115e-02	9.94648179524023e-01,-4.31492504199619e-04
3.07375036257606e-02	9.94648176910982e-01,-4.34493770770220e-04
3.09512998708482e-02	9.94648174261465e-01,-4.37515912776701e-04
3.11665831864204e-02	9.94648171574962e-01,-4.40559075418699e-04
3.13833639158704e-02	9.94648168850956e-01,-4.43623404905781e-04
3.16016524745355e-02	9.94648166088925e-01,-4.46709048464472e-04
3.18214593501971e-02	9.94648163288338e-01,-4.49816154345328e-04
3.20427951035853e-02	9.94648160448655e-01,-4.52944871830058e-04
3.22656703688854e-02	9.94648157569332e-01,-4.56095351238694e-04
3.24900958542498e-02	9.94648154649816e-01,-4.59267743936817e-04
3.27160823423116e-02	9.94648151689544e-01,-4.62462202342826e-04
3.29436406907033e-02	9.94648148687949e-01,-4.65678879935262e-04
3.31727818325781e-02	9.94648145644453e-01,-4.68917931260179e-04
3.34035167771352e-02	9.94648142558471e-01,-4.72179511938575e-04
3.36358566101490e-02	9.94648139429411e-01,-4.75463778673861e-04
3.38698124945015e-02	9.94648136256671e-01,-4.78770889259394e-04
3.41053956707187e-02	9.94648133039640e-01,-4.82101002586059e-04
3.43426174575106e-02	9.94648129777702e-01,-4.85454278649899e-04
3.45814892523151e-02	9.94648126470229e-01,-4.88830878559802e-04
3.48220225318454e-02	9.94648123116585e-01,-4.92230964545245e-04
3.50642288526419e-02	9.94648119716127e-01,-4.95654699964084e-04
3.53081198516267e-02	9.94648116268199e-01,-4.99102249310405e-04
3.55537072466633e-02	9.94648112772140e-01,-5.02573778222423e-04
3.58010028371194e-02	9.94648109227279e-01,-5.06069453490444e-04
3.60500185044337e-02	9.94648105632932e-01,-5.09589443064877e-04
3.63007662126869e-02	9.94648101988411e-01,-5.13133916064300e-04
3.65532580091765e-02	9.94648098293014e-01,-5.16703042783589e-04
3.68075060249955e-02	9.94648094546031e-01,-5.20296994702095e-04
3.70635224756153e-02	9.94648090746743e-01,-5.23915944491888e-04
3.73213196614728e-02	9.94648086894418e-01,-5.27560066026046e-04
3.75809099685610e-02	9.94648082988317e-01,-5.31229534387015e-04
3.78423058690244e-02	9.94648079027688e-01,-5.34924525875014e-04
3.81055199217580e-02	9.94648075011772e-01,-5.38645218016511e-04
3.83705647730111e-02	9.94648070939795e-01,-5.42391789572746e-04
3.86374531569944e-02	9.94648066810976e-01,-5.46164420548325e-04
3.89061978964920e-02	9.94648062624521e-01,-5.49963292199862e-04
3.91768119034776e-02	9.94648058379624e-01,-5.53788587044692e-04
3.94493081797349e-02	9.94648054075472e-01,-5.57640488869637e-04
3.97236998174820e-02	9.94648049711236e-01,-5.61519182739834e-04
4.00000000000006e-02	9.94648045286077e-01,-5.65424855007631e-04
4.02782220022693e-02	9.94648040799145e-01,-5.69357693321535e-04
4.05583791916017e-02	9.94648036249579e-01,-5.73317886635228e-04
4.08404850282883e-02	9.94648031636502e-01,-5.77305625216647e-04
4.11245530662433e-02	9.94648026959030e-01,-5.81321100657122e-04
4.14105969536557e-02	9.94648022216262e-01,-5.85364505880584e-04
4.16986304336455e-02	9.94648017407288e-01,-5.89436035152828e-04
4.19886673449233e-02	9.94648012531184e-01,-5.93535884090851e-04
4.22807216224558e-02	9.94648007587011e-01,-5.97664249672249e-04
4.25748072981350e-02	9.94648002573820e-01,-6.01821330244676e-04
4.28709385014524e-02	9.94647997490648e-01,-6.06007325535380e-04
4.31691294601777e-02	9.94647992336518e-01,-6.10222436660790e-04
4.34693945010430e-02	9.94647987110438e-01,-6.14466866136185e-04
4.37717480504302e-02	9.94647981811406e-01,-6.18740817885420e-04
4.40762046350651e-02	9.94647976438401e-01,-6.23044497250724e-04
4.43827788827145e-02	9.94647970990393e-01,-6.27378111002562e-04
4.46914855228895e-02	9.94647965466333e-01,-6.31741867349572e-04
4.50023393875531e-02	9.94647959865160e-01,-6.36135975948567e-04
4.53153554118326e-02	9.94647954185798e-01,-6.40560647914605e-04
4.56305486347377e-02	9.94647948427155e-01,-6.45016095831136e-04
4.59479341998821e-02	9.94647942588124e-01,-6.49502533760206e-04
4.62675273562122e-02	9.94647936667583e-01,-6.54020177252753e-04
4.65893434587390e-02	9.94647930664395e-01,-6.58569243358950e-04
4.69133979692759e-02	9.94647924577406e-01,-6.63149950638642e-04
4.72397064571820e-02	9.94647918405445e-01,-6.67762519171839e-04
4.75682846001096e-02	9.94647912147327e-01,-6.72407170569293e-04
4.78991481847579e-02	9.94647905801849e-01,-6.77084127983144e-04
4.82323131076312e-02	9.94647899367792e-01,-6.81793616117637e-04
4.85677953758027e-02	9.94647892843919e-01,-6.86535861239921e-04
4.89056111076836e-02	9.94647886228976e-01,-6.91311091190917e-04
4.92457765337975e-02	9.94647879521692e-01,-6.96119535396265e-04
4.95883079975603e-02	9.94647872720777e-01,-7.00961424877344e-04
4.99332219560653e-02	9.94647865824926e-01,-7.05836992262369e-04
5.02805349808740e-02	9.94647858832812e-01,-7.10746471797572e-04
5.06302637588120e-02	9.94647851743092e-01,-7.15690099358451e-04
5.09824250927713e-02	9.94647844554404e-01,-7.20668112461101e-04
5.13370359025170e-02	9.94647837265365e-01,-7.25680750273628e-04
5.16941132255006e-02	9.94647829874575e-01,-7.30728253627633e-04
5.20536742176782e-02	9.94647822380613e-01,-7.35810865029789e-04
5.24157361543354e-02	9.94647814782040e-01,-7.40928828673485e-04
5.27803164309167e-02	9.94647807077395e-01,-7.46082390450558e-04
5.31474325638614e-02	9.94647799265197e-01,-7.51271797963107e-04
5.35171021914454e-02	9.94647791343945e-01,-7.56497300535390e-04
5.38893430746286e-02	9.94647783312116e-01,-7.61759149225795e-04
5.42641730979078e-02	9.94647775168168e-01,-7.67057596838907e-04
5.46416102701768e-02	9.94647766910535e-01,-7.72392897937648e-04
5.50216727255907e-02	9.94647758537629e-01,-7.77765308855509e-04
5.54043787244380e-02	9.94647750047842e-01,-7.83175087708865e-04
5.57897466540172e-02	9.94647741439542e-01,-7.88622494409370e-04
5.61777950295209e-02	9.94647732711075e-01,-7.94107790676447e-04
5.65685424949248e-02	9.94647723860763e-01,-7.99631240049860e-04
5.69620078238839e-02	9.94647714886906e-01,-8.05193107902373e-04
5.73582099206341e-02	9.94647705787778e-01,-8.10793661452499e-04
5.77571678209009e-02	9.94647696561632e-01,-8.16433169777337e-04
5.81589006928135e-02	9.94647687206693e-01,-8.22111903825497e-04
5.85634278378261e-02	9.94647677721165e-01,-8.27830136430119e-04
5.89707686916451e-02	9.94647668103223e-01,-8.33588142321974e-04
5.93809428251631e-02	9.94647658351021e-01,-8.39386198142669e-04
5.97939699453986e-02	9.94647648462683e-01,-8.45224582457928e-04
6.02098698964438e-02	9.94647638436309e-01,-8.51103575770980e-04
6.06286626604171e-02	9.94647628269972e-01,-8.57023460536034e-04
6.10503683584235e-02	9.94647617961719e-01,-8.62984521171841e-04
6.14750072515216e-02	9.94647607509568e-01,-8.68987044075366e-04
6.19025997416968e-02	9.94647596911511e-01,-8.75031317635537e-04
6.23331663728412e-02	9.94647586165511e-01,-8.81117632247105e-04
6.27667278317413e-02	9.94647575269502e-01,-8.87246280324592e-04
6.32033049490714e-02	9.94647564221391e-01,-8.93417556316335e-04
6.36429187003947e-02	9.94647553019054e-01,-8.99631756718634e-04
6.40855902071710e-02	9.94647541660339e-01,-9.05889180089996e-04
6.45313407377713e-02	9.94647530143063e-01,-9.12190127065470e-04
6.49801917085001e-02	9.94647518465011e-01,-9.18534900371098e-04
6.54321646846237e-02	9.94647506623940e-01,-9.24923804838448e-04
6.58872813814071e-02	9.94647494617574e-01,-9.31357147419263e-04
6.63455636651566e-02	9.94647482443606e-01,-9.37835237200204e-04
6.68070335542709e-02	9.94647470099696e-01,-9.44358385417700e-04
6.72717132202985e-02	9.94647457583472e-01,-9.50926905472891e-04
6.77396249890035e-02	9.94647444892528e-01,-9.57541112946693e-04
6.82107913414379e-02	9.94647432024425e-01,-9.64201325614950e-04
6.86852349150217e-02	9.94647418976691e-01,-9.70907863463699e-04
6.91629785046306e-02	9.94647405746818e-01,-9.77661048704547e-04
6.96440450636913e-02	9.94647392332262e-01,-9.84461205790139e-04
7.01284577052842e-02	9.94647378730447e-01,-9.91308661429752e-04
7.06162397032538e-02	9.94647364938758e-01,-9.98203744604984e-04
7.11074144933271e-02	9.94647350954545e-01,-1.00514678658556e-03
7.16020056742393e-02	9.94647336775119e-01,-1.01213812094523e-03
7.21000370088679e-02	9.94647322397757e-01,-1.01917808357783e-03
7.26015324253744e-02	9.94647307819695e-01,-1.02626701271337e-03
7.31065160183536e-02	9.94647293038130e-01,-1.03340524893431e-03
7.36150120499915e-02	9.94647278050224e-01,-1.04059313519190e-03
7.41270449512312e-02	9.94647262853094e-01,-1.04783101682269e-03
7.46426393229462e-02	9.94647247443821e-01,-1.05511924156507e-03
7.51618199371225e-02	9.94647231819443e-01,-1.06245815957600e-03
7.56846117380493e-02	9.94647215976957e-01,-1.06984812344783e-03
7.62110398435166e-02	9.94647199913319e-01,-1.07728948822524e-03
7.67411295460228e-02	9.94647183625441e-01,-1.08478261142227e-03
7.72749063139893e-02	9.94647167110194e-01,-1.09232785303953e-03
7.78123957929845e-02	9.94647150364403e-01,-1.09992557558145e-03
7.83536238069558e-02	9.94647133384850e-01,-1.10757614407371e-03
7.88986163594704e-02	9.94647116168272e-01,-1.11527992608080e-03
7.94473996349646e-02	9.94647098711360e-01,-1.12303729172364e-03
8.00000000000017e-02	9.94647081010759e-01,-1.13084861369736e-03
8.05564440045393e-02	9.94647063063067e-01,-1.13871426728923e-03
8.11167583832041e-02	9.94647044864836e-01,-1.14663463039663e-03
8.16809700565772e-02	9.94647026412568e-01,-1.15461008354529e-03
8.22491061324871e-02	9.94647007702716e-01,-1.16264100990747e-03
8.28211939073120e-02	9.94646988731686e-01,-1.17072779532044e-03
8.33972608672915e-02	9.94646969495830e-01,-1.17887082830495e-03
8.39773346898472e-02	9.94646949991453e-01,-1.18707050008395e-03
8.45614432449123e-02	9.94646930214805e-01,-1.19532720460135e-03
8.51496145962707e-02	9.94646910162086e-01,-1.20364133854093e-03
8.57418770029054e-02	9.94646889829443e-01,-1.21201330134543e-03
8.63382589203561e-02	9.94646869212967e-01,-1.22044349523568e-03
