Freq.	V(vout)
1.00000000000000e-02	9.99247306743268e-01,-1.99733036861163e-05
1.00695555005672e-02	9.99247306737695e-01,-2.01122289995910e-05
1.01395947979003e-02	9.99247306732044e-01,-2.02521206150353e-05
1.02101212570719e-02	9.99247306726314e-01,-2.03929852536109e-05
1.02811382665607e-02	9.99247306720504e-01,-2.05348296832290e-05
1.03526492384138e-02	9.99247306714614e-01,-2.06776607188750e-05
1.04246576084112e-02	9.99247306708641e-01,-2.08214852229365e-05
1.04971668362307e-02	9.99247306702584e-01,-2.09663101055328e-05
1.05701804056138e-02	9.99247306696443e-01,-2.11121423248468e-05
1.06437018245336e-02	9.99247306690216e-01,-2.12589888874593e-05
1.07177346253629e-02	9.99247306683903e-01,-2.14068568486860e-05
1.07922823650443e-02	9.99247306677501e-01,-2.15557533129160e-05
1.08673486252606e-02	9.99247306671010e-01,-2.17056854339533e-05
1.09429370126074e-02	9.99247306664428e-01,-2.18566604153605e-05
1.10190511587661e-02	9.99247306657754e-01,-2.20086855108053e-05
1.10956947206785e-02	9.99247306650987e-01,-2.21617680244082e-05
1.11728713807222e-02	9.99247306644126e-01,-2.23159153110941e-05
1.12505848468881e-02	9.99247306637169e-01,-2.24711347769455e-05
1.13288388529580e-02	9.99247306630115e-01,-2.26274338795581e-05
1.14076371586843e-02	9.99247306622962e-01,-2.27848201283994e-05
1.14869835499704e-02	9.99247306615710e-01,-2.29433010851693e-05
1.15668818390529e-02	9.99247306608356e-01,-2.31028843641635e-05
1.16473358646846e-02	9.99247306600900e-01,-2.32635776326394e-05
1.17283494923188e-02	9.99247306593339e-01,-2.34253886111844e-05
1.18099266142953e-02	9.99247306585673e-01,-2.35883250740866e-05
1.18920711500272e-02	9.99247306577900e-01,-2.37523948497088e-05
1.19747870461893e-02	9.99247306570019e-01,-2.39176058208643e-05
1.20580782769076e-02	9.99247306562027e-01,-2.40839659251955e-05
1.21419488439505e-02	9.99247306553924e-01,-2.42514831555559e-05
1.22264027769207e-02	9.99247306545708e-01,-2.44201655603932e-05
1.23114441334492e-02	9.99247306537377e-01,-2.45900212441369e-05
1.23970769993899e-02	9.99247306528930e-01,-2.47610583675870e-05
1.24833054890162e-02	9.99247306520364e-01,-2.49332851483063e-05
1.25701337452183e-02	9.99247306511680e-01,-2.51067098610156e-05
1.26575659397028e-02	9.99247306502874e-01,-2.52813408379906e-05
1.27456062731927e-02	9.99247306493945e-01,-2.54571864694628e-05
1.28342589756291e-02	9.99247306484891e-01,-2.56342552040221e-05
1.29235283063750e-02	9.99247306475712e-01,-2.58125555490232e-05
1.30134185544194e-02	9.99247306466404e-01,-2.59920960709942e-05
1.31039340385837e-02	9.99247306456966e-01,-2.61728853960478e-05
1.31950791077290e-02	9.99247306447396e-01,-2.63549322102964e-05
1.32868581409652e-02	9.99247306437692e-01,-2.65382452602689e-05
1.33792755478612e-02	9.99247306427854e-01,-2.67228333533310e-05
1.34723357686569e-02	9.99247306417878e-01,-2.69087053581088e-05
1.35660432744768e-02	9.99247306407762e-01,-2.70958702049144e-05
1.36604025675440e-02	9.99247306397506e-01,-2.72843368861749e-05
1.37554181813975e-02	9.99247306387106e-01,-2.74741144568652e-05
1.38510946811093e-02	9.99247306376561e-01,-2.76652120349420e-05
1.39474366635041e-02	9.99247306365869e-01,-2.78576388017827e-05
1.40444487573800e-02	9.99247306355027e-01,-2.80514040026261e-05
1.41421356237310e-02	9.99247306344035e-01,-2.82465169470169e-05
1.42405019559708e-02	9.99247306332889e-01,-2.84429870092526e-05
1.43395524801583e-02	9.99247306321587e-01,-2.86408236288341e-05
1.44392919552250e-02	9.99247306310127e-01,-2.88400363109194e-05
1.45397251732032e-02	9.99247306298508e-01,-2.90406346267799e-05
1.46408569594563e-02	9.99247306286726e-01,-2.92426282142605e-05
1.47426921729111e-02	9.99247306274780e-01,-2.94460267782428e-05
1.48452357062906e-02	9.99247306262667e-01,-2.96508400911109e-05
1.49484924863495e-02	9.99247306250385e-01,-2.98570779932214e-05
1.50524674741107e-02	9.99247306237931e-01,-3.00647503933759e-05
1.51571656651041e-02	9.99247306225304e-01,-3.02738672692973e-05
1.52625920896057e-02	9.99247306212500e-01,-3.04844386681087e-05
1.53687518128802e-02	9.99247306199518e-01,-3.06964747068169e-05
1.54756499354240e-02	9.99247306186354e-01,-3.09099855727978e-05
1.55832915932101e-02	9.99247306173007e-01,-3.11249815242861e-05
1.56916819579351e-02	9.99247306159474e-01,-3.13414728908682e-05
1.58008262372676e-02	9.99247306145751e-01,-3.15594700739786e-05
1.59107296750985e-02	9.99247306131837e-01,-3.17789835473991e-05
1.60213975517925e-02	9.99247306117729e-01,-3.20000238577629e-05
1.61328351844426e-02	9.99247306103423e-01,-3.22226016250605e-05
1.62450479271248e-02	9.99247306088918e-01,-3.24467275431503e-05
1.63580411711557e-02	9.99247306074211e-01,-3.26724123802725e-05
1.64718203453516e-02	9.99247306059298e-01,-3.28996669795663e-05
1.65863909162889e-02	9.99247306044177e-01,-3.31285022595907e-05
1.67017583885675e-02	9.99247306028845e-01,-3.33589292148496e-05
1.68179283050744e-02	9.99247306013299e-01,-3.35909589163194e-05
1.69349062472506e-02	9.99247305997536e-01,-3.38246025119815e-05
1.70526978353592e-02	9.99247305981553e-01,-3.40598712273574e-05
1.71713087287552e-02	9.99247305965346e-01,-3.42967763660484e-05
1.72907446261574e-02	9.99247305948914e-01,-3.45353293102786e-05
1.74110112659226e-02	9.99247305932252e-01,-3.47755415214417e-05
1.75321144263208e-02	9.99247305915358e-01,-3.50174245406515e-05
1.76540599258132e-02	9.99247305898228e-01,-3.52609899892969e-05
1.77768536233315e-02	9.99247305880858e-01,-3.55062495695997e-05
1.79005014185596e-02	9.99247305863246e-01,-3.57532150651773e-05
1.80250092522167e-02	9.99247305845388e-01,-3.60018983416084e-05
1.81503831063433e-02	9.99247305827281e-01,-3.62523113470034e-05
1.82766290045881e-02	9.99247305808922e-01,-3.65044661125785e-05
1.84037530124976e-02	9.99247305790306e-01,-3.67583747532336e-05
1.85317612378075e-02	9.99247305771430e-01,-3.70140494681341e-05
1.86606598307363e-02	9.99247305752290e-01,-3.72715025412977e-05
1.87904549842804e-02	9.99247305732884e-01,-3.75307463421839e-05
1.89211529345121e-02	9.99247305713206e-01,-3.77917933262888e-05
1.90527599608789e-02	9.99247305693254e-01,-3.80546560357431e-05
1.91852823865054e-02	9.99247305673023e-01,-3.83193470999152e-05
1.93187265784971e-02	9.99247305652510e-01,-3.85858792360173e-05
1.94530989482459e-02	9.99247305631710e-01,-3.88542652497171e-05
1.95884059517387e-02	9.99247305610620e-01,-3.91245180357528e-05
1.97246540898673e-02	9.99247305589236e-01,-3.93966505785524e-05
1.98618499087409e-02	9.99247305567554e-01,-3.96706759528578e-05
2.00000000000002e-02	9.99247305545568e-01,-3.99466073243528e-05
2.01391110011345e-02	9.99247305523276e-01,-4.02244579502961e-05
2.02791895958007e-02	9.99247305500672e-01,-4.05042411801575e-05
2.04202425141440e-02	9.99247305477753e-01,-4.07859704562601e-05
2.05622765331215e-02	9.99247305454514e-01,-4.10696593144253e-05
2.07052984768277e-02	9.99247305430951e-01,-4.13553213846240e-05
2.08493152168226e-02	9.99247305407058e-01,-4.16429703916307e-05
2.09943336724615e-02	9.99247305382832e-01,-4.19326201556836e-05
2.11403608112278e-02	9.99247305358268e-01,-4.22242845931478e-05
2.12874036490674e-02	9.99247305333361e-01,-4.25179777171848e-05
2.14354692507260e-02	9.99247305308107e-01,-4.28137136384251e-05
2.15845647300887e-02	9.99247305282499e-01,-4.31115065656464e-05
2.17346972505213e-02	9.99247305256535e-01,-4.34113708064563e-05
2.18858740252150e-02	9.99247305230208e-01,-4.37133207679797e-05
2.20381023175324e-02	9.99247305203513e-01,-4.40173709575508e-05
2.21913894413571e-02	9.99247305176446e-01,-4.43235359834106e-05
2.23457427614446e-02	9.99247305149001e-01,-4.46318305554082e-05
2.25011696937764e-02	9.99247305121172e-01,-4.49422694857077e-05
2.26576777059162e-02	9.99247305092956e-01,-4.52548676895002e-05
2.28152743173687e-02	9.99247305064345e-01,-4.55696401857199e-05
2.29739670999409e-02	9.99247305035335e-01,-4.58866020977662e-05
2.31337636781060e-02	9.99247305005920e-01,-4.62057686542298e-05
2.32946717293693e-02	9.99247304976095e-01,-4.65271551896247e-05
2.34566989846378e-02	9.99247304945853e-01,-4.68507771451250e-05
2.36198532285908e-02	9.99247304915189e-01,-4.71766500693063e-05
2.37841423000546e-02	9.99247304884096e-01,-4.75047896188936e-05
2.39495740923788e-02	9.99247304852570e-01,-4.78352115595125e-05
2.41161565538154e-02	9.99247304820604e-01,-4.81679317664475e-05
2.42838976879012e-02	9.99247304788192e-01,-4.85029662254044e-05
2.44528055538416e-02	9.99247304755327e-01,-4.88403310332782e-05
2.46228882668986e-02	9.99247304722003e-01,-4.91800423989268e-05
2.47941539987800e-02	9.99247304688214e-01,-4.95221166439495e-05
2.49666109780325e-02	9.99247304653954e-01,-4.98665702034714e-05
2.51402674904368e-02	9.99247304619215e-01,-5.02134196269329e-05
2.53151318794058e-02	9.99247304583991e-01,-5.05626815788847e-05
2.54912125463855e-02	9.99247304548275e-01,-5.09143728397887e-05
2.56685179512583e-02	9.99247304512061e-01,-5.12685103068243e-05
2.58470566127501e-02	9.99247304475342e-01,-5.16251109946998e-05
2.60268371088389e-02	9.99247304438110e-01,-5.19841920364701e-05
2.62078680771675e-02	9.99247304400358e-01,-5.23457706843602e-05
2.63901582154582e-02	9.99247304362079e-01,-5.27098643105936e-05
2.65737162819305e-02	9.99247304323266e-01,-5.30764904082272e-05
2.67585510957225e-02	9.99247304283911e-01,-5.34456665919916e-05
2.69446715373141e-02	9.99247304244006e-01,-5.38174105991378e-05
2.71320865489537e-02	9.99247304203544e-01,-5.41917402902887e-05
2.73208051350882e-02	9.99247304162518e-01,-5.45686736502981e-05
2.75108363627952e-02	9.99247304120919e-01,-5.49482287891140e-05
2.77021893622188e-02	9.99247304078740e-01,-5.53304239426492e-05
2.78948733270084e-02	9.99247304035971e-01,-5.57152774736571e-05
2.80888975147602e-02	9.99247303992606e-01,-5.61028078726143e-05
2.82842712474622e-02	9.99247303948635e-01,-5.64930337586088e-05
2.84810039119417e-02	9.99247303904050e-01,-5.68859738802346e-05
2.86791049603169e-02	9.99247303858843e-01,-5.72816471164923e-05
2.88785839104502e-02	9.99247303813005e-01,-5.76800724776964e-05
2.90794503464065e-02	9.99247303766526e-01,-5.80812691063887e-05
2.92817139189128e-02	9.99247303719400e-01,-5.84852562782576e-05
2.94853843458224e-02	9.99247303671615e-01,-5.88920534030648e-05
2.96904714125813e-02	9.99247303623163e-01,-5.93016800255773e-05
2.98969849726991e-02	9.99247303574035e-01,-5.97141558265069e-05
3.01049349482217e-02	9.99247303524221e-01,-6.01295006234553e-05
3.03143313302083e-02	9.99247303473712e-01,-6.05477343718667e-05
3.05251841792115e-02	9.99247303422498e-01,-6.09688771659864e-05
3.07375036257606e-02	9.99247303370568e-01,-6.13929492398258e-05
3.09512998708482e-02	9.99247303317914e-01,-6.18199709681355e-05
3.11665831864204e-02	9.99247303264525e-01,-6.22499628673833e-05
3.13833639158704e-02	9.99247303210390e-01,-6.26829455967404e-05
3.16016524745355e-02	9.99247303155500e-01,-6.31189399590739e-05
3.18214593501971e-02	9.99247303099843e-01,-6.35579669019462e-05
3.20427951035853e-02	9.99247303043410e-01,-6.40000475186215e-05
3.22656703688854e-02	9.99247302986189e-01,-6.44452030490792e-05
3.24900958542498e-02	9.99247302928169e-01,-6.48934548810346e-05
3.27160823423116e-02	9.99247302869339e-01,-6.53448245509659e-05
3.29436406907033e-02	9.99247302809688e-01,-6.57993337451497e-05
3.31727818325781e-02	9.99247302749204e-01,-6.62570043007023e-05
3.34035167771352e-02	9.99247302687876e-01,-6.67178582066294e-05
3.36358566101490e-02	9.99247302625692e-01,-6.71819176048819e-05
3.38698124945015e-02	9.99247302562639e-01,-6.76492047914203e-05
3.41053956707187e-02	9.99247302498707e-01,-6.81197422172859e-05
3.43426174575106e-02	9.99247302433882e-01,-6.85935524896791e-05
3.45814892523151e-02	9.99247302368152e-01,-6.90706583730458e-05
3.48220225318454e-02	9.99247302301504e-01,-6.95510827901712e-05
3.50642288526419e-02	9.99247302233927e-01,-7.00348488232809e-05
3.53081198516267e-02	9.99247302165406e-01,-7.05219797151500e-05
3.55537072466633e-02	9.99247302095928e-01,-7.10124988702202e-05
3.58010028371194e-02	9.99247302025480e-01,-7.15064298557234e-05
3.60500185044337e-02	9.99247301954049e-01,-7.20037964028150e-05
3.63007662126869e-02	9.99247301881621e-01,-7.25046224077133e-05
3.65532580091765e-02	9.99247301808182e-01,-7.30089319328479e-05
3.68075060249955e-02	9.99247301733718e-01,-7.35167492080159e-05
3.70635224756153e-02	9.99247301658214e-01,-7.40280986315459e-05
3.73213196614728e-02	9.99247301581656e-01,-7.45430047714702e-05
3.75809099685610e-02	9.99247301504030e-01,-7.50614923667052e-05
3.78423058690244e-02	9.99247301425319e-01,-7.55835863282402e-05
3.81055199217580e-02	9.99247301345511e-01,-7.61093117403338e-05
3.83705647730111e-02	9.99247301264588e-01,-7.66386938617196e-05
3.86374531569944e-02	9.99247301182535e-01,-7.71717581268194e-05
3.89061978964920e-02	9.99247301099337e-01,-7.77085301469655e-05
3.91768119034776e-02	9.99247301014978e-01,-7.82490357116307e-05
3.94493081797349e-02	9.99247300929441e-01,-7.87933007896681e-05
3.97236998174820e-02	9.99247300842710e-01,-7.93413515305582e-05
4.00000000000006e-02	9.99247300754768e-01,-7.98932142656655e-05
4.02782220022693e-02	9.99247300665598e-01,-8.04489155095035e-05
4.05583791916017e-02	9.99247300575184e-01,-8.10084819610087e-05
4.08404850282883e-02	9.99247300483508e-01,-8.15719405048235e-05
4.11245530662433e-02	9.99247300390552e-01,-8.21393182125874e-05
4.14105969536557e-02	9.99247300296298e-01,-8.27106423442382e-05
4.16986304336455e-02	9.99247300200728e-01,-8.32859403493213e-05
4.19886673449233e-02	9.99247300103825e-01,-8.38652398683089e-05
4.22807216224558e-02	9.99247300005569e-01,-8.44485687339279e-05
4.25748072981350e-02	9.99247299905941e-01,-8.50359549724966e-05
4.28709385014524e-02	9.99247299804922e-01,-8.56274268052722e-05
4.31691294601777e-02	9.99247299702493e-01,-8.62230126498060e-05
4.34693945010430e-02	9.99247299598635e-01,-8.68227411213087e-05
4.37717480504302e-02	9.99247299493326e-01,-8.74266410340258e-05
4.40762046350651e-02	9.99247299386548e-01,-8.80347414026215e-05
4.43827788827145e-02	9.99247299278279e-01,-8.86470714435728e-05
4.46914855228895e-02	9.99247299168498e-01,-8.92636605765733e-05
4.50023393875531e-02	9.99247299057185e-01,-8.98845384259467e-05
4.53153554118326e-02	9.99247298944319e-01,-9.05097348220703e-05
4.56305486347377e-02	9.99247298829876e-01,-9.11392798028075e-05
4.59479341998821e-02	9.99247298713836e-01,-9.17732036149518e-05
4.62675273562122e-02	9.99247298596177e-01,-9.24115367156798e-05
4.65893434587390e-02	9.99247298476874e-01,-9.30543097740140e-05
4.69133979692759e-02	9.99247298355907e-01,-9.37015536722972e-05
4.72397064571820e-02	9.99247298233250e-01,-9.43532995076755e-05
4.75682846001096e-02	9.99247298108882e-01,-9.50095785935926e-05
4.78991481847579e-02	9.99247297982777e-01,-9.56704224612945e-05
4.82323131076312e-02	9.99247297854912e-01,-9.63358628613443e-05
4.85677953758027e-02	9.99247297725262e-01,-9.70059317651473e-05
4.89056111076836e-02	9.99247297593802e-01,-9.76806613664877e-05
4.92457765337975e-02	9.99247297460508e-01,-9.83600840830749e-05
4.95883079975603e-02	9.99247297325352e-01,-9.90442325581013e-05
4.99332219560653e-02	9.99247297188310e-01,-9.97331396618106e-05
5.02805349808740e-02	9.99247297049354e-01,-1.00426838493077e-04
5.06302637588120e-02	9.99247296908459e-01,-1.01125362380994e-04
5.09824250927713e-02	9.99247296765597e-01,-1.01828744886481e-04
5.13370359025170e-02	9.99247296620741e-01,-1.02537019803887e-04
5.16941132255006e-02	9.99247296473863e-01,-1.03250221162623e-04
5.20536742176782e-02	9.99247296324934e-01,-1.03968383228792e-04
5.24157361543354e-02	9.99247296173927e-01,-1.04691540506835e-04
5.27803164309167e-02	9.99247296020811e-01,-1.05419727741191e-04
5.31474325638614e-02	9.99247295865558e-01,-1.06152979917968e-04
5.35171021914454e-02	9.99247295708138e-01,-1.06891332266618e-04
5.38893430746286e-02	9.99247295548520e-01,-1.07634820261634e-04
5.42641730979078e-02	9.99247295386674e-01,-1.08383479624255e-04
5.46416102701768e-02	9.99247295222569e-01,-1.09137346324180e-04
5.50216727255907e-02	9.99247295056173e-01,-1.09896456581295e-04
5.54043787244380e-02	9.99247294887454e-01,-1.10660846867417e-04
5.57897466540172e-02	9.99247294716380e-01,-1.11430553908045e-04
5.61777950295209e-02	9.99247294542918e-01,-1.12205614684123e-04
5.65685424949248e-02	9.99247294367034e-01,-1.12986066433816e-04
5.69620078238839e-02	9.99247294188695e-01,-1.13771946654303e-04
5.73582099206341e-02	9.99247294007867e-01,-1.14563293103575e-04
5.77571678209009e-02	9.99247293824514e-01,-1.15360143802252e-04
5.81589006928135e-02	9.99247293638602e-01,-1.16162537035407e-04
5.85634278378261e-02	9.99247293450095e-01,-1.16970511354405e-04
5.89707686916451e-02	9.99247293258956e-01,-1.17784105578761e-04
5.93809428251631e-02	9.99247293065148e-01,-1.18603358797996e-04
5.97939699453986e-02	9.99247292868636e-01,-1.19428310373524e-04
6.02098698964438e-02	9.99247292669380e-01,-1.20258999940536e-04
6.06286626604171e-02	9.99247292467343e-01,-1.21095467409909e-04
6.10503683584235e-02	9.99247292262485e-01,-1.21937752970122e-04
6.14750072515216e-02	9.99247292054768e-01,-1.22785897089185e-04
6.19025997416968e-02	9.99247291844151e-01,-1.23639940516588e-04
6.23331663728412e-02	9.99247291630594e-01,-1.24499924285253e-04
6.27667278317413e-02	9.99247291414056e-01,-1.25365889713510e-04
6.32033049490714e-02	9.99247291194495e-01,-1.26237878407079e-04
6.36429187003947e-02	9.99247290971869e-01,-1.27115932261073e-04
6.40855902071710e-02	9.99247290746136e-01,-1.28000093462006e-04
6.45313407377713e-02	9.99247290517251e-01,-1.28890404489822e-04
6.49801917085001e-02	9.99247290285171e-01,-1.29786908119938e-04
6.54321646846237e-02	9.99247290049852e-01,-1.30689647425297e-04
6.58872813814071e-02	9.99247289811247e-01,-1.31598665778434e-04
6.63455636651566e-02	9.99247289569312e-01,-1.32514006853570e-04
6.68070335542709e-02	9.99247289323999e-01,-1.33435714628698e-04
6.72717132202985e-02	9.99247289075262e-01,-1.34363833387706e-04
6.77396249890035e-02	9.99247288823053e-01,-1.35298407722497e-04
6.82107913414379e-02	9.99247288567323e-01,-1.36239482535139e-04
6.86852349150217e-02	9.99247288308023e-01,-1.37187103040014e-04
6.91629785046306e-02	9.99247288045104e-01,-1.38141314765998e-04
6.96440450636913e-02	9.99247287778514e-01,-1.39102163558642e-04
7.01284577052842e-02	9.99247287508203e-01,-1.40069695582381e-04
7.06162397032538e-02	9.99247287234118e-01,-1.41043957322747e-04
7.11074144933271e-02	9.99247286956207e-01,-1.42024995588603e-04
7.16020056742393e-02	9.99247286674417e-01,-1.43012857514395e-04
7.21000370088679e-02	9.99247286388694e-01,-1.44007590562413e-04
7.26015324253744e-02	9.99247286098981e-01,-1.45009242525075e-04
7.31065160183536e-02	9.99247285805225e-01,-1.46017861527219e-04
7.36150120499915e-02	9.99247285507367e-01,-1.47033496028419e-04
7.41270449512312e-02	9.99247285205352e-01,-1.48056194825310e-04
7.46426393229462e-02	9.99247284899121e-01,-1.49086007053935e-04
7.51618199371225e-02	9.99247284588615e-01,-1.50122982192106e-04
7.56846117380493e-02	9.99247284273775e-01,-1.51167170061778e-04
7.62110398435166e-02	9.99247283954539e-01,-1.52218620831445e-04
7.67411295460228e-02	9.99247283630847e-01,-1.53277385018551e-04
7.72749063139893e-02	9.99247283302637e-01,-1.54343513491915e-04
7.78123957929845e-02	9.99247282969844e-01,-1.55417057474177e-04
7.83536238069558e-02	9.99247282632407e-01,-1.56498068544259e-04
7.88986163594704e-02	9.99247282290259e-01,-1.57586598639840e-04
7.94473996349646e-02	9.99247281943334e-01,-1.58682700059855e-04
8.00000000000017e-02	9.99247281591567e-01,-1.59786425467006e-04
8.05564440045393e-02	9.99247281234889e-01,-1.60897827890294e-04
8.11167583832041e-02	9.99247280873232e-01,-1.62016960727564e-04
8.16809700565772e-02	9.99247280506527e-01,-1.63143877748071e-04
8.22491061324871e-02	9.99247280134703e-01,-1.64278633095066e-04
8.28211939073120e-02	9.99247279757688e-01,-1.65421281288395e-04
8.33972608672915e-02	9.99247279375410e-01,-1.66571877227118e-04
8.39773346898472e-02	9.99247278987796e-01,-1.67730476192150e-04
8.45614432449123e-02	9.99247278594771e-01,-1.68897133848911e-04
8.51496145962707e-02	9.99247278196260e-01,-1.70071906250006e-04
8.57418770029054e-02	9.99247277792185e-01,-1.71254849837918e-04
8.63382589203561e-02	9.99247277382470e-01,-1.72446021447715e-04
