Freq.	V(vout)
1.00000000000000e-02	9.99952923475325e-01,-1.25009511652775e-06
1.00695555005672e-02	9.99952923475304e-01,-1.25879021568639e-06
1.01395947979003e-02	9.99952923475281e-01,-1.26754579404248e-06
1.02101212570719e-02	9.99952923475259e-01,-1.27636227226209e-06
1.02811382665607e-02	9.99952923475236e-01,-1.28524007393729e-06
1.03526492384138e-02	9.99952923475213e-01,-1.29417962560643e-06
1.04246576084112e-02	9.99952923475190e-01,-1.30318135677469e-06
1.04971668362307e-02	9.99952923475166e-01,-1.31224569993469e-06
1.05701804056138e-02	9.99952923475142e-01,-1.32137309058727e-06
1.06437018245336e-02	9.99952923475118e-01,-1.33056396726242e-06
1.07177346253629e-02	9.99952923475093e-01,-1.33981877154034e-06
1.07922823650443e-02	9.99952923475068e-01,-1.34913794807269e-06
1.08673486252606e-02	9.99952923475042e-01,-1.35852194460390e-06
1.09429370126074e-02	9.99952923475017e-01,-1.36797121199270e-06
1.10190511587661e-02	9.99952923474991e-01,-1.37748620423383e-06
1.10956947206785e-02	9.99952923474964e-01,-1.38706737847978e-06
1.11728713807222e-02	9.99952923474937e-01,-1.39671519506280e-06
1.12505848468881e-02	9.99952923474910e-01,-1.40643011751701e-06
1.13288388529580e-02	9.99952923474882e-01,-1.41621261260063e-06
1.14076371586843e-02	9.99952923474854e-01,-1.42606315031849e-06
1.14869835499704e-02	9.99952923474826e-01,-1.43598220394454e-06
1.15668818390529e-02	9.99952923474797e-01,-1.44597025004459e-06
1.16473358646846e-02	9.99952923474768e-01,-1.45602776849926e-06
1.17283494923188e-02	9.99952923474738e-01,-1.46615524252698e-06
1.18099266142953e-02	9.99952923474708e-01,-1.47635315870726e-06
1.18920711500272e-02	9.99952923474678e-01,-1.48662200700399e-06
1.19747870461893e-02	9.99952923474647e-01,-1.49696228078908e-06
1.20580782769076e-02	9.99952923474616e-01,-1.50737447686608e-06
1.21419488439505e-02	9.99952923474584e-01,-1.51785909549410e-06
1.22264027769207e-02	9.99952923474552e-01,-1.52841664041181e-06
1.23114441334492e-02	9.99952923474519e-01,-1.53904761886166e-06
1.23970769993899e-02	9.99952923474486e-01,-1.54975254161428e-06
1.24833054890162e-02	9.99952923474453e-01,-1.56053192299295e-06
1.25701337452183e-02	9.99952923474419e-01,-1.57138628089838e-06
1.26575659397028e-02	9.99952923474384e-01,-1.58231613683356e-06
1.27456062731927e-02	9.99952923474349e-01,-1.59332201592880e-06
1.28342589756291e-02	9.99952923474314e-01,-1.60440444696701e-06
1.29235283063750e-02	9.99952923474278e-01,-1.61556396240905e-06
1.30134185544194e-02	9.99952923474241e-01,-1.62680109841936e-06
1.31039340385837e-02	9.99952923474205e-01,-1.63811639489168e-06
1.31950791077290e-02	9.99952923474167e-01,-1.64951039547502e-06
1.32868581409652e-02	9.99952923474129e-01,-1.66098364759976e-06
1.33792755478612e-02	9.99952923474091e-01,-1.67253670250397e-06
1.34723357686569e-02	9.99952923474051e-01,-1.68417011525987e-06
1.35660432744768e-02	9.99952923474012e-01,-1.69588444480052e-06
1.36604025675440e-02	9.99952923473972e-01,-1.70768025394667e-06
1.37554181813975e-02	9.99952923473931e-01,-1.71955810943380e-06
1.38510946811093e-02	9.99952923473890e-01,-1.73151858193933e-06
1.39474366635041e-02	9.99952923473848e-01,-1.74356224611008e-06
1.40444487573800e-02	9.99952923473806e-01,-1.75568968058983e-06
1.41421356237310e-02	9.99952923473763e-01,-1.76790146804716e-06
1.42405019559708e-02	9.99952923473719e-01,-1.78019819520343e-06
1.43395524801583e-02	9.99952923473675e-01,-1.79258045286097e-06
1.44392919552250e-02	9.99952923473630e-01,-1.80504883593146e-06
1.45397251732032e-02	9.99952923473584e-01,-1.81760394346452e-06
1.46408569594563e-02	9.99952923473538e-01,-1.83024637867649e-06
1.47426921729111e-02	9.99952923473491e-01,-1.84297674897942e-06
1.48452357062906e-02	9.99952923473444e-01,-1.85579566601023e-06
1.49484924863495e-02	9.99952923473396e-01,-1.86870374566011e-06
1.50524674741107e-02	9.99952923473347e-01,-1.88170160810414e-06
1.51571656651041e-02	9.99952923473298e-01,-1.89478987783102e-06
1.52625920896057e-02	9.99952923473248e-01,-1.90796918367314e-06
1.53687518128802e-02	9.99952923473197e-01,-1.92124015883676e-06
1.54756499354240e-02	9.99952923473145e-01,-1.93460344093243e-06
1.55832915932101e-02	9.99952923473093e-01,-1.94805967200563e-06
1.56916819579351e-02	9.99952923473040e-01,-1.96160949856764e-06
1.58008262372676e-02	9.99952923472986e-01,-1.97525357162656e-06
1.59107296750985e-02	9.99952923472932e-01,-1.98899254671861e-06
1.60213975517925e-02	9.99952923472877e-01,-2.00282708393964e-06
1.61328351844426e-02	9.99952923472820e-01,-2.01675784797682e-06
1.62450479271248e-02	9.99952923472764e-01,-2.03078550814059e-06
1.63580411711557e-02	9.99952923472706e-01,-2.04491073839680e-06
1.64718203453516e-02	9.99952923472648e-01,-2.05913421739912e-06
1.65863909162889e-02	9.99952923472589e-01,-2.07345662852162e-06
1.67017583885675e-02	9.99952923472529e-01,-2.08787865989162e-06
1.68179283050744e-02	9.99952923472468e-01,-2.10240100442272e-06
1.69349062472506e-02	9.99952923472406e-01,-2.11702435984815e-06
1.70526978353592e-02	9.99952923472344e-01,-2.13174942875423e-06
1.71713087287552e-02	9.99952923472280e-01,-2.14657691861418e-06
1.72907446261574e-02	9.99952923472216e-01,-2.16150754182206e-06
1.74110112659226e-02	9.99952923472151e-01,-2.17654201572703e-06
1.75321144263208e-02	9.99952923472084e-01,-2.19168106266783e-06
1.76540599258132e-02	9.99952923472017e-01,-2.20692541000743e-06
1.77768536233315e-02	9.99952923471950e-01,-2.22227579016803e-06
1.79005014185596e-02	9.99952923471880e-01,-2.23773294066622e-06
1.80250092522167e-02	9.99952923471811e-01,-2.25329760414844e-06
1.81503831063433e-02	9.99952923471740e-01,-2.26897052842662e-06
1.82766290045881e-02	9.99952923471668e-01,-2.28475246651414e-06
1.84037530124976e-02	9.99952923471595e-01,-2.30064417666203e-06
1.85317612378075e-02	9.99952923471521e-01,-2.31664642239533e-06
1.86606598307363e-02	9.99952923471446e-01,-2.33275997254984e-06
1.87904549842804e-02	9.99952923471370e-01,-2.34898560130904e-06
1.89211529345121e-02	9.99952923471293e-01,-2.36532408824128e-06
1.90527599608789e-02	9.99952923471215e-01,-2.38177621833722e-06
1.91852823865054e-02	9.99952923471136e-01,-2.39834278204758e-06
1.93187265784971e-02	9.99952923471056e-01,-2.41502457532108e-06
1.94530989482459e-02	9.99952923470974e-01,-2.43182239964274e-06
1.95884059517387e-02	9.99952923470891e-01,-2.44873706207230e-06
1.97246540898673e-02	9.99952923470808e-01,-2.46576937528308e-06
1.98618499087409e-02	9.99952923470723e-01,-2.48292015760098e-06
2.00000000000002e-02	9.99952923470637e-01,-2.50019023304379e-06
2.01391110011345e-02	9.99952923470550e-01,-2.51758043136083e-06
2.02791895958007e-02	9.99952923470461e-01,-2.53509158807275e-06
2.04202425141440e-02	9.99952923470371e-01,-2.55272454451173e-06
2.05622765331215e-02	9.99952923470280e-01,-2.57048014786186e-06
2.07052984768277e-02	9.99952923470188e-01,-2.58835925119988e-06
2.08493152168226e-02	9.99952923470095e-01,-2.60636271353612e-06
2.09943336724615e-02	9.99952923470000e-01,-2.62449139985584e-06
2.11403608112278e-02	9.99952923469904e-01,-2.64274618116071e-06
2.12874036490674e-02	9.99952923469806e-01,-2.66112793451072e-06
2.14354692507260e-02	9.99952923469707e-01,-2.67963754306628e-06
2.15845647300887e-02	9.99952923469607e-01,-2.69827589613067e-06
2.17346972505213e-02	9.99952923469505e-01,-2.71704388919277e-06
2.18858740252150e-02	9.99952923469402e-01,-2.73594242397007e-06
2.20381023175324e-02	9.99952923469298e-01,-2.75497240845200e-06
2.21913894413571e-02	9.99952923469192e-01,-2.77413475694358e-06
2.23457427614446e-02	9.99952923469085e-01,-2.79343039010928e-06
2.25011696937764e-02	9.99952923468975e-01,-2.81286023501734e-06
2.26576777059162e-02	9.99952923468865e-01,-2.83242522518425e-06
2.28152743173687e-02	9.99952923468753e-01,-2.85212630061961e-06
2.29739670999409e-02	9.99952923468640e-01,-2.87196440787132e-06
2.31337636781060e-02	9.99952923468524e-01,-2.89194050007106e-06
2.32946717293693e-02	9.99952923468408e-01,-2.91205553698001e-06
2.34566989846378e-02	9.99952923468289e-01,-2.93231048503507e-06
2.36198532285908e-02	9.99952923468169e-01,-2.95270631739522e-06
2.37841423000546e-02	9.99952923468047e-01,-2.97324401398829e-06
2.39495740923788e-02	9.99952923467924e-01,-2.99392456155806e-06
2.41161565538154e-02	9.99952923467799e-01,-3.01474895371164e-06
2.42838976879012e-02	9.99952923467672e-01,-3.03571819096724e-06
2.44528055538416e-02	9.99952923467543e-01,-3.05683328080221e-06
2.46228882668986e-02	9.99952923467413e-01,-3.07809523770147e-06
2.47941539987800e-02	9.99952923467281e-01,-3.09950508320624e-06
2.49666109780325e-02	9.99952923467147e-01,-3.12106384596312e-06
2.51402674904368e-02	9.99952923467011e-01,-3.14277256177350e-06
2.53151318794058e-02	9.99952923466873e-01,-3.16463227364336e-06
2.54912125463855e-02	9.99952923466733e-01,-3.18664403183335e-06
2.56685179512583e-02	9.99952923466591e-01,-3.20880889390926e-06
2.58470566127501e-02	9.99952923466447e-01,-3.23112792479283e-06
2.60268371088389e-02	9.99952923466302e-01,-3.25360219681291e-06
2.62078680771675e-02	9.99952923466154e-01,-3.27623278975701e-06
2.63901582154582e-02	9.99952923466004e-01,-3.29902079092313e-06
2.65737162819305e-02	9.99952923465852e-01,-3.32196729517205e-06
2.67585510957225e-02	9.99952923465698e-01,-3.34507340497989e-06
2.69446715373141e-02	9.99952923465542e-01,-3.36834023049110e-06
2.71320865489537e-02	9.99952923465384e-01,-3.39176888957180e-06
2.73208051350882e-02	9.99952923465223e-01,-3.41536050786349e-06
2.75108363627952e-02	9.99952923465060e-01,-3.43911621883712e-06
2.77021893622188e-02	9.99952923464895e-01,-3.46303716384754e-06
2.78948733270084e-02	9.99952923464728e-01,-3.48712449218838e-06
2.80888975147602e-02	9.99952923464558e-01,-3.51137936114721e-06
2.82842712474622e-02	9.99952923464386e-01,-3.53580293606119e-06
2.84810039119417e-02	9.99952923464211e-01,-3.56039639037303e-06
2.86791049603169e-02	9.99952923464034e-01,-3.58516090568740e-06
2.88785839104502e-02	9.99952923463855e-01,-3.61009767182765e-06
2.90794503464065e-02	9.99952923463673e-01,-3.63520788689303e-06
2.92817139189128e-02	9.99952923463488e-01,-3.66049275731622e-06
2.94853843458224e-02	9.99952923463301e-01,-3.68595349792130e-06
2.96904714125813e-02	9.99952923463112e-01,-3.71159133198212e-06
2.98969849726991e-02	9.99952923462919e-01,-3.73740749128109e-06
3.01049349482217e-02	9.99952923462724e-01,-3.76340321616832e-06
3.03143313302083e-02	9.99952923462527e-01,-3.78957975562124e-06
3.05251841792115e-02	9.99952923462326e-01,-3.81593836730463e-06
3.07375036257606e-02	9.99952923462123e-01,-3.84248031763099e-06
3.09512998708482e-02	9.99952923461917e-01,-3.86920688182143e-06
3.11665831864204e-02	9.99952923461708e-01,-3.89611934396693e-06
3.13833639158704e-02	9.99952923461496e-01,-3.92321899709001e-06
3.16016524745355e-02	9.99952923461281e-01,-3.95050714320689e-06
3.18214593501971e-02	9.99952923461063e-01,-3.97798509339003e-06
3.20427951035853e-02	9.99952923460842e-01,-4.00565416783110e-06
3.22656703688854e-02	9.99952923460618e-01,-4.03351569590445e-06
3.24900958542498e-02	9.99952923460391e-01,-4.06157101623095e-06
3.27160823423116e-02	9.99952923460161e-01,-4.08982147674232e-06
3.29436406907033e-02	9.99952923459927e-01,-4.11826843474589e-06
3.31727818325781e-02	9.99952923459690e-01,-4.14691325698978e-06
3.34035167771352e-02	9.99952923459450e-01,-4.17575731972865e-06
3.36358566101490e-02	9.99952923459207e-01,-4.20480200878971e-06
3.38698124945015e-02	9.99952923458960e-01,-4.23404871963939e-06
3.41053956707187e-02	9.99952923458710e-01,-4.26349885745036e-06
3.43426174575106e-02	9.99952923458456e-01,-4.29315383716903e-06
3.45814892523151e-02	9.99952923458199e-01,-4.32301508358354e-06
3.48220225318454e-02	9.99952923457938e-01,-4.35308403139222e-06
3.50642288526419e-02	9.99952923457673e-01,-4.38336212527252e-06
3.53081198516267e-02	9.99952923457405e-01,-4.41385081995039e-06
3.55537072466633e-02	9.99952923457133e-01,-4.44455158027024e-06
3.58010028371194e-02	9.99952923456857e-01,-4.47546588126524e-06
3.60500185044337e-02	9.99952923456578e-01,-4.50659520822826e-06
3.63007662126869e-02	9.99952923456294e-01,-4.53794105678317e-06
3.65532580091765e-02	9.99952923456007e-01,-4.56950493295675e-06
3.68075060249955e-02	9.99952923455715e-01,-4.60128835325102e-06
3.70635224756153e-02	9.99952923455420e-01,-4.63329284471608e-06
3.73213196614728e-02	9.99952923455120e-01,-4.66551994502354e-06
3.75809099685610e-02	9.99952923454816e-01,-4.69797120254035e-06
3.78423058690244e-02	9.99952923454508e-01,-4.73064817640318e-06
3.81055199217580e-02	9.99952923454196e-01,-4.76355243659339e-06
3.83705647730111e-02	9.99952923453879e-01,-4.79668556401240e-06
3.86374531569944e-02	9.99952923453558e-01,-4.83004915055768e-06
3.89061978964920e-02	9.99952923453232e-01,-4.86364479919921e-06
3.91768119034776e-02	9.99952923452902e-01,-4.89747412405653e-06
3.94493081797349e-02	9.99952923452567e-01,-4.93153875047624e-06
3.97236998174820e-02	9.99952923452227e-01,-4.96584031511014e-06
4.00000000000006e-02	9.99952923451883e-01,-5.00038046599383e-06
4.02782220022693e-02	9.99952923451534e-01,-5.03516086262594e-06
4.05583791916017e-02	9.99952923451180e-01,-5.07018317604777e-06
4.08404850282883e-02	9.99952923450821e-01,-5.10544908892367e-06
4.11245530662433e-02	9.99952923450457e-01,-5.14096029562184e-06
4.14105969536557e-02	9.99952923450088e-01,-5.17671850229573e-06
4.16986304336455e-02	9.99952923449714e-01,-5.21272542696604e-06
4.19886673449233e-02	9.99952923449335e-01,-5.24898279960324e-06
4.22807216224558e-02	9.99952923448950e-01,-5.28549236221071e-06
4.25748072981350e-02	9.99952923448560e-01,-5.32225586890839e-06
4.28709385014524e-02	9.99952923448165e-01,-5.35927508601713e-06
4.31691294601777e-02	9.99952923447764e-01,-5.39655179214349e-06
4.34693945010430e-02	9.99952923447357e-01,-5.43408777826521e-06
4.37717480504302e-02	9.99952923446945e-01,-5.47188484781728e-06
4.40762046350651e-02	9.99952923446527e-01,-5.50994481677857e-06
4.43827788827145e-02	9.99952923446103e-01,-5.54826951375908e-06
4.46914855228895e-02	9.99952923445674e-01,-5.58686078008780e-06
4.50023393875531e-02	9.99952923445238e-01,-5.62572046990117e-06
4.53153554118326e-02	9.99952923444796e-01,-5.66485045023217e-06
4.56305486347377e-02	9.99952923444348e-01,-5.70425260110003e-06
4.59479341998821e-02	9.99952923443894e-01,-5.74392881560054e-06
4.62675273562122e-02	9.99952923443433e-01,-5.78388099999702e-06
4.65893434587390e-02	9.99952923442966e-01,-5.82411107381188e-06
4.69133979692759e-02	9.99952923442493e-01,-5.86462096991890e-06
4.72397064571820e-02	9.99952923442013e-01,-5.90541263463602e-06
4.75682846001096e-02	9.99952923441526e-01,-5.94648802781891e-06
4.78991481847579e-02	9.99952923441032e-01,-5.98784912295513e-06
4.82323131076312e-02	9.99952923440532e-01,-6.02949790725890e-06
4.85677953758027e-02	9.99952923440024e-01,-6.07143638176665e-06
4.89056111076836e-02	9.99952923439509e-01,-6.11366656143306e-06
4.92457765337975e-02	9.99952923438988e-01,-6.15619047522798e-06
4.95883079975603e-02	9.99952923438459e-01,-6.19901016623385e-06
4.99332219560653e-02	9.99952923437922e-01,-6.24212769174385e-06
5.02805349808740e-02	9.99952923437378e-01,-6.28554512336078e-06
5.06302637588120e-02	9.99952923436827e-01,-6.32926454709659e-06
5.09824250927713e-02	9.99952923436268e-01,-6.37328806347258e-06
5.13370359025170e-02	9.99952923435700e-01,-6.41761778762031e-06
5.16941132255006e-02	9.99952923435125e-01,-6.46225584938328e-06
5.20536742176782e-02	9.99952923434542e-01,-6.50720439341919e-06
5.24157361543354e-02	9.99952923433951e-01,-6.55246557930305e-06
5.27803164309167e-02	9.99952923433352e-01,-6.59804158163086e-06
5.31474325638614e-02	9.99952923432744e-01,-6.64393459012417e-06
5.35171021914454e-02	9.99952923432128e-01,-6.69014680973522e-06
5.38893430746286e-02	9.99952923431503e-01,-6.73668046075293e-06
5.42641730979078e-02	9.99952923430870e-01,-6.78353777890951e-06
5.46416102701768e-02	9.99952923430227e-01,-6.83072101548797e-06
5.50216727255907e-02	9.99952923429576e-01,-6.87823243743020e-06
5.54043787244380e-02	9.99952923428916e-01,-6.92607432744592e-06
5.57897466540172e-02	9.99952923428246e-01,-6.97424898412236e-06
5.61777950295209e-02	9.99952923427567e-01,-7.02275872203467e-06
5.65685424949248e-02	9.99952923426878e-01,-7.07160587185717e-06
5.69620078238839e-02	9.99952923426180e-01,-7.12079278047529e-06
5.73582099206341e-02	9.99952923425472e-01,-7.17032181109833e-06
5.77571678209009e-02	9.99952923424755e-01,-7.22019534337303e-06
5.81589006928135e-02	9.99952923424027e-01,-7.27041577349786e-06
5.85634278378261e-02	9.99952923423289e-01,-7.32098551433818e-06
5.89707686916451e-02	9.99952923422541e-01,-7.37190699554215e-06
5.93809428251631e-02	9.99952923421782e-01,-7.42318266365749e-06
5.97939699453986e-02	9.99952923421013e-01,-7.47481498224898e-06
6.02098698964438e-02	9.99952923420233e-01,-7.52680643201685e-06
6.06286626604171e-02	9.99952923419442e-01,-7.57915951091598e-06
6.10503683584235e-02	9.99952923418640e-01,-7.63187673427590e-06
6.14750072515216e-02	9.99952923417827e-01,-7.68496063492161e-06
6.19025997416968e-02	9.99952923417002e-01,-7.73841376329534e-06
6.23331663728412e-02	9.99952923416166e-01,-7.79223868757903e-06
6.27667278317413e-02	9.99952923415319e-01,-7.84643799381774e-06
6.32033049490714e-02	9.99952923414459e-01,-7.90101428604389e-06
6.36429187003947e-02	9.99952923413588e-01,-7.95597018640238e-06
6.40855902071710e-02	9.99952923412704e-01,-8.01130833527659e-06
6.45313407377713e-02	9.99952923411808e-01,-8.06703139141518e-06
6.49801917085001e-02	9.99952923410899e-01,-8.12314203205991e-06
6.54321646846237e-02	9.99952923409979e-01,-8.17964295307421e-06
6.58872813814071e-02	9.99952923409044e-01,-8.23653686907271e-06
6.63455636651566e-02	9.99952923408097e-01,-8.29382651355170e-06
6.68070335542709e-02	9.99952923407137e-01,-8.35151463902044e-06
6.72717132202985e-02	9.99952923406163e-01,-8.40960401713337e-06
6.77396249890035e-02	9.99952923405176e-01,-8.46809743882336e-06
6.82107913414379e-02	9.99952923404175e-01,-8.52699771443574e-06
6.86852349150217e-02	9.99952923403160e-01,-8.58630767386331e-06
6.91629785046306e-02	9.99952923402131e-01,-8.64603016668236e-06
6.96440450636913e-02	9.99952923401087e-01,-8.70616806228953e-06
7.01284577052842e-02	9.99952923400029e-01,-8.76672425003972e-06
7.06162397032538e-02	9.99952923398956e-01,-8.82770163938485e-06
7.11074144933271e-02	9.99952923397868e-01,-8.88910316001370e-06
7.16020056742393e-02	9.99952923396765e-01,-8.95093176199264e-06
7.21000370088679e-02	9.99952923395647e-01,-9.01319041590737e-06
7.26015324253744e-02	9.99952923394513e-01,-9.07588211300566e-06
7.31065160183536e-02	9.99952923393363e-01,-9.13900986534104e-06
7.36150120499915e-02	9.99952923392197e-01,-9.20257670591754e-06
7.41270449512312e-02	9.99952923391014e-01,-9.26658568883538e-06
7.46426393229462e-02	9.99952923389816e-01,-9.33103988943777e-06
7.51618199371225e-02	9.99952923388600e-01,-9.39594240445857e-06
7.56846117380493e-02	9.99952923387368e-01,-9.46129635217117e-06
7.62110398435166e-02	9.99952923386118e-01,-9.52710487253825e-06
7.67411295460228e-02	9.99952923384851e-01,-9.59337112736264e-06
7.72749063139893e-02	9.99952923383566e-01,-9.66009830043927e-06
7.78123957929845e-02	9.99952923382264e-01,-9.72728959770814e-06
7.83536238069558e-02	9.99952923380943e-01,-9.79494824740826e-06
7.88986163594704e-02	9.99952923379603e-01,-9.86307750023287e-06
7.94473996349646e-02	9.99952923378245e-01,-9.93168062948555e-06
8.00000000000017e-02	9.99952923376868e-01,-1.00007609312375e-05
8.05564440045393e-02	9.99952923375472e-01,-1.00703217244859e-05
8.11167583832041e-02	9.99952923374056e-01,-1.01403663513135e-05
8.16809700565772e-02	9.99952923372621e-01,-1.02108981770489e-05
8.22491061324871e-02	9.99952923371165e-01,-1.02819205904284e-05
8.28211939073120e-02	9.99952923369690e-01,-1.03534370037591e-05
8.33972608672915e-02	9.99952923368193e-01,-1.04254508530822e-05
8.39773346898472e-02	9.99952923366676e-01,-1.04979655983388e-05
8.45614432449123e-02	9.99952923365137e-01,-1.05709847235355e-05
8.51496145962707e-02	9.99952923363577e-01,-1.06445117369122e-05
8.57418770029054e-02	9.99952923361995e-01,-1.07185501711107e-05
8.63382589203561e-02	9.99952923360392e-01,-1.07931035833440e-05
