Freq.	V(rl)
1.00000000000000e+00	4.98507492284186e-01,-1.57268752206239e-02
1.00069338746258e+00	4.98505474383004e-01,-1.57375899409901e-02
1.00138725571133e+00	4.98503453731748e-01,-1.57483116996251e-02
1.00208160507963e+00	4.98501430326739e-01,-1.57590405008973e-02
1.00277643590108e+00	4.98499404164322e-01,-1.57697763486786e-02
1.00347174850950e+00	4.98497375240803e-01,-1.57805192471198e-02
1.00416754323897e+00	4.98495343552480e-01,-1.57912692002984e-02
1.00486382042379e+00	4.98493309095627e-01,-1.58020262121465e-02
1.00556058039847e+00	4.98491271866568e-01,-1.58127902870223e-02
1.00625782349778e+00	4.98489231861604e-01,-1.58235614288556e-02
1.00695555005672e+00	4.98487189076984e-01,-1.58343396417830e-02
1.00765376041051e+00	4.98485143509030e-01,-1.58451249298023e-02
1.00835245489460e+00	4.98483095153990e-01,-1.58559172973294e-02
1.00905163384468e+00	4.98481044008147e-01,-1.58667167480012e-02
1.00975129759669e+00	4.98478990067780e-01,-1.58775232863020e-02
1.01045144648677e+00	4.98476933329144e-01,-1.58883369160045e-02
1.01115208085131e+00	4.98474873788492e-01,-1.58991576413039e-02
1.01185320102693e+00	4.98472811442092e-01,-1.59099854666068e-02
1.01255480735050e+00	4.98470746286157e-01,-1.59208203954642e-02
1.01325690015909e+00	4.98468678316971e-01,-1.59316624325630e-02
1.01395947979003e+00	4.98466607530734e-01,-1.59425115815197e-02
1.01466254658088e+00	4.98464533923727e-01,-1.59533678466626e-02
1.01536610086943e+00	4.98462457492138e-01,-1.59642312321699e-02
1.01607014299370e+00	4.98460378232223e-01,-1.59751017419389e-02
1.01677467329196e+00	4.98458296140156e-01,-1.59859793802138e-02
1.01747969210269e+00	4.98456211212210e-01,-1.59968641511716e-02
1.01818519976462e+00	4.98454123444558e-01,-1.60077560586272e-02
1.01889119661673e+00	4.98452032833403e-01,-1.60186551070324e-02
1.01959768299819e+00	4.98449939374952e-01,-1.60295613004831e-02
1.02030465924846e+00	4.98447843065394e-01,-1.60404746427885e-02
1.02101212570720e+00	4.98445743900946e-01,-1.60513951383238e-02
1.02172008271430e+00	4.98443641877778e-01,-1.60623227910345e-02
1.02242853060993e+00	4.98441536992049e-01,-1.60732576050754e-02
1.02313746973444e+00	4.98439429239953e-01,-1.60841995848140e-02
1.02384690042845e+00	4.98437318617665e-01,-1.60951487340475e-02
1.02455682303281e+00	4.98435205121347e-01,-1.61061050570662e-02
1.02526723788860e+00	4.98433088747158e-01,-1.61170685578745e-02
1.02597814533714e+00	4.98430969491279e-01,-1.61280392407592e-02
1.02668954572000e+00	4.98428847349789e-01,-1.61390171097154e-02
1.02740143937897e+00	4.98426722318880e-01,-1.61500021688137e-02
1.02811382665607e+00	4.98424594394720e-01,-1.61609944223337e-02
1.02882670789358e+00	4.98422463573391e-01,-1.61719938744053e-02
1.02954008343400e+00	4.98420329851081e-01,-1.61830005289507e-02
1.03025395362008e+00	4.98418193223885e-01,-1.61940143903089e-02
1.03096831879479e+00	4.98416053687892e-01,-1.62050354625329e-02
1.03168317930136e+00	4.98413911239268e-01,-1.62160637498200e-02
1.03239853548325e+00	4.98411765874139e-01,-1.62270992562209e-02
1.03311438768414e+00	4.98409617588539e-01,-1.62381419858494e-02
1.03383073624797e+00	4.98407466378615e-01,-1.62491919429656e-02
1.03454758151891e+00	4.98405312240475e-01,-1.62602491315415e-02
1.03526492384138e+00	4.98403155170178e-01,-1.62713135557563e-02
1.03598276356002e+00	4.98400995163831e-01,-1.62823852198609e-02
1.03670110101973e+00	4.98398832217512e-01,-1.62934641278895e-02
1.03741993656562e+00	4.98396666327308e-01,-1.63045502840869e-02
1.03813927054306e+00	4.98394497489245e-01,-1.63156436924795e-02
1.03885910329767e+00	4.98392325699440e-01,-1.63267443570971e-02
1.03957943517528e+00	4.98390150953920e-01,-1.63378522825989e-02
1.04030026652199e+00	4.98387973248768e-01,-1.63489674724413e-02
1.04102159768412e+00	4.98385792580045e-01,-1.63600899311395e-02
1.04174342900823e+00	4.98383608943754e-01,-1.63712196628483e-02
1.04246576084113e+00	4.98381422335943e-01,-1.63823566717232e-02
1.04318859352986e+00	4.98379232752686e-01,-1.63935009619901e-02
1.04391192742173e+00	4.98377040189972e-01,-1.64046525373709e-02
1.04463576286424e+00	4.98374844643833e-01,-1.64158114024381e-02
1.04536010020517e+00	4.98372646110344e-01,-1.64269775611980e-02
1.04608493979254e+00	4.98370444585446e-01,-1.64381510178584e-02
1.04681028197458e+00	4.98368240065185e-01,-1.64493317765607e-02
1.04753612709981e+00	4.98366032545558e-01,-1.64605198412991e-02
1.04826247551694e+00	4.98363822022567e-01,-1.64717152164908e-02
1.04898932757495e+00	4.98361608492234e-01,-1.64829179062684e-02
1.04971668362308e+00	4.98359391950495e-01,-1.64941279145443e-02
1.05044454401076e+00	4.98357172393357e-01,-1.65053452456582e-02
1.05117290908771e+00	4.98354949816852e-01,-1.65165699036655e-02
1.05190177920388e+00	4.98352724216893e-01,-1.65278018929657e-02
1.05263115470945e+00	4.98350495589449e-01,-1.65390412174638e-02
1.05336103595484e+00	4.98348263930505e-01,-1.65502878815591e-02
1.05409142329075e+00	4.98346029236018e-01,-1.65615418891512e-02
1.05482231706807e+00	4.98343791501941e-01,-1.65728032444201e-02
1.05555371763798e+00	4.98341550724226e-01,-1.65840719518975e-02
1.05628562535187e+00	4.98339306898804e-01,-1.65953480154032e-02
1.05701804056139e+00	4.98337060021638e-01,-1.66066314391105e-02
1.05775096361844e+00	4.98334810088635e-01,-1.66179222274703e-02
1.05848439487514e+00	4.98332557095733e-01,-1.66292203842246e-02
1.05921833468389e+00	4.98330301038862e-01,-1.66405259139624e-02
1.05995278339729e+00	4.98328041913920e-01,-1.66518388206308e-02
1.06068774136823e+00	4.98325779716850e-01,-1.66631591084607e-02
1.06142320894980e+00	4.98323514443539e-01,-1.66744867815351e-02
1.06215918649538e+00	4.98321246089885e-01,-1.66858218443604e-02
1.06289567435856e+00	4.98318974651796e-01,-1.66971643006622e-02
1.06363267289320e+00	4.98316700125151e-01,-1.67085141549404e-02
1.06437018245337e+00	4.98314422505848e-01,-1.67198714110568e-02
1.06510820339343e+00	4.98312141789774e-01,-1.67312360736487e-02
1.06584673606795e+00	4.98309857972786e-01,-1.67426081464992e-02
1.06658578083178e+00	4.98307571050765e-01,-1.67539876340279e-02
1.06732533803997e+00	4.98305281019589e-01,-1.67653745402267e-02
1.06806540804786e+00	4.98302987875104e-01,-1.67767688693664e-02
1.06880599121102e+00	4.98300691613149e-01,-1.67881706257146e-02
1.06954708788526e+00	4.98298392229609e-01,-1.67995798133272e-02
1.07028869842664e+00	4.98296089720301e-01,-1.68109964365361e-02
1.07103082319147e+00	4.98293784081085e-01,-1.68224204994614e-02
1.07177346253630e+00	4.98291475307755e-01,-1.68338520062162e-02
1.07251661681795e+00	4.98289163396198e-01,-1.68452909610587e-02
1.07326028639347e+00	4.98286848342198e-01,-1.68567373680963e-02
1.07400447162014e+00	4.98284530141562e-01,-1.68681912317896e-02
1.07474917285551e+00	4.98282208790145e-01,-1.68796525559621e-02
1.07549439045739e+00	4.98279884283706e-01,-1.68911213449954e-02
1.07624012478381e+00	4.98277556618088e-01,-1.69025976031320e-02
1.07698637619306e+00	4.98275225789061e-01,-1.69140813345368e-02
1.07773314504368e+00	4.98272891792430e-01,-1.69255725432321e-02
1.07848043169446e+00	4.98270554623989e-01,-1.69370712336625e-02
1.07922823650444e+00	4.98268214279481e-01,-1.69485774099121e-02
1.07997655983289e+00	4.98265870754725e-01,-1.69600910762092e-02
1.08072540203936e+00	4.98263524045473e-01,-1.69716122368461e-02
1.08147476348363e+00	4.98261174147468e-01,-1.69831408956870e-02
1.08222464452573e+00	4.98258821056524e-01,-1.69946770573060e-02
1.08297504552594e+00	4.98256464768328e-01,-1.70062207257000e-02
1.08372596684479e+00	4.98254105278666e-01,-1.70177719052947e-02
1.08447740884308e+00	4.98251742583283e-01,-1.70293305998731e-02
1.08522937188182e+00	4.98249376677881e-01,-1.70408968141334e-02
1.08598185632231e+00	4.98247007558252e-01,-1.70524705519273e-02
1.08673486252607e+00	4.98244635220074e-01,-1.70640518176629e-02
1.08748839085490e+00	4.98242259659077e-01,-1.70756406153949e-02
1.08824244167082e+00	4.98239880871003e-01,-1.70872369494596e-02
1.08899701533612e+00	4.98237498851499e-01,-1.70988408239718e-02
1.08975211221334e+00	4.98235113596370e-01,-1.71104522433375e-02
1.09050773266527e+00	4.98232725101222e-01,-1.71220712114510e-02
1.09126387705495e+00	4.98230333361792e-01,-1.71336977327794e-02
1.09202054574567e+00	4.98227938373746e-01,-1.71453318114989e-02
1.09277773910097e+00	4.98225540132799e-01,-1.71569734517156e-02
1.09353545748465e+00	4.98223138634609e-01,-1.71686226576708e-02
1.09429370126075e+00	4.98220733874851e-01,-1.71802794336748e-02
1.09505247079359e+00	4.98218325849203e-01,-1.71919437838943e-02
1.09581176644771e+00	4.98215914553271e-01,-1.72036157125589e-02
1.09657158858791e+00	4.98213499982794e-01,-1.72152952238337e-02
1.09733193757926e+00	4.98211082133350e-01,-1.72269823219412e-02
1.09809281378706e+00	4.98208661000628e-01,-1.72386770112502e-02
1.09885421757689e+00	4.98206236580266e-01,-1.72503792956986e-02
1.09961614931457e+00	4.98203808867866e-01,-1.72620891798562e-02
1.10037860936615e+00	4.98201377859087e-01,-1.72738066677278e-02
1.10114159809798e+00	4.98198943549518e-01,-1.72855317635228e-02
1.10190511587663e+00	4.98196505934832e-01,-1.72972644716664e-02
1.10266916306893e+00	4.98194065010581e-01,-1.73090047960768e-02
1.10343374004198e+00	4.98191620772379e-01,-1.73207527412405e-02
1.10419884716311e+00	4.98189173215870e-01,-1.73325083111474e-02
1.10496448479993e+00	4.98186722336607e-01,-1.73442715102034e-02
1.10573065332029e+00	4.98184268130200e-01,-1.73560423427445e-02
1.10649735309229e+00	4.98181810592213e-01,-1.73678208128888e-02
1.10726458448430e+00	4.98179349718248e-01,-1.73796069246124e-02
1.10803234786494e+00	4.98176885503858e-01,-1.73914006824516e-02
1.10880064360309e+00	4.98174417944607e-01,-1.74032020906576e-02
1.10956947206786e+00	4.98171947036065e-01,-1.74150111533376e-02
1.11033883362866e+00	4.98169472773795e-01,-1.74268278745956e-02
1.11110872865511e+00	4.98166995153363e-01,-1.74386522589577e-02
1.11187915751712e+00	4.98164514170246e-01,-1.74504843105871e-02
1.11265012058485e+00	4.98162029820048e-01,-1.74623240336531e-02
1.11342161822870e+00	4.98159542098288e-01,-1.74741714322452e-02
1.11419365081935e+00	4.98157051000462e-01,-1.74860265108737e-02
1.11496621872772e+00	4.98154556522122e-01,-1.74978892736249e-02
1.11573932232498e+00	4.98152058658774e-01,-1.75097597247208e-02
1.11651296198259e+00	4.98149557405956e-01,-1.75216378685242e-02
1.11728713807224e+00	4.98147052759117e-01,-1.75335237091767e-02
1.11806185096588e+00	4.98144544713810e-01,-1.75454172508951e-02
1.11883710103573e+00	4.98142033265481e-01,-1.75573184980981e-02
1.11961288865426e+00	4.98139518409647e-01,-1.75692274548526e-02
1.12038921419420e+00	4.98137000141786e-01,-1.75811441254325e-02
1.12116607802853e+00	4.98134478457365e-01,-1.75930685141077e-02
1.12194348053050e+00	4.98131953351862e-01,-1.76050006250047e-02
1.12272142207363e+00	4.98129424820763e-01,-1.76169404626725e-02
1.12349990303166e+00	4.98126892859482e-01,-1.76288880310147e-02
1.12427892377864e+00	4.98124357463503e-01,-1.76408433345744e-02
1.12505848468883e+00	4.98121818628262e-01,-1.76528063773927e-02
1.12583858613678e+00	4.98119276349203e-01,-1.76647771637916e-02
1.12661922849730e+00	4.98116730621763e-01,-1.76767556980188e-02
1.12740041214544e+00	4.98114181441386e-01,-1.76887419842490e-02
1.12818213745653e+00	4.98111628803468e-01,-1.77007360270044e-02
1.12896440480615e+00	4.98109072703453e-01,-1.77127378301706e-02
1.12974721457014e+00	4.98106513136744e-01,-1.77247473981231e-02
1.13053056712461e+00	4.98103950098746e-01,-1.77367647353049e-02
1.13131446284592e+00	4.98101383584852e-01,-1.77487898458018e-02
1.13209890211069e+00	4.98098813590478e-01,-1.77608227338396e-02
1.13288388529582e+00	4.98096240110993e-01,-1.77728634037086e-02
1.13366941277844e+00	4.98093663141809e-01,-1.77849118597701e-02
1.13445548493598e+00	4.98091082678278e-01,-1.77969681060240e-02
1.13524210214609e+00	4.98088498715780e-01,-1.78090321471067e-02
1.13602926478671e+00	4.98085911249686e-01,-1.78211039869429e-02
1.13681697323604e+00	4.98083320275352e-01,-1.78331836300194e-02
1.13760522787253e+00	4.98080725788127e-01,-1.78452710803951e-02
1.13839402907490e+00	4.98078127783381e-01,-1.78573663424102e-02
1.13918337722214e+00	4.98075526256434e-01,-1.78694694203988e-02
1.13997327269348e+00	4.98072921202646e-01,-1.78815803184113e-02
1.14076371586845e+00	4.98070312617343e-01,-1.78936990410590e-02
1.14155470712680e+00	4.98067700495816e-01,-1.79058255924524e-02
1.14234624684857e+00	4.98065084833429e-01,-1.79179599767042e-02
1.14313833541406e+00	4.98062465625463e-01,-1.79301021982009e-02
1.14393097320383e+00	4.98059842867261e-01,-1.79422522610477e-02
1.14472416059871e+00	4.98057216554102e-01,-1.79544101698374e-02
1.14551789797978e+00	4.98054586681286e-01,-1.79665759286659e-02
1.14631218572840e+00	4.98051953244106e-01,-1.79787495416256e-02
1.14710702422619e+00	4.98049316237834e-01,-1.79909310131579e-02
1.14790241385503e+00	4.98046675657770e-01,-1.80031203477037e-02
1.14869835499706e+00	4.98044031499166e-01,-1.80153175492014e-02
1.14949484803470e+00	4.98041383757294e-01,-1.80275226220836e-02
1.15029189335063e+00	4.98038732427431e-01,-1.80397355706383e-02
1.15108949132779e+00	4.98036077504792e-01,-1.80519563990754e-02
1.15188764234938e+00	4.98033418984685e-01,-1.80641851116791e-02
1.15268634679889e+00	4.98030756862304e-01,-1.80764217126517e-02
1.15348560506005e+00	4.98028091132913e-01,-1.80886662064092e-02
1.15428541751686e+00	4.98025421791718e-01,-1.81009185971488e-02
1.15508578455361e+00	4.98022748833972e-01,-1.81131788892795e-02
1.15588670655482e+00	4.98020072254855e-01,-1.81254470868485e-02
1.15668818390531e+00	4.98017392049616e-01,-1.81377231941171e-02
1.15749021699015e+00	4.98014708213465e-01,-1.81500072155530e-02
1.15829280619467e+00	4.98012020741566e-01,-1.81622991553342e-02
1.15909595190448e+00	4.98009329629146e-01,-1.81745990177815e-02
1.15989965450546e+00	4.98006634871380e-01,-1.81869068072094e-02
1.16070391438375e+00	4.98003936463470e-01,-1.81992225276473e-02
1.16150873192575e+00	4.98001234400543e-01,-1.82115461836828e-02
1.16231410751814e+00	4.97998528677825e-01,-1.82238777795533e-02
1.16312004154788e+00	4.97995819290455e-01,-1.82362173192746e-02
1.16392653440216e+00	4.97993106233620e-01,-1.82485648072164e-02
1.16473358646848e+00	4.97990389502408e-01,-1.82609202479506e-02
1.16554119813459e+00	4.97987669092014e-01,-1.82732836454165e-02
1.16634936978850e+00	4.97984944997600e-01,-1.82856550041141e-02
1.16715810181850e+00	4.97982217214247e-01,-1.82980343281804e-02
1.16796739461315e+00	4.97979485737101e-01,-1.83104216218955e-02
1.16877724856127e+00	4.97976750561281e-01,-1.83228168898172e-02
1.16958766405198e+00	4.97974011681948e-01,-1.83352201357249e-02
1.17039864147462e+00	4.97971269094143e-01,-1.83476313643767e-02
1.17121018121884e+00	4.97968522793029e-01,-1.83600505798285e-02
1.17202228367454e+00	4.97965772773658e-01,-1.83724777862665e-02
1.17283494923191e+00	4.97963019031154e-01,-1.83849129882329e-02
1.17364817828138e+00	4.97960261560564e-01,-1.83973561898362e-02
1.17446197121368e+00	4.97957500357023e-01,-1.84098073955418e-02
1.17527632841980e+00	4.97954735415561e-01,-1.84222666093798e-02
1.17609125029099e+00	4.97951966731247e-01,-1.84347338357336e-02
1.17690673721880e+00	4.97949194299160e-01,-1.84472090789839e-02
1.17772278959501e+00	4.97946418114349e-01,-1.84596923433646e-02
1.17853940781171e+00	4.97943638171863e-01,-1.84721836331767e-02
1.17935659226125e+00	4.97940854466743e-01,-1.84846829525763e-02
1.18017434333623e+00	4.97938066994013e-01,-1.84971903061391e-02
1.18099266142956e+00	4.97935275748715e-01,-1.85097056978727e-02
1.18181154693440e+00	4.97932480725876e-01,-1.85222291321342e-02
1.18263100024417e+00	4.97929681920504e-01,-1.85347606132054e-02
1.18345102175260e+00	4.97926879327627e-01,-1.85473001455072e-02
1.18427161185366e+00	4.97924072942231e-01,-1.85598477332423e-02
1.18509277094161e+00	4.97921262759326e-01,-1.85724033807531e-02
1.18591449941098e+00	4.97918448773883e-01,-1.85849670921634e-02
1.18673679765656e+00	4.97915630980915e-01,-1.85975388718799e-02
1.18755966607344e+00	4.97912809375401e-01,-1.86101187243034e-02
1.18838310505696e+00	4.97909983952299e-01,-1.86227066534758e-02
1.18920711500275e+00	4.97907154706574e-01,-1.86353026640733e-02
1.19003169630671e+00	4.97904321633216e-01,-1.86479067599918e-02
1.19085684936500e+00	4.97901484727153e-01,-1.86605189455438e-02
1.19168257457408e+00	4.97898643983344e-01,-1.86731392253242e-02
1.19250887233066e+00	4.97895799396720e-01,-1.86857676035680e-02
1.19333574303176e+00	4.97892950962244e-01,-1.86984040844387e-02
1.19416318707462e+00	4.97890098674814e-01,-1.87110486721622e-02
1.19499120485682e+00	4.97887242529366e-01,-1.87237013711054e-02
1.19581979677616e+00	4.97884382520825e-01,-1.87363621857015e-02
1.19664896323075e+00	4.97881518644103e-01,-1.87490311200965e-02
1.19747870461896e+00	4.97878650894103e-01,-1.87617081785027e-02
1.19830902133945e+00	4.97875779265692e-01,-1.87743933654805e-02
1.19913991379115e+00	4.97872903753806e-01,-1.87870866852375e-02
1.19997138237325e+00	4.97870024353306e-01,-1.87997881419022e-02
1.20080342748524e+00	4.97867141059081e-01,-1.88124977398842e-02
1.20163604952689e+00	4.97864253865998e-01,-1.88252154836589e-02
1.20246924889821e+00	4.97861362768939e-01,-1.88379413772041e-02
1.20330302599954e+00	4.97858467762728e-01,-1.88506754250556e-02
1.20413738123145e+00	4.97855568842267e-01,-1.88634176313272e-02
1.20497231499482e+00	4.97852666002352e-01,-1.88761680005455e-02
1.20580782769080e+00	4.97849759237866e-01,-1.88889265368867e-02
1.20664391972080e+00	4.97846848543619e-01,-1.89016932445176e-02
1.20748059148653e+00	4.97843933914441e-01,-1.89144681279568e-02
1.20831784338998e+00	4.97841015345173e-01,-1.89272511914374e-02
1.20915567583340e+00	4.97838092830617e-01,-1.89400424391150e-02
1.20999408921933e+00	4.97835166365568e-01,-1.89528418755657e-02
1.21083308395059e+00	4.97832235944849e-01,-1.89656495049396e-02
1.21167266043028e+00	4.97829301563248e-01,-1.89784653315221e-02
1.21251281906177e+00	4.97826363215569e-01,-1.89912893595254e-02
1.21335356024873e+00	4.97823420896566e-01,-1.90041215935084e-02
1.21419488439508e+00	4.97820474601039e-01,-1.90169620374633e-02
1.21503679190505e+00	4.97817524323743e-01,-1.90298106960125e-02
1.21587928318313e+00	4.97814570059436e-01,-1.90426675732796e-02
1.21672235863411e+00	4.97811611802908e-01,-1.90555326735992e-02
1.21756601866302e+00	4.97808649548874e-01,-1.90684060011552e-02
1.21841026367523e+00	4.97805683292109e-01,-1.90812875604153e-02
1.21925509407634e+00	4.97802713027323e-01,-1.90941773556971e-02
1.22010051027226e+00	4.97799738749257e-01,-1.91070753911754e-02
1.22094651266917e+00	4.97796760452625e-01,-1.91199816711611e-02
1.22179310167354e+00	4.97793778132204e-01,-1.91328962001071e-02
1.22264027769211e+00	4.97790791782605e-01,-1.91458189822385e-02
1.22348804113190e+00	4.97787801398613e-01,-1.91587500217186e-02
1.22433639240024e+00	4.97784806974899e-01,-1.91716893231229e-02
1.22518533190472e+00	4.97781808506134e-01,-1.91846368905283e-02
1.22603486005320e+00	4.97778805987050e-01,-1.91975927283307e-02
1.22688497725384e+00	4.97775799412282e-01,-1.92105568408089e-02
1.22773568391510e+00	4.97772788776539e-01,-1.92235292323850e-02
1.22858698044569e+00	4.97769774074435e-01,-1.92365099071874e-02
1.22943886725462e+00	4.97766755300685e-01,-1.92494988696310e-02
1.23029134475118e+00	4.97763732449912e-01,-1.92624961240143e-02
1.23114441334496e+00	4.97760705516770e-01,-1.92755016745632e-02
1.23199807344580e+00	4.97757674495886e-01,-1.92885155257105e-02
1.23285232546385e+00	4.97754639381913e-01,-1.93015376816040e-02
1.23370716980954e+00	4.97751600169454e-01,-1.93145681467375e-02
1.23456260689358e+00	4.97748556853148e-01,-1.93276069252854e-02
1.23541863712697e+00	4.97745509427597e-01,-1.93406540215221e-02
1.23627526092099e+00	4.97742457887412e-01,-1.93537094399657e-02
1.23713247868721e+00	4.97739402227170e-01,-1.93667731847042e-02
1.23799029083749e+00	4.97736342441504e-01,-1.93798452601086e-02
1.23884869778395e+00	4.97733278524978e-01,-1.93929256705407e-02
1.23970769993903e+00	4.97730210472150e-01,-1.94060144202169e-02
1.24056729771543e+00	4.97727138277627e-01,-1.94191115134594e-02
