Freq.	V(rc)
1.00000000000000e+00	2.92528319524021e-03,3.11421016335713e-02
1.00069338746258e+00	2.92930561079081e-03,3.11633162306544e-02
1.00138725571133e+00	2.93333350820634e-03,3.11845447581196e-02
1.00208160507963e+00	2.93736689484032e-03,3.12057872240338e-02
1.00277643590108e+00	2.94140577802466e-03,3.12270436364706e-02
1.00347174850950e+00	2.94545016511796e-03,3.12483140035024e-02
1.00416754323897e+00	2.94950006348363e-03,3.12695983332041e-02
1.00486382042379e+00	2.95355548048524e-03,3.12908966336525e-02
1.00556058039847e+00	2.95761642352278e-03,3.13122089129283e-02
1.00625782349778e+00	2.96168289997868e-03,3.13335351791154e-02
1.00695555005672e+00	2.96575491725760e-03,3.13548754402960e-02
1.00765376041051e+00	2.96983248276522e-03,3.13762297045604e-02
1.00835245489460e+00	2.97391560394276e-03,3.13975979799949e-02
1.00905163384468e+00	2.97800428819193e-03,3.14189802746941e-02
1.00975129759669e+00	2.98209854297741e-03,3.14403765967514e-02
1.01045144648677e+00	2.98619837572836e-03,3.14617869542642e-02
1.01115208085131e+00	2.99030379391010e-03,3.14832113553308e-02
1.01185320102693e+00	2.99441480501098e-03,3.15046498080523e-02
1.01255480735050e+00	2.99853141647451e-03,3.15261023205321e-02
1.01325690015909e+00	3.00265363582596e-03,3.15475689008766e-02
1.01395947979003e+00	3.00678147053202e-03,3.15690495571933e-02
1.01466254658088e+00	3.01091492811438e-03,3.15905442975951e-02
1.01536610086943e+00	3.01505401609449e-03,3.16120531301919e-02
1.01607014299370e+00	3.01919874198576e-03,3.16335760631016e-02
1.01677467329196e+00	3.02334911333297e-03,3.16551131044385e-02
1.01747969210269e+00	3.02750513768667e-03,3.16766642623255e-02
1.01818519976462e+00	3.03166682258356e-03,3.16982295448839e-02
1.01889119661673e+00	3.03583417561066e-03,3.17198089602362e-02
1.01959768299819e+00	3.04000720434205e-03,3.17414025165097e-02
1.02030465924846e+00	3.04418591634307e-03,3.17630102218341e-02
1.02101212570720e+00	3.04837031922499e-03,3.17846320843412e-02
1.02172008271430e+00	3.05256042058112e-03,3.18062681121641e-02
1.02242853060993e+00	3.05675622802783e-03,3.18279183134370e-02
1.02313746973444e+00	3.06095774920495e-03,3.18495826962980e-02
1.02384690042845e+00	3.06516499172548e-03,3.18712612688888e-02
1.02455682303281e+00	3.06937796324364e-03,3.18929540393509e-02
1.02526723788860e+00	3.07359667140512e-03,3.19146610158293e-02
1.02597814533714e+00	3.07782112388353e-03,3.19363822064718e-02
1.02668954572000e+00	3.08205132834315e-03,3.19581176194234e-02
1.02740143937897e+00	3.08628729246334e-03,3.19798672628387e-02
1.02811382665607e+00	3.09052902394657e-03,3.20016311448723e-02
1.02882670789358e+00	3.09477653049520e-03,3.20234092736763e-02
1.02954008343400e+00	3.09902981980843e-03,3.20452016574133e-02
1.03025395362008e+00	3.10328889962176e-03,3.20670083042405e-02
1.03096831879479e+00	3.10755377766210e-03,3.20888292223186e-02
1.03168317930136e+00	3.11182446167582e-03,3.21106644198150e-02
1.03239853548325e+00	3.11610095940955e-03,3.21325139048976e-02
1.03311438768414e+00	3.12038327862348e-03,3.21543776857309e-02
1.03383073624797e+00	3.12467142709762e-03,3.21762557704883e-02
1.03454758151891e+00	3.12896541260309e-03,3.21981481673443e-02
1.03526492384138e+00	3.13326524293412e-03,3.22200548844724e-02
1.03598276356002e+00	3.13757092589971e-03,3.22419759300507e-02
1.03670110101973e+00	3.14188246930466e-03,3.22639113122593e-02
1.03741993656562e+00	3.14619988097741e-03,3.22858610392802e-02
1.03813927054306e+00	3.15052316874191e-03,3.23078251192950e-02
1.03885910329767e+00	3.15485234043269e-03,3.23298035604936e-02
1.03957943517528e+00	3.15918740393482e-03,3.23517963710598e-02
1.04030026652199e+00	3.16352836706537e-03,3.23738035591887e-02
1.04102159768412e+00	3.16787523772020e-03,3.23958251330718e-02
1.04174342900823e+00	3.17222802378150e-03,3.24178611009010e-02
1.04246576084113e+00	3.17658673314176e-03,3.24399114708733e-02
1.04318859352986e+00	3.18095137370818e-03,3.24619762511898e-02
1.04391192742173e+00	3.18532195336478e-03,3.24840554500503e-02
1.04463576286424e+00	3.18969848006136e-03,3.25061490756567e-02
1.04536010020517e+00	3.19408096172100e-03,3.25282571362181e-02
1.04608493979254e+00	3.19846940628947e-03,3.25503796399366e-02
1.04681028197458e+00	3.20286382171877e-03,3.25725165950237e-02
1.04753612709981e+00	3.20726421596115e-03,3.25946680096911e-02
1.04826247551694e+00	3.21167059700671e-03,3.26168338921510e-02
1.04898932757495e+00	3.21608297283718e-03,3.26390142506208e-02
1.04971668362308e+00	3.22050135142956e-03,3.26612090933153e-02
1.05044454401076e+00	3.22492574079940e-03,3.26834184284550e-02
1.05117290908771e+00	3.22935614895384e-03,3.27056422642651e-02
1.05190177920388e+00	3.23379258393235e-03,3.27278806089642e-02
1.05263115470945e+00	3.23823505375229e-03,3.27501334707792e-02
1.05336103595484e+00	3.24268356647386e-03,3.27724008579377e-02
1.05409142329075e+00	3.24713813013443e-03,3.27946827786708e-02
1.05482231706807e+00	3.25159875280006e-03,3.28169792412098e-02
1.05555371763798e+00	3.25606544257028e-03,3.28392902537872e-02
1.05628562535187e+00	3.26053820750778e-03,3.28616158246391e-02
1.05701804056139e+00	3.26501705570905e-03,3.28839559620050e-02
1.05775096361844e+00	3.26950199529892e-03,3.29063106741215e-02
1.05848439487514e+00	3.27399303436579e-03,3.29286799692328e-02
1.05921833468389e+00	3.27849018106439e-03,3.29510638555813e-02
1.05995278339729e+00	3.28299344351713e-03,3.29734623414121e-02
1.06068774136823e+00	3.28750282987574e-03,3.29958754349746e-02
1.06142320894980e+00	3.29201834829226e-03,3.30183031445174e-02
1.06215918649538e+00	3.29654000695723e-03,3.30407454782902e-02
1.06289567435856e+00	3.30106781401975e-03,3.30632024445491e-02
1.06363267289320e+00	3.30560177769064e-03,3.30856740515474e-02
1.06437018245337e+00	3.31014190614874e-03,3.31081603075445e-02
1.06510820339343e+00	3.31468820763487e-03,3.31306612207978e-02
1.06584673606795e+00	3.31924069034328e-03,3.31531767995691e-02
1.06658578083178e+00	3.32379936252113e-03,3.31757070521211e-02
1.06732533803997e+00	3.32836423239752e-03,3.31982519867205e-02
1.06806540804786e+00	3.33293530823044e-03,3.32208116116327e-02
1.06880599121102e+00	3.33751259828815e-03,3.32433859351252e-02
1.06954708788526e+00	3.34209611083541e-03,3.32659749654715e-02
1.07028869842664e+00	3.34668585416566e-03,3.32885787109417e-02
1.07103082319147e+00	3.35128183656886e-03,3.33111971798120e-02
1.07177346253630e+00	3.35588406634469e-03,3.33338303803563e-02
1.07251661681795e+00	3.36049255181353e-03,3.33564783208565e-02
1.07326028639347e+00	3.36510730129571e-03,3.33791410095901e-02
1.07400447162014e+00	3.36972832314593e-03,3.34018184548374e-02
1.07474917285551e+00	3.37435562568691e-03,3.34245106648865e-02
1.07549439045739e+00	3.37898921728898e-03,3.34472176480189e-02
1.07624012478381e+00	3.38362910632411e-03,3.34699394125246e-02
1.07698637619306e+00	3.38827530116932e-03,3.34926759666911e-02
1.07773314504368e+00	3.39292781020281e-03,3.35154273188112e-02
1.07848043169446e+00	3.39758664184179e-03,3.35381934771773e-02
1.07922823650444e+00	3.40225180448961e-03,3.35609744500820e-02
1.07997655983289e+00	3.40692330657032e-03,3.35837702458246e-02
1.08072540203936e+00	3.41160115652268e-03,3.36065808727018e-02
1.08147476348363e+00	3.41628536276712e-03,3.36294063390139e-02
1.08222464452573e+00	3.42097593378312e-03,3.36522466530646e-02
1.08297504552594e+00	3.42567287802122e-03,3.36751018231541e-02
1.08372596684479e+00	3.43037620397217e-03,3.36979718575893e-02
1.08447740884308e+00	3.43508592009369e-03,3.37208567646794e-02
1.08522937188182e+00	3.43980203491612e-03,3.37437565527288e-02
1.08598185632231e+00	3.44452455692354e-03,3.37666712300539e-02
1.08673486252607e+00	3.44925349464800e-03,3.37896008049627e-02
1.08748839085490e+00	3.45398885660863e-03,3.38125452857709e-02
1.08824244167082e+00	3.45873065135449e-03,3.38355046807956e-02
1.08899701533612e+00	3.46347888742997e-03,3.38584789983504e-02
1.08975211221334e+00	3.46823357341084e-03,3.38814682467606e-02
1.09050773266527e+00	3.47299471784789e-03,3.39044724343424e-02
1.09126387705495e+00	3.47776232934241e-03,3.39274915694205e-02
1.09202054574567e+00	3.48253641648639e-03,3.39505256603177e-02
1.09277773910097e+00	3.48731698787813e-03,3.39735747153630e-02
1.09353545748465e+00	3.49210405213575e-03,3.39966387428828e-02
1.09429370126075e+00	3.49689761789309e-03,3.40197177512063e-02
1.09505247079359e+00	3.50169769378507e-03,3.40428117486657e-02
1.09581176644771e+00	3.50650428846150e-03,3.40659207435901e-02
1.09657158858791e+00	3.51131741057935e-03,3.40890447443199e-02
1.09733193757926e+00	3.51613706880967e-03,3.41121837591864e-02
1.09809281378706e+00	3.52096327184503e-03,3.41353377965295e-02
1.09885421757689e+00	3.52579602835918e-03,3.41585068646903e-02
1.09961614931457e+00	3.53063534708007e-03,3.41816909720057e-02
1.10037860936615e+00	3.53548123670808e-03,3.42048901268218e-02
1.10114159809798e+00	3.54033370596833e-03,3.42281043374806e-02
1.10190511587663e+00	3.54519276361222e-03,3.42513336123308e-02
1.10266916306893e+00	3.55005841836670e-03,3.42745779597174e-02
1.10343374004198e+00	3.55493067900919e-03,3.42978373879889e-02
1.10419884716311e+00	3.55980955429408e-03,3.43211119054999e-02
1.10496448479993e+00	3.56469505301512e-03,3.43444015205994e-02
1.10573065332029e+00	3.56958718397259e-03,3.43677062416417e-02
1.10649735309229e+00	3.57448595596258e-03,3.43910260769817e-02
1.10726458448430e+00	3.57939137778265e-03,3.44143610349792e-02
1.10803234786494e+00	3.58430345827998e-03,3.44377111239899e-02
1.10880064360309e+00	3.58922220629327e-03,3.44610763523736e-02
1.10956947206786e+00	3.59414763066237e-03,3.44844567284932e-02
1.11033883362866e+00	3.59907974023802e-03,3.45078522607129e-02
1.11110872865511e+00	3.60401854391147e-03,3.45312629573971e-02
1.11187915751712e+00	3.60896405055954e-03,3.45546888269077e-02
1.11265012058485e+00	3.61391626907127e-03,3.45781298776174e-02
1.11342161822870e+00	3.61887520834091e-03,3.46015861178948e-02
1.11419365081935e+00	3.62384087730318e-03,3.46250575561074e-02
1.11496621872772e+00	3.62881328487472e-03,3.46485442006300e-02
1.11573932232498e+00	3.63379243999269e-03,3.46720460598358e-02
1.11651296198259e+00	3.63877835161549e-03,3.46955631421012e-02
1.11728713807224e+00	3.64377102869692e-03,3.47190954557994e-02
1.11806185096588e+00	3.64877048020781e-03,3.47426430093124e-02
1.11883710103573e+00	3.65377671514390e-03,3.47662058110154e-02
1.11961288865426e+00	3.65878974248802e-03,3.47897838692923e-02
1.12038921419420e+00	3.66380957124857e-03,3.48133771925252e-02
1.12116607802853e+00	3.66883621044499e-03,3.48369857890970e-02
1.12194348053050e+00	3.67386966909805e-03,3.48606096673940e-02
1.12272142207363e+00	3.67890995626959e-03,3.48842488358031e-02
1.12349990303166e+00	3.68395708098718e-03,3.49079033027105e-02
1.12427892377864e+00	3.68901105233503e-03,3.49315730765066e-02
1.12505848468883e+00	3.69407187937324e-03,3.49552581655824e-02
1.12583858613678e+00	3.69913957119315e-03,3.49789585783298e-02
1.12661922849730e+00	3.70421413689224e-03,3.50026743231426e-02
1.12740041214544e+00	3.70929558557432e-03,3.50264054084170e-02
1.12818213745653e+00	3.71438392637897e-03,3.50501518425460e-02
1.12896440480615e+00	3.71947916841254e-03,3.50739136339309e-02
1.12974721457014e+00	3.72458132082723e-03,3.50976907909694e-02
1.13053056712461e+00	3.72969039279154e-03,3.51214833220606e-02
1.13131446284592e+00	3.73480639346018e-03,3.51452912356065e-02
1.13209890211069e+00	3.73992933200939e-03,3.51691145400118e-02
1.13288388529582e+00	3.74505921763129e-03,3.51929532436790e-02
1.13366941277844e+00	3.75019605953477e-03,3.52168073550152e-02
1.13445548493598e+00	3.75533986691440e-03,3.52406768824268e-02
1.13524210214609e+00	3.76049064902159e-03,3.52645618343206e-02
1.13602926478671e+00	3.76564841506884e-03,3.52884622191082e-02
1.13681697323604e+00	3.77081317432002e-03,3.53123780451986e-02
1.13760522787253e+00	3.77598493602023e-03,3.53363093210046e-02
1.13839402907490e+00	3.78116370944629e-03,3.53602560549406e-02
1.13918337722214e+00	3.78634950388598e-03,3.53842182554190e-02
1.13997327269348e+00	3.79154232861874e-03,3.54081959308584e-02
1.14076371586845e+00	3.79674219297547e-03,3.54321890896735e-02
1.14155470712680e+00	3.80194910626292e-03,3.54561977402809e-02
1.14234624684857e+00	3.80716307780001e-03,3.54802218911040e-02
1.14313833541406e+00	3.81238411693650e-03,3.55042615505603e-02
1.14393097320383e+00	3.81761223301411e-03,3.55283167270753e-02
1.14472416059871e+00	3.82284743542082e-03,3.55523874290686e-02
1.14551789797978e+00	3.82808973352096e-03,3.55764736649655e-02
1.14631218572840e+00	3.83333913669028e-03,3.56005754431926e-02
1.14710702422619e+00	3.83859565434123e-03,3.56246927721747e-02
1.14790241385503e+00	3.84385929589818e-03,3.56488256603401e-02
1.14869835499706e+00	3.84913007076100e-03,3.56729741161182e-02
1.14949484803470e+00	3.85440798837693e-03,3.56971381479383e-02
1.15029189335063e+00	3.85969305819473e-03,3.57213177642329e-02
1.15108949132779e+00	3.86498528966902e-03,3.57455129734315e-02
1.15188764234938e+00	3.87028469227215e-03,3.57697237839720e-02
1.15268634679889e+00	3.87559127548181e-03,3.57939502042857e-02
1.15348560506005e+00	3.88090504880338e-03,3.58181922428094e-02
1.15428541751686e+00	3.88622602173804e-03,3.58424499079786e-02
1.15508578455361e+00	3.89155420381442e-03,3.58667232082322e-02
1.15588670655482e+00	3.89688960454659e-03,3.58910121520077e-02
1.15668818390531e+00	3.90223223347636e-03,3.59153167477477e-02
1.15749021699015e+00	3.90758210017219e-03,3.59396370038924e-02
1.15829280619467e+00	3.91293921419335e-03,3.59639729288818e-02
1.15909595190448e+00	3.91830358512177e-03,3.59883245311611e-02
1.15989965450546e+00	3.92367522255062e-03,3.60126918191732e-02
1.16070391438375e+00	3.92905413606457e-03,3.60370748013661e-02
1.16150873192575e+00	3.93444033530036e-03,3.60614734861808e-02
1.16231410751814e+00	3.93983382988193e-03,3.60858878820685e-02
1.16312004154788e+00	3.94523462942870e-03,3.61103179974772e-02
1.16392653440216e+00	3.95064274359810e-03,3.61347638408577e-02
1.16473358646848e+00	3.95605818207381e-03,3.61592254206538e-02
1.16554119813459e+00	3.96148095450620e-03,3.61837027453222e-02
1.16634936978850e+00	3.96691107059832e-03,3.62081958233152e-02
1.16715810181850e+00	3.97234854003852e-03,3.62327046630830e-02
1.16796739461315e+00	3.97779337253801e-03,3.62572292730808e-02
1.16877724856127e+00	3.98324557784030e-03,3.62817696617620e-02
1.16958766405198e+00	3.98870516564444e-03,3.63063258375885e-02
1.17039864147462e+00	3.99417214573248e-03,3.63308978090095e-02
1.17121018121884e+00	3.99964652784804e-03,3.63554855844882e-02
1.17202228367454e+00	4.00512832175582e-03,3.63800891724806e-02
1.17283494923191e+00	4.01061753725919e-03,3.64047085814473e-02
1.17364817828138e+00	4.01611418414158e-03,3.64293438198466e-02
1.17446197121368e+00	4.02161827222531e-03,3.64539948961432e-02
1.17527632841980e+00	4.02712981131243e-03,3.64786618187973e-02
1.17609125029099e+00	4.03264881124339e-03,3.65033445962716e-02
1.17690673721880e+00	4.03817528187082e-03,3.65280432370310e-02
1.17772278959501e+00	4.04370923304868e-03,3.65527577495400e-02
1.17853940781171e+00	4.04925067464815e-03,3.65774881422641e-02
1.17935659226125e+00	4.05479961654206e-03,3.66022344236703e-02
1.18017434333623e+00	4.06035606864636e-03,3.66269966022235e-02
1.18099266142956e+00	4.06592004084762e-03,3.66517746863939e-02
1.18181154693440e+00	4.07149154307042e-03,3.66765686846504e-02
1.18263100024417e+00	4.07707058524607e-03,3.67013786054618e-02
1.18345102175260e+00	4.08265717732869e-03,3.67262044572991e-02
1.18427161185366e+00	4.08825132926841e-03,3.67510462486323e-02
1.18509277094161e+00	4.09385305103830e-03,3.67759039879341e-02
1.18591449941098e+00	4.09946235260741e-03,3.68007776836764e-02
1.18673679765656e+00	4.10507924397843e-03,3.68256673443338e-02
1.18755966607344e+00	4.11070373516594e-03,3.68505729783800e-02
1.18838310505696e+00	4.11633583617020e-03,3.68754945942897e-02
1.18920711500275e+00	4.12197555705113e-03,3.69004322005364e-02
1.19003169630671e+00	4.12762290782331e-03,3.69253858056006e-02
1.19085684936500e+00	4.13327789854445e-03,3.69503554179571e-02
1.19168257457408e+00	4.13894053930598e-03,3.69753410460828e-02
1.19250887233066e+00	4.14461084018494e-03,3.70003426984553e-02
1.19333574303176e+00	4.15028881126581e-03,3.70253603835563e-02
1.19416318707462e+00	4.15597446264989e-03,3.70503941098636e-02
1.19499120485682e+00	4.16166780446179e-03,3.70754438858579e-02
1.19581979677616e+00	4.16736884684364e-03,3.71005097200199e-02
1.19664896323075e+00	4.17307759992866e-03,3.71255916208321e-02
1.19747870461896e+00	4.17879407386758e-03,3.71506895967770e-02
1.19830902133945e+00	4.18451827884963e-03,3.71758036563336e-02
1.19913991379115e+00	4.19025022505071e-03,3.72009338079889e-02
1.19997138237325e+00	4.19598992265299e-03,3.72260800602261e-02
1.20080342748524e+00	4.20173738187258e-03,3.72512424215298e-02
1.20163604952689e+00	4.20749261294313e-03,3.72764209003837e-02
1.20246924889821e+00	4.21325562607370e-03,3.73016155052763e-02
1.20330302599954e+00	4.21902643152767e-03,3.73268262446899e-02
1.20413738123145e+00	4.22480503954991e-03,3.73520531271159e-02
1.20497231499482e+00	4.23059146042847e-03,3.73772961610363e-02
1.20580782769080e+00	4.23638570443831e-03,3.74025553549429e-02
1.20664391972080e+00	4.24218778186606e-03,3.74278307173229e-02
1.20748059148653e+00	4.24799770303774e-03,3.74531222566639e-02
1.20831784338998e+00	4.25381547827078e-03,3.74784299814571e-02
1.20915567583340e+00	4.25964111788928e-03,3.75037539001921e-02
1.20999408921933e+00	4.26547463226198e-03,3.75290940213565e-02
1.21083308395059e+00	4.27131603173842e-03,3.75544503534434e-02
1.21167266043028e+00	4.27716532669102e-03,3.75798229049434e-02
1.21251281906177e+00	4.28302252749968e-03,3.76052116843499e-02
1.21335356024873e+00	4.28888764458311e-03,3.76306167001511e-02
1.21419488439508e+00	4.29476068833032e-03,3.76560379608429e-02
1.21503679190505e+00	4.30064166919071e-03,3.76814754749154e-02
1.21587928318313e+00	4.30653059758886e-03,3.77069292508622e-02
1.21672235863411e+00	4.31242748397849e-03,3.77323992971795e-02
1.21756601866302e+00	4.31833233881436e-03,3.77578856223591e-02
1.21841026367523e+00	4.32424517258620e-03,3.77833882348968e-02
1.21925509407634e+00	4.33016599578493e-03,3.78089071432852e-02
1.22010051027226e+00	4.33609481890379e-03,3.78344423560209e-02
1.22094651266917e+00	4.34203165245923e-03,3.78599938815985e-02
1.22179310167354e+00	4.34797650699199e-03,3.78855617285172e-02
1.22264027769211e+00	4.35392939303748e-03,3.79111459052661e-02
1.22348804113190e+00	4.35989032114051e-03,3.79367464203484e-02
1.22433639240024e+00	4.36585930188978e-03,3.79623632822571e-02
1.22518533190472e+00	4.37183634584897e-03,3.79879964994888e-02
1.22603486005320e+00	4.37782146361966e-03,3.80136460805439e-02
1.22688497725384e+00	4.38381466580701e-03,3.80393120339167e-02
1.22773568391510e+00	4.38981596304073e-03,3.80649943681069e-02
1.22858698044569e+00	4.39582536594064e-03,3.80906930916099e-02
1.22943886725462e+00	4.40184288516228e-03,3.81164082129272e-02
1.23029134475118e+00	4.40786853136492e-03,3.81421397405553e-02
1.23114441334496e+00	4.41390231521563e-03,3.81678876829938e-02
1.23199807344580e+00	4.41994424741043e-03,3.81936520487400e-02
1.23285232546385e+00	4.42599433863682e-03,3.82194328462954e-02
1.23370716980954e+00	4.43205259962188e-03,3.82452300841563e-02
1.23456260689358e+00	4.43811904108154e-03,3.82710437708243e-02
1.23541863712697e+00	4.44419367375253e-03,3.82968739147987e-02
1.23627526092099e+00	4.45027650840369e-03,3.83227205245779e-02
1.23713247868721e+00	4.45636755578379e-03,3.83485836086616e-02
1.23799029083749e+00	4.46246682667707e-03,3.83744631755523e-02
1.23884869778395e+00	4.46857433188003e-03,3.84003592337481e-02
1.23970769993903e+00	4.47469008219119e-03,3.84262717917481e-02
1.24056729771543e+00	4.48081408843094e-03,3.84522008580550e-02
1.24142749152615e+00	4.48694636144589e-03,3.84781464411678e-02
1.24228828178448e+00	4.49308691205711e-03,3.85041085495870e-02
1.24314966890398e+00	4.49923575114831e-03,3.85300871918114e-02
1.24401165329851e+00	4.50539288957288e-03,3.85560823763465e-02
1.24487423538221e+00	4.51155833822355e-03,3.85820941116883e-02
