Freq.	V(n001)
1.00000000000000e+00	1.00000000000000e+00,0.00000000000000e+00
1.00069338746258e+00	1.00000000000000e+00,0.00000000000000e+00
1.00138725571133e+00	1.00000000000000e+00,0.00000000000000e+00
1.00208160507963e+00	1.00000000000000e+00,-3.46944695195361e-18
1.00277643590108e+00	1.00000000000000e+00,0.00000000000000e+00
1.00347174850950e+00	1.00000000000000e+00,3.46944695195361e-18
1.00416754323897e+00	1.00000000000000e+00,-3.46944695195361e-18
1.00486382042379e+00	1.00000000000000e+00,3.46944695195361e-18
1.00556058039847e+00	1.00000000000000e+00,0.00000000000000e+00
1.00625782349778e+00	1.00000000000000e+00,0.00000000000000e+00
1.00695555005672e+00	1.00000000000000e+00,0.00000000000000e+00
1.00765376041051e+00	1.00000000000000e+00,-3.46944695195361e-18
1.00835245489460e+00	1.00000000000000e+00,3.46944695195361e-18
1.00905163384468e+00	1.00000000000000e+00,-3.46944695195361e-18
1.00975129759669e+00	1.00000000000000e+00,0.00000000000000e+00
1.01045144648677e+00	1.00000000000000e+00,3.46944695195361e-18
1.01115208085131e+00	1.00000000000000e+00,-3.46944695195361e-18
1.01185320102693e+00	1.00000000000000e+00,0.00000000000000e+00
1.01255480735050e+00	1.00000000000000e+00,0.00000000000000e+00
1.01325690015909e+00	1.00000000000000e+00,3.46944695195361e-18
1.01395947979003e+00	1.00000000000000e+00,0.00000000000000e+00
1.01466254658088e+00	1.00000000000000e+00,3.46944695195361e-18
1.01536610086943e+00	1.00000000000000e+00,0.00000000000000e+00
1.01607014299370e+00	1.00000000000000e+00,3.46944695195361e-18
1.01677467329196e+00	1.00000000000000e+00,3.46944695195361e-18
1.01747969210269e+00	1.00000000000000e+00,-3.46944695195361e-18
1.01818519976462e+00	1.00000000000000e+00,0.00000000000000e+00
1.01889119661673e+00	1.00000000000000e+00,0.00000000000000e+00
1.01959768299819e+00	1.00000000000000e+00,0.00000000000000e+00
1.02030465924846e+00	1.00000000000000e+00,0.00000000000000e+00
1.02101212570720e+00	1.00000000000000e+00,0.00000000000000e+00
1.02172008271430e+00	1.00000000000000e+00,0.00000000000000e+00
1.02242853060993e+00	1.00000000000000e+00,0.00000000000000e+00
1.02313746973444e+00	1.00000000000000e+00,0.00000000000000e+00
1.02384690042845e+00	1.00000000000000e+00,0.00000000000000e+00
1.02455682303281e+00	1.00000000000000e+00,0.00000000000000e+00
1.02526723788860e+00	1.00000000000000e+00,0.00000000000000e+00
1.02597814533714e+00	1.00000000000000e+00,0.00000000000000e+00
1.02668954572000e+00	1.00000000000000e+00,0.00000000000000e+00
1.02740143937897e+00	1.00000000000000e+00,0.00000000000000e+00
1.02811382665607e+00	1.00000000000000e+00,0.00000000000000e+00
1.02882670789358e+00	1.00000000000000e+00,0.00000000000000e+00
1.02954008343400e+00	1.00000000000000e+00,6.93889390390723e-18
1.03025395362008e+00	1.00000000000000e+00,-6.93889390390723e-18
1.03096831879479e+00	1.00000000000000e+00,0.00000000000000e+00
1.03168317930136e+00	1.00000000000000e+00,0.00000000000000e+00
1.03239853548325e+00	1.00000000000000e+00,0.00000000000000e+00
1.03311438768414e+00	1.00000000000000e+00,0.00000000000000e+00
1.03383073624797e+00	1.00000000000000e+00,6.93889390390723e-18
1.03454758151891e+00	1.00000000000000e+00,0.00000000000000e+00
1.03526492384138e+00	1.00000000000000e+00,0.00000000000000e+00
1.03598276356002e+00	1.00000000000000e+00,6.93889390390723e-18
1.03670110101973e+00	1.00000000000000e+00,0.00000000000000e+00
1.03741993656562e+00	1.00000000000000e+00,0.00000000000000e+00
1.03813927054306e+00	1.00000000000000e+00,0.00000000000000e+00
1.03885910329767e+00	1.00000000000000e+00,0.00000000000000e+00
1.03957943517528e+00	1.00000000000000e+00,0.00000000000000e+00
1.04030026652199e+00	1.00000000000000e+00,0.00000000000000e+00
1.04102159768412e+00	1.00000000000000e+00,0.00000000000000e+00
1.04174342900823e+00	1.00000000000000e+00,0.00000000000000e+00
1.04246576084113e+00	1.00000000000000e+00,0.00000000000000e+00
1.04318859352986e+00	1.00000000000000e+00,0.00000000000000e+00
1.04391192742173e+00	1.00000000000000e+00,0.00000000000000e+00
1.04463576286424e+00	1.00000000000000e+00,0.00000000000000e+00
1.04536010020517e+00	1.00000000000000e+00,0.00000000000000e+00
1.04608493979254e+00	1.00000000000000e+00,-6.93889390390723e-18
1.04681028197458e+00	1.00000000000000e+00,-6.93889390390723e-18
1.04753612709981e+00	1.00000000000000e+00,0.00000000000000e+00
1.04826247551694e+00	1.00000000000000e+00,0.00000000000000e+00
1.04898932757495e+00	1.00000000000000e+00,-6.93889390390723e-18
1.04971668362308e+00	1.00000000000000e+00,0.00000000000000e+00
1.05044454401076e+00	1.00000000000000e+00,0.00000000000000e+00
1.05117290908771e+00	1.00000000000000e+00,0.00000000000000e+00
1.05190177920388e+00	1.00000000000000e+00,0.00000000000000e+00
1.05263115470945e+00	1.00000000000000e+00,0.00000000000000e+00
1.05336103595484e+00	1.00000000000000e+00,0.00000000000000e+00
1.05409142329075e+00	1.00000000000000e+00,0.00000000000000e+00
1.05482231706807e+00	1.00000000000000e+00,-6.93889390390723e-18
1.05555371763798e+00	1.00000000000000e+00,0.00000000000000e+00
1.05628562535187e+00	1.00000000000000e+00,0.00000000000000e+00
1.05701804056139e+00	1.00000000000000e+00,0.00000000000000e+00
1.05775096361844e+00	1.00000000000000e+00,0.00000000000000e+00
1.05848439487514e+00	1.00000000000000e+00,0.00000000000000e+00
1.05921833468389e+00	1.00000000000000e+00,0.00000000000000e+00
1.05995278339729e+00	1.00000000000000e+00,0.00000000000000e+00
1.06068774136823e+00	1.00000000000000e+00,6.93889390390723e-18
1.06142320894980e+00	1.00000000000000e+00,0.00000000000000e+00
1.06215918649538e+00	1.00000000000000e+00,0.00000000000000e+00
1.06289567435856e+00	1.00000000000000e+00,0.00000000000000e+00
1.06363267289320e+00	1.00000000000000e+00,0.00000000000000e+00
1.06437018245337e+00	1.00000000000000e+00,6.93889390390723e-18
1.06510820339343e+00	1.00000000000000e+00,6.93889390390723e-18
1.06584673606795e+00	1.00000000000000e+00,6.93889390390723e-18
1.06658578083178e+00	1.00000000000000e+00,6.93889390390723e-18
1.06732533803997e+00	1.00000000000000e+00,0.00000000000000e+00
1.06806540804786e+00	1.00000000000000e+00,0.00000000000000e+00
1.06880599121102e+00	1.00000000000000e+00,0.00000000000000e+00
1.06954708788526e+00	1.00000000000000e+00,0.00000000000000e+00
1.07028869842664e+00	1.00000000000000e+00,0.00000000000000e+00
1.07103082319147e+00	1.00000000000000e+00,0.00000000000000e+00
1.07177346253630e+00	1.00000000000000e+00,0.00000000000000e+00
1.07251661681795e+00	1.00000000000000e+00,0.00000000000000e+00
1.07326028639347e+00	1.00000000000000e+00,0.00000000000000e+00
1.07400447162014e+00	1.00000000000000e+00,0.00000000000000e+00
1.07474917285551e+00	1.00000000000000e+00,0.00000000000000e+00
1.07549439045739e+00	1.00000000000000e+00,0.00000000000000e+00
1.07624012478381e+00	1.00000000000000e+00,0.00000000000000e+00
1.07698637619306e+00	1.00000000000000e+00,0.00000000000000e+00
1.07773314504368e+00	1.00000000000000e+00,6.93889390390723e-18
1.07848043169446e+00	1.00000000000000e+00,0.00000000000000e+00
1.07922823650444e+00	1.00000000000000e+00,0.00000000000000e+00
1.07997655983289e+00	1.00000000000000e+00,0.00000000000000e+00
1.08072540203936e+00	1.00000000000000e+00,0.00000000000000e+00
1.08147476348363e+00	1.00000000000000e+00,0.00000000000000e+00
1.08222464452573e+00	1.00000000000000e+00,-6.93889390390723e-18
1.08297504552594e+00	1.00000000000000e+00,0.00000000000000e+00
1.08372596684479e+00	1.00000000000000e+00,0.00000000000000e+00
1.08447740884308e+00	1.00000000000000e+00,0.00000000000000e+00
1.08522937188182e+00	1.00000000000000e+00,0.00000000000000e+00
1.08598185632231e+00	1.00000000000000e+00,0.00000000000000e+00
1.08673486252607e+00	1.00000000000000e+00,0.00000000000000e+00
1.08748839085490e+00	1.00000000000000e+00,0.00000000000000e+00
1.08824244167082e+00	1.00000000000000e+00,0.00000000000000e+00
1.08899701533612e+00	1.00000000000000e+00,0.00000000000000e+00
1.08975211221334e+00	1.00000000000000e+00,0.00000000000000e+00
1.09050773266527e+00	1.00000000000000e+00,0.00000000000000e+00
1.09126387705495e+00	1.00000000000000e+00,0.00000000000000e+00
1.09202054574567e+00	1.00000000000000e+00,-6.93889390390723e-18
1.09277773910097e+00	1.00000000000000e+00,0.00000000000000e+00
1.09353545748465e+00	1.00000000000000e+00,0.00000000000000e+00
1.09429370126075e+00	1.00000000000000e+00,0.00000000000000e+00
1.09505247079359e+00	1.00000000000000e+00,0.00000000000000e+00
1.09581176644771e+00	1.00000000000000e+00,0.00000000000000e+00
1.09657158858791e+00	1.00000000000000e+00,0.00000000000000e+00
1.09733193757926e+00	1.00000000000000e+00,-6.93889390390723e-18
1.09809281378706e+00	1.00000000000000e+00,0.00000000000000e+00
1.09885421757689e+00	1.00000000000000e+00,0.00000000000000e+00
1.09961614931457e+00	1.00000000000000e+00,0.00000000000000e+00
1.10037860936615e+00	1.00000000000000e+00,0.00000000000000e+00
1.10114159809798e+00	1.00000000000000e+00,0.00000000000000e+00
1.10190511587663e+00	1.00000000000000e+00,0.00000000000000e+00
1.10266916306893e+00	1.00000000000000e+00,-6.93889390390723e-18
1.10343374004198e+00	1.00000000000000e+00,0.00000000000000e+00
1.10419884716311e+00	1.00000000000000e+00,0.00000000000000e+00
1.10496448479993e+00	1.00000000000000e+00,0.00000000000000e+00
1.10573065332029e+00	1.00000000000000e+00,6.93889390390723e-18
1.10649735309229e+00	1.00000000000000e+00,6.93889390390723e-18
1.10726458448430e+00	1.00000000000000e+00,0.00000000000000e+00
1.10803234786494e+00	1.00000000000000e+00,6.93889390390723e-18
1.10880064360309e+00	1.00000000000000e+00,0.00000000000000e+00
1.10956947206786e+00	1.00000000000000e+00,6.93889390390723e-18
1.11033883362866e+00	1.00000000000000e+00,0.00000000000000e+00
1.11110872865511e+00	1.00000000000000e+00,0.00000000000000e+00
1.11187915751712e+00	1.00000000000000e+00,0.00000000000000e+00
1.11265012058485e+00	1.00000000000000e+00,0.00000000000000e+00
1.11342161822870e+00	1.00000000000000e+00,0.00000000000000e+00
1.11419365081935e+00	1.00000000000000e+00,0.00000000000000e+00
1.11496621872772e+00	1.00000000000000e+00,-6.93889390390723e-18
1.11573932232498e+00	1.00000000000000e+00,0.00000000000000e+00
1.11651296198259e+00	1.00000000000000e+00,0.00000000000000e+00
1.11728713807224e+00	1.00000000000000e+00,0.00000000000000e+00
1.11806185096588e+00	1.00000000000000e+00,0.00000000000000e+00
1.11883710103573e+00	1.00000000000000e+00,0.00000000000000e+00
1.11961288865426e+00	1.00000000000000e+00,6.93889390390723e-18
1.12038921419420e+00	1.00000000000000e+00,6.93889390390723e-18
1.12116607802853e+00	1.00000000000000e+00,0.00000000000000e+00
1.12194348053050e+00	1.00000000000000e+00,0.00000000000000e+00
1.12272142207363e+00	1.00000000000000e+00,0.00000000000000e+00
1.12349990303166e+00	1.00000000000000e+00,0.00000000000000e+00
1.12427892377864e+00	1.00000000000000e+00,0.00000000000000e+00
1.12505848468883e+00	1.00000000000000e+00,6.93889390390723e-18
1.12583858613678e+00	1.00000000000000e+00,0.00000000000000e+00
1.12661922849730e+00	1.00000000000000e+00,-6.93889390390723e-18
1.12740041214544e+00	1.00000000000000e+00,6.93889390390723e-18
1.12818213745653e+00	1.00000000000000e+00,0.00000000000000e+00
1.12896440480615e+00	1.00000000000000e+00,-6.93889390390723e-18
1.12974721457014e+00	1.00000000000000e+00,0.00000000000000e+00
1.13053056712461e+00	1.00000000000000e+00,0.00000000000000e+00
1.13131446284592e+00	1.00000000000000e+00,0.00000000000000e+00
1.13209890211069e+00	1.00000000000000e+00,6.93889390390723e-18
1.13288388529582e+00	1.00000000000000e+00,0.00000000000000e+00
1.13366941277844e+00	1.00000000000000e+00,0.00000000000000e+00
1.13445548493598e+00	1.00000000000000e+00,0.00000000000000e+00
1.13524210214609e+00	1.00000000000000e+00,0.00000000000000e+00
1.13602926478671e+00	1.00000000000000e+00,0.00000000000000e+00
1.13681697323604e+00	1.00000000000000e+00,0.00000000000000e+00
1.13760522787253e+00	1.00000000000000e+00,0.00000000000000e+00
1.13839402907490e+00	1.00000000000000e+00,-6.93889390390723e-18
1.13918337722214e+00	1.00000000000000e+00,0.00000000000000e+00
1.13997327269348e+00	1.00000000000000e+00,0.00000000000000e+00
1.14076371586845e+00	1.00000000000000e+00,0.00000000000000e+00
1.14155470712680e+00	1.00000000000000e+00,0.00000000000000e+00
1.14234624684857e+00	1.00000000000000e+00,6.93889390390723e-18
1.14313833541406e+00	1.00000000000000e+00,0.00000000000000e+00
1.14393097320383e+00	1.00000000000000e+00,0.00000000000000e+00
1.14472416059871e+00	1.00000000000000e+00,0.00000000000000e+00
1.14551789797978e+00	1.00000000000000e+00,-6.93889390390723e-18
1.14631218572840e+00	1.00000000000000e+00,0.00000000000000e+00
1.14710702422619e+00	1.00000000000000e+00,0.00000000000000e+00
1.14790241385503e+00	1.00000000000000e+00,0.00000000000000e+00
1.14869835499706e+00	1.00000000000000e+00,0.00000000000000e+00
1.14949484803470e+00	1.00000000000000e+00,0.00000000000000e+00
1.15029189335063e+00	1.00000000000000e+00,0.00000000000000e+00
1.15108949132779e+00	1.00000000000000e+00,0.00000000000000e+00
1.15188764234938e+00	1.00000000000000e+00,0.00000000000000e+00
1.15268634679889e+00	1.00000000000000e+00,0.00000000000000e+00
1.15348560506005e+00	1.00000000000000e+00,0.00000000000000e+00
1.15428541751686e+00	1.00000000000000e+00,0.00000000000000e+00
1.15508578455361e+00	1.00000000000000e+00,0.00000000000000e+00
1.15588670655482e+00	1.00000000000000e+00,0.00000000000000e+00
1.15668818390531e+00	1.00000000000000e+00,6.93889390390723e-18
1.15749021699015e+00	1.00000000000000e+00,0.00000000000000e+00
1.15829280619467e+00	1.00000000000000e+00,0.00000000000000e+00
1.15909595190448e+00	1.00000000000000e+00,0.00000000000000e+00
1.15989965450546e+00	1.00000000000000e+00,-6.93889390390723e-18
1.16070391438375e+00	1.00000000000000e+00,0.00000000000000e+00
1.16150873192575e+00	1.00000000000000e+00,0.00000000000000e+00
1.16231410751814e+00	1.00000000000000e+00,0.00000000000000e+00
1.16312004154788e+00	1.00000000000000e+00,0.00000000000000e+00
1.16392653440216e+00	1.00000000000000e+00,0.00000000000000e+00
1.16473358646848e+00	1.00000000000000e+00,0.00000000000000e+00
1.16554119813459e+00	1.00000000000000e+00,0.00000000000000e+00
1.16634936978850e+00	1.00000000000000e+00,0.00000000000000e+00
1.16715810181850e+00	1.00000000000000e+00,0.00000000000000e+00
1.16796739461315e+00	1.00000000000000e+00,0.00000000000000e+00
1.16877724856127e+00	1.00000000000000e+00,0.00000000000000e+00
1.16958766405198e+00	1.00000000000000e+00,-6.93889390390723e-18
1.17039864147462e+00	1.00000000000000e+00,0.00000000000000e+00
1.17121018121884e+00	1.00000000000000e+00,0.00000000000000e+00
1.17202228367454e+00	1.00000000000000e+00,0.00000000000000e+00
1.17283494923191e+00	1.00000000000000e+00,0.00000000000000e+00
1.17364817828138e+00	1.00000000000000e+00,6.93889390390723e-18
1.17446197121368e+00	1.00000000000000e+00,0.00000000000000e+00
1.17527632841980e+00	1.00000000000000e+00,-6.93889390390723e-18
1.17609125029099e+00	1.00000000000000e+00,6.93889390390723e-18
1.17690673721880e+00	1.00000000000000e+00,0.00000000000000e+00
1.17772278959501e+00	1.00000000000000e+00,-6.93889390390723e-18
1.17853940781171e+00	1.00000000000000e+00,0.00000000000000e+00
1.17935659226125e+00	1.00000000000000e+00,0.00000000000000e+00
1.18017434333623e+00	1.00000000000000e+00,0.00000000000000e+00
1.18099266142956e+00	1.00000000000000e+00,0.00000000000000e+00
1.18181154693440e+00	1.00000000000000e+00,0.00000000000000e+00
1.18263100024417e+00	1.00000000000000e+00,0.00000000000000e+00
1.18345102175260e+00	1.00000000000000e+00,0.00000000000000e+00
1.18427161185366e+00	1.00000000000000e+00,0.00000000000000e+00
1.18509277094161e+00	1.00000000000000e+00,0.00000000000000e+00
1.18591449941098e+00	1.00000000000000e+00,0.00000000000000e+00
1.18673679765656e+00	1.00000000000000e+00,0.00000000000000e+00
1.18755966607344e+00	1.00000000000000e+00,-6.93889390390723e-18
1.18838310505696e+00	1.00000000000000e+00,0.00000000000000e+00
1.18920711500275e+00	1.00000000000000e+00,0.00000000000000e+00
1.19003169630671e+00	1.00000000000000e+00,0.00000000000000e+00
1.19085684936500e+00	1.00000000000000e+00,-6.93889390390723e-18
1.19168257457408e+00	1.00000000000000e+00,0.00000000000000e+00
1.19250887233066e+00	1.00000000000000e+00,0.00000000000000e+00
1.19333574303176e+00	1.00000000000000e+00,0.00000000000000e+00
1.19416318707462e+00	1.00000000000000e+00,0.00000000000000e+00
1.19499120485682e+00	1.00000000000000e+00,0.00000000000000e+00
1.19581979677616e+00	1.00000000000000e+00,-6.93889390390723e-18
1.19664896323075e+00	1.00000000000000e+00,0.00000000000000e+00
1.19747870461896e+00	1.00000000000000e+00,-6.93889390390723e-18
1.19830902133945e+00	1.00000000000000e+00,0.00000000000000e+00
1.19913991379115e+00	1.00000000000000e+00,0.00000000000000e+00
1.19997138237325e+00	1.00000000000000e+00,-6.93889390390723e-18
1.20080342748524e+00	1.00000000000000e+00,6.93889390390723e-18
1.20163604952689e+00	1.00000000000000e+00,6.93889390390723e-18
1.20246924889821e+00	1.00000000000000e+00,0.00000000000000e+00
1.20330302599954e+00	1.00000000000000e+00,0.00000000000000e+00
1.20413738123145e+00	1.00000000000000e+00,6.93889390390723e-18
1.20497231499482e+00	1.00000000000000e+00,-6.93889390390723e-18
1.20580782769080e+00	1.00000000000000e+00,-6.93889390390723e-18
1.20664391972080e+00	1.00000000000000e+00,0.00000000000000e+00
1.20748059148653e+00	1.00000000000000e+00,0.00000000000000e+00
1.20831784338998e+00	1.00000000000000e+00,0.00000000000000e+00
1.20915567583340e+00	1.00000000000000e+00,0.00000000000000e+00
1.20999408921933e+00	1.00000000000000e+00,0.00000000000000e+00
1.21083308395059e+00	1.00000000000000e+00,0.00000000000000e+00
1.21167266043028e+00	1.00000000000000e+00,0.00000000000000e+00
1.21251281906177e+00	1.00000000000000e+00,0.00000000000000e+00
1.21335356024873e+00	1.00000000000000e+00,-6.93889390390723e-18
1.21419488439508e+00	1.00000000000000e+00,0.00000000000000e+00
1.21503679190505e+00	1.00000000000000e+00,0.00000000000000e+00
1.21587928318313e+00	1.00000000000000e+00,6.93889390390723e-18
1.21672235863411e+00	1.00000000000000e+00,0.00000000000000e+00
1.21756601866302e+00	1.00000000000000e+00,0.00000000000000e+00
1.21841026367523e+00	1.00000000000000e+00,0.00000000000000e+00
1.21925509407634e+00	1.00000000000000e+00,-6.93889390390723e-18
1.22010051027226e+00	1.00000000000000e+00,0.00000000000000e+00
1.22094651266917e+00	1.00000000000000e+00,0.00000000000000e+00
1.22179310167354e+00	1.00000000000000e+00,-6.93889390390723e-18
1.22264027769211e+00	1.00000000000000e+00,0.00000000000000e+00
1.22348804113190e+00	1.00000000000000e+00,0.00000000000000e+00
1.22433639240024e+00	1.00000000000000e+00,-6.93889390390723e-18
1.22518533190472e+00	1.00000000000000e+00,-6.93889390390723e-18
1.22603486005320e+00	1.00000000000000e+00,6.93889390390723e-18
1.22688497725384e+00	1.00000000000000e+00,6.93889390390723e-18
1.22773568391510e+00	1.00000000000000e+00,0.00000000000000e+00
1.22858698044569e+00	1.00000000000000e+00,0.00000000000000e+00
1.22943886725462e+00	1.00000000000000e+00,0.00000000000000e+00
1.23029134475118e+00	1.00000000000000e+00,0.00000000000000e+00
1.23114441334496e+00	1.00000000000000e+00,0.00000000000000e+00
1.23199807344580e+00	1.00000000000000e+00,6.93889390390723e-18
1.23285232546385e+00	1.00000000000000e+00,0.00000000000000e+00
1.23370716980954e+00	1.00000000000000e+00,0.00000000000000e+00
1.23456260689358e+00	1.00000000000000e+00,6.93889390390723e-18
1.23541863712697e+00	1.00000000000000e+00,0.00000000000000e+00
1.23627526092099e+00	1.00000000000000e+00,0.00000000000000e+00
1.23713247868721e+00	1.00000000000000e+00,0.00000000000000e+00
1.23799029083749e+00	1.00000000000000e+00,0.00000000000000e+00
1.23884869778395e+00	1.00000000000000e+00,0.00000000000000e+00
1.23970769993903e+00	1.00000000000000e+00,6.93889390390723e-18
1.24056729771543e+00	1.00000000000000e+00,0.00000000000000e+00
1.24142749152615e+00	1.00000000000000e+00,0.00000000000000e+00
1.24228828178448e+00	1.00000000000000e+00,-6.93889390390723e-18
1.24314966890398e+00	1.00000000000000e+00,6.93889390390723e-18
1.24401165329851e+00	1.00000000000000e+00,0.00000000000000e+00
