Freq.	V(vout)
2.00000000000000e+01	9.96097291117267e-01,-6.23808365313615e-02
2.01391110011344e+01	9.96043026691406e-01,-6.28113110273509e-02
2.02791895958006e+01	9.95988010792715e-01,-6.32447082620955e-02
2.04202425141439e+01	9.95932233099531e-01,-6.36810470769980e-02
2.05622765331213e+01	9.95875683150803e-01,-6.41203464137210e-02
2.07052984768276e+01	9.95818350344273e-01,-6.45626253142530e-02
2.08493152168224e+01	9.95760223934640e-01,-6.50079029209638e-02
2.09943336724614e+01	9.95701293031696e-01,-6.54561984766457e-02
2.11403608112276e+01	9.95641546598452e-01,-6.59075313245431e-02
2.12874036490672e+01	9.95580973449229e-01,-6.63619209083681e-02
2.14354692507259e+01	9.95519562247729e-01,-6.68193867723031e-02
2.15845647300886e+01	9.95457301505094e-01,-6.72799485609890e-02
2.17346972505212e+01	9.95394179577925e-01,-6.77436260194991e-02
2.18858740252148e+01	9.95330184666292e-01,-6.82104389932988e-02
2.20381023175322e+01	9.95265304811712e-01,-6.86804074281896e-02
2.21913894413569e+01	9.95199527895108e-01,-6.91535513702381e-02
2.23457427614444e+01	9.95132841634741e-01,-6.96298909656888e-02
2.25011696937762e+01	9.95065233584124e-01,-7.01094464608614e-02
2.26576777059160e+01	9.94996691129898e-01,-7.05922382020299e-02
2.28152743173685e+01	9.94927201489704e-01,-7.10782866352866e-02
2.29739670999407e+01	9.94856751710010e-01,-7.15676123063869e-02
2.31337636781058e+01	9.94785328663927e-01,-7.20602358605767e-02
2.32946717293691e+01	9.94712919048997e-01,-7.25561780424023e-02
2.34566989846376e+01	9.94639509384946e-01,-7.30554596954996e-02
2.36198532285906e+01	9.94565086011430e-01,-7.35581017623657e-02
2.37841423000545e+01	9.94489635085736e-01,-7.40641252841096e-02
2.39495740923786e+01	9.94413142580472e-01,-7.45735514001833e-02
2.41161565538152e+01	9.94335594281221e-01,-7.50864013480914e-02
2.42838976879010e+01	9.94256975784176e-01,-7.56026964630806e-02
2.44528055538414e+01	9.94177272493742e-01,-7.61224581778057e-02
2.46228882668984e+01	9.94096469620118e-01,-7.66457080219750e-02
2.47941539987798e+01	9.94014552176845e-01,-7.71724676219717e-02
2.49666109780323e+01	9.93931504978335e-01,-7.77027587004524e-02
2.51402674904366e+01	9.93847312637366e-01,-7.82366030759219e-02
2.53151318794057e+01	9.93761959562552e-01,-7.87740226622826e-02
2.54912125463853e+01	9.93675429955786e-01,-7.93150394683600e-02
2.56685179512581e+01	9.93587707809658e-01,-7.98596755974014e-02
2.58470566127499e+01	9.93498776904838e-01,-8.04079532465494e-02
2.60268371088387e+01	9.93408620807435e-01,-8.09598947062879e-02
2.62078680771673e+01	9.93317222866332e-01,-8.15155223598608e-02
2.63901582154580e+01	9.93224566210484e-01,-8.20748586826624e-02
2.65737162819303e+01	9.93130633746193e-01,-8.26379262415995e-02
2.67585510957223e+01	9.93035408154354e-01,-8.32047476944241e-02
2.69446715373139e+01	9.92938871887671e-01,-8.37753457890350e-02
2.71320865489535e+01	9.92841007167843e-01,-8.43497433627506e-02
2.73208051350880e+01	9.92741795982722e-01,-8.49279633415484e-02
2.75108363627950e+01	9.92641220083443e-01,-8.55100287392734e-02
2.77021893622186e+01	9.92539260981522e-01,-8.60959626568137e-02
2.78948733270082e+01	9.92435899945926e-01,-8.66857882812420e-02
2.80888975147600e+01	9.92331118000114e-01,-8.72795288849232e-02
2.82842712474620e+01	9.92224895919045e-01,-8.78772078245872e-02
2.84810039119415e+01	9.92117214226160e-01,-8.84788485403651e-02
2.86791049603166e+01	9.92008053190330e-01,-8.90844745547899e-02
2.88785839104500e+01	9.91897392822779e-01,-8.96941094717587e-02
2.90794503464063e+01	9.91785212873971e-01,-9.03077769754577e-02
2.92817139189126e+01	9.91671492830474e-01,-9.09255008292478e-02
2.94853843458221e+01	9.91556211911781e-01,-9.15473048745100e-02
2.96904714125811e+01	9.91439349067117e-01,-9.21732130294509e-02
2.98969849726989e+01	9.91320882972203e-01,-9.28032492878663e-02
3.01049349482215e+01	9.91200792025993e-01,-9.34374377178623e-02
3.03143313302081e+01	9.91079054347384e-01,-9.40758024605330e-02
3.05251841792113e+01	9.90955647771889e-01,-9.47183677285946e-02
3.07375036257604e+01	9.90830549848284e-01,-9.53651578049736e-02
3.09512998708479e+01	9.90703737835226e-01,-9.60161970413498e-02
3.11665831864201e+01	9.90575188697829e-01,-9.66715098566514e-02
3.13833639158702e+01	9.90444879104227e-01,-9.73311207355028e-02
3.16016524745352e+01	9.90312785422090e-01,-9.79950542266232e-02
3.18214593501969e+01	9.90178883715120e-01,-9.86633349411754e-02
3.20427951035850e+01	9.90043149739510e-01,-9.93359875510630e-02
3.22656703688852e+01	9.89905558940377e-01,-1.00013036787177e-01
3.24900958542496e+01	9.89766086448160e-01,-1.00694507437588e-01
3.27160823423114e+01	9.89624707074993e-01,-1.01380424345683e-01
3.29436406907031e+01	9.89481395311042e-01,-1.02070812408255e-01
3.31727818325778e+01	9.89336125320814e-01,-1.02765696573521e-01
3.34035167771350e+01	9.89188870939440e-01,-1.03465101839099e-01
3.36358566101488e+01	9.89039605668920e-01,-1.04169053249918e-01
3.38698124945013e+01	9.88888302674343e-01,-1.04877575896065e-01
3.41053956707185e+01	9.88734934780080e-01,-1.05590694910582e-01
3.43426174575103e+01	9.88579474465939e-01,-1.06308435467191e-01
3.45814892523148e+01	9.88421893863299e-01,-1.07030822777961e-01
3.48220225318452e+01	9.88262164751213e-01,-1.07757882090910e-01
3.50642288526416e+01	9.88100258552474e-01,-1.08489638687536e-01
3.53081198516264e+01	9.87936146329667e-01,-1.09226117880293e-01
3.55537072466630e+01	9.87769798781182e-01,-1.09967345009984e-01
3.58010028371191e+01	9.87601186237196e-01,-1.10713345443098e-01
3.60500185044334e+01	9.87430278655644e-01,-1.11464144569066e-01
3.63007662126867e+01	9.87257045618140e-01,-1.12219767797453e-01
3.65532580091762e+01	9.87081456325888e-01,-1.12980240555069e-01
3.68075060249952e+01	9.86903479595562e-01,-1.13745588283011e-01
3.70635224756151e+01	9.86723083855154e-01,-1.14515836433627e-01
3.73213196614725e+01	9.86540237139801e-01,-1.15291010467401e-01
3.75809099685607e+01	9.86354907087588e-01,-1.16071135849764e-01
3.78423058690241e+01	9.86167060935324e-01,-1.16856238047814e-01
3.81055199217578e+01	9.85976665514288e-01,-1.17646342526970e-01
3.83705647730108e+01	9.85783687245962e-01,-1.18441474747525e-01
3.86374531569941e+01	9.85588092137733e-01,-1.19241660161130e-01
3.89061978964917e+01	9.85389845778572e-01,-1.20046924207180e-01
3.91768119034774e+01	9.85188913334696e-01,-1.20857292309122e-01
3.94493081797347e+01	9.84985259545200e-01,-1.21672789870663e-01
3.97236998174817e+01	9.84778848717678e-01,-1.22493442271896e-01
4.00000000000003e+01	9.84569644723816e-01,-1.23319274865329e-01
4.02782220022691e+01	9.84357610994971e-01,-1.24150312971822e-01
4.05583791916015e+01	9.84142710517722e-01,-1.24986581876427e-01
4.08404850282880e+01	9.83924905829416e-01,-1.25828106824133e-01
4.11245530662430e+01	9.83704159013689e-01,-1.26674913015506e-01
4.14105969536554e+01	9.83480431695967e-01,-1.27527025602235e-01
4.16986304336452e+01	9.83253685038964e-01,-1.28384469682577e-01
4.19886673449230e+01	9.83023879738150e-01,-1.29247270296686e-01
4.22807216224556e+01	9.82790976017222e-01,-1.30115452421853e-01
4.25748072981347e+01	9.82554933623546e-01,-1.30989040967625e-01
4.28709385014521e+01	9.82315711823601e-01,-1.31868060770823e-01
4.31691294601774e+01	9.82073269398406e-01,-1.32752536590443e-01
4.34693945010427e+01	9.81827564638938e-01,-1.33642493102452e-01
4.37717480504299e+01	9.81578555341545e-01,-1.34537954894460e-01
4.40762046350648e+01	9.81326198803350e-01,-1.35438946460284e-01
4.43827788827142e+01	9.81070451817648e-01,-1.36345492194390e-01
4.46914855228892e+01	9.80811270669304e-01,-1.37257616386217e-01
4.50023393875528e+01	9.80548611130143e-01,-1.38175343214373e-01
4.53153554118323e+01	9.80282428454342e-01,-1.39098696740719e-01
4.56305486347374e+01	9.80012677373819e-01,-1.40027700904315e-01
4.59479341998818e+01	9.79739312093629e-01,-1.40962379515251e-01
4.62675273562119e+01	9.79462286287355e-01,-1.41902756248334e-01
4.65893434587387e+01	9.79181553092512e-01,-1.42848854636660e-01
4.69133979692756e+01	9.78897065105955e-01,-1.43800698065039e-01
4.72397064571817e+01	9.78608774379290e-01,-1.44758309763296e-01
4.75682846001093e+01	9.78316632414303e-01,-1.45721712799426e-01
4.78991481847576e+01	9.78020590158399e-01,-1.46690930072618e-01
4.82323131076309e+01	9.77720598000047e-01,-1.47665984306131e-01
4.85677953758023e+01	9.77416605764253e-01,-1.48646898040034e-01
4.89056111076832e+01	9.77108562708045e-01,-1.49633693623797e-01
4.92457765337971e+01	9.76796417515973e-01,-1.50626393208734e-01
4.95883079975600e+01	9.76480118295641e-01,-1.51625018740306e-01
4.99332219560650e+01	9.76159612573257e-01,-1.52629591950262e-01
5.02805349808736e+01	9.75834847289211e-01,-1.53640134348634e-01
5.06302637588117e+01	9.75505768793681e-01,-1.54656667215581e-01
5.09824250927710e+01	9.75172322842278e-01,-1.55679211593064e-01
5.13370359025167e+01	9.74834454591709e-01,-1.56707788276379e-01
5.16941132255002e+01	9.74492108595497e-01,-1.57742417805516e-01
5.20536742176779e+01	9.74145228799723e-01,-1.58783120456365e-01
5.24157361543351e+01	9.73793758538821e-01,-1.59829916231749e-01
5.27803164309163e+01	9.73437640531409e-01,-1.60882824852301e-01
5.31474325638610e+01	9.73076816876179e-01,-1.61941865747166e-01
5.35171021914451e+01	9.72711229047828e-01,-1.63007058044535e-01
5.38893430746282e+01	9.72340817893046e-01,-1.64078420562003e-01
5.42641730979075e+01	9.71965523626564e-01,-1.65155971796767e-01
5.46416102701764e+01	9.71585285827255e-01,-1.66239729915628e-01
5.50216727255904e+01	9.71200043434309e-01,-1.67329712744832e-01
5.54043787244376e+01	9.70809734743464e-01,-1.68425937759727e-01
5.57897466540169e+01	9.70414297403316e-01,-1.69528422074233e-01
5.61777950295205e+01	9.70013668411696e-01,-1.70637182430139e-01
5.65685424949245e+01	9.69607784112132e-01,-1.71752235186208e-01
5.69620078238835e+01	9.69196580190388e-01,-1.72873596307098e-01
5.73582099206338e+01	9.68779991671084e-01,-1.74001281352095e-01
5.77571678209005e+01	9.68357952914419e-01,-1.75135305463659e-01
5.81589006928131e+01	9.67930397612972e-01,-1.76275683355771e-01
5.85634278378257e+01	9.67497258788609e-01,-1.77422429302098e-01
5.89707686916448e+01	9.67058468789490e-01,-1.78575557123953e-01
5.93809428251627e+01	9.66613959287184e-01,-1.79735080178065e-01
5.97939699453983e+01	9.66163661273890e-01,-1.80901011344151e-01
6.02098698964434e+01	9.65707505059778e-01,-1.82073363012289e-01
6.06286626604167e+01	9.65245420270443e-01,-1.83252147070087e-01
6.10503683584231e+01	9.64777335844496e-01,-1.84437374889657e-01
6.14750072515213e+01	9.64303180031270e-01,-1.85629057314381e-01
6.19025997416964e+01	9.63822880388669e-01,-1.86827204645475e-01
6.23331663728408e+01	9.63336363781154e-01,-1.88031826628348e-01
6.27667278317409e+01	9.62843556377877e-01,-1.89242932438755e-01
6.32033049490710e+01	9.62344383650960e-01,-1.90460530668741e-01
6.36429187003943e+01	9.61838770373929e-01,-1.91684629312381e-01
6.40855902071706e+01	9.61326640620318e-01,-1.92915235751305e-01
6.45313407377709e+01	9.60807917762428e-01,-1.94152356740020e-01
6.49801917084997e+01	9.60282524470266e-01,-1.95395998391015e-01
6.54321646846233e+01	9.59750382710660e-01,-1.96646166159662e-01
6.58872813814067e+01	9.59211413746555e-01,-1.97902864828901e-01
6.63455636651562e+01	9.58665538136509e-01,-1.99166098493711e-01
6.68070335542704e+01	9.58112675734371e-01,-2.00435870545377e-01
6.72717132202981e+01	9.57552745689178e-01,-2.01712183655538e-01
6.77396249890031e+01	9.56985666445247e-01,-2.02995039760024e-01
6.82107913414375e+01	9.56411355742490e-01,-2.04284440042481e-01
6.86852349150212e+01	9.55829730616955e-01,-2.05580384917785e-01
6.91629785046302e+01	9.55240707401588e-01,-2.06882874015241e-01
6.96440450636909e+01	9.54644201727235e-01,-2.08191906161576e-01
7.01284577052838e+01	9.54040128523890e-01,-2.09507479363716e-01
7.06162397032534e+01	9.53428402022191e-01,-2.10829590791353e-01
7.11074144933266e+01	9.52808935755172e-01,-2.12158236759305e-01
7.16020056742388e+01	9.52181642560282e-01,-2.13493412709669e-01
7.21000370088674e+01	9.51546434581675e-01,-2.14835113193759e-01
7.26015324253739e+01	9.50903223272788e-01,-2.16183331853848e-01
7.31065160183531e+01	9.50251919399189e-01,-2.17538061404699e-01
7.36150120499911e+01	9.49592433041742e-01,-2.18899293614891e-01
7.41270449512307e+01	9.48924673600059e-01,-2.20267019287953e-01
7.46426393229457e+01	9.48248549796272e-01,-2.21641228243291e-01
7.51618199371220e+01	9.47563969679121e-01,-2.23021909296919e-01
7.56846117380488e+01	9.46870840628375e-01,-2.24409050241996e-01
7.62110398435161e+01	9.46169069359579e-01,-2.25802637829174e-01
7.67411295460223e+01	9.45458561929157e-01,-2.27202657746754e-01
7.72749063139888e+01	9.44739223739863e-01,-2.28609094600651e-01
7.78123957929840e+01	9.44010959546590e-01,-2.30021931894187e-01
7.83536238069553e+01	9.43273673462557e-01,-2.31441152007694e-01
7.88986163594699e+01	9.42527268965868e-01,-2.32866736177945e-01
7.94473996349641e+01	9.41771648906467e-01,-2.34298664477415e-01
8.00000000000012e+01	9.41006715513480e-01,-2.35736915793367e-01
8.05564440045387e+01	9.40232370402973e-01,-2.37181467806785e-01
8.11167583832036e+01	9.39448514586116e-01,-2.38632296971137e-01
8.16809700565767e+01	9.38655048477781e-01,-2.40089378490990e-01
8.22491061324866e+01	9.37851871905563e-01,-2.41552686300478e-01
8.28211939073115e+01	9.37038884119250e-01,-2.43022193041619e-01
8.33972608672910e+01	9.36215983800746e-01,-2.44497870042501e-01
8.39773346898467e+01	9.35383069074451e-01,-2.45979687295336e-01
8.45614432449118e+01	9.34540037518114e-01,-2.47467613434383e-01
8.51496145962701e+01	9.33686786174167e-01,-2.48961615713760e-01
8.57418770029048e+01	9.32823211561546e-01,-2.50461659985136e-01
8.63382589203556e+01	9.31949209688015e-01,-2.51967710675327e-01
8.69387890020860e+01	9.31064676062994e-01,-2.53479730763789e-01
8.75434961008606e+01	9.30169505710908e-01,-2.54997681760024e-01
8.81524092701303e+01	9.29263593185066e-01,-2.56521523680907e-01
8.87655577654290e+01	9.28346832582069e-01,-2.58051215027936e-01
8.93829710457790e+01	9.27419117556776e-01,-2.59586712764424e-01
9.00046787751062e+01	9.26480341337813e-01,-2.61127972292637e-01
9.06307108236654e+01	9.25530396743660e-01,-2.62674947430881e-01
9.12610972694754e+01	9.24569176199301e-01,-2.64227590390565e-01
9.18958683997643e+01	9.23596571753472e-01,-2.65785851753232e-01
9.25350547124245e+01	9.22612475096485e-01,-2.67349680447582e-01
9.31786869174780e+01	9.21616777578669e-01,-2.68919023726487e-01
9.38267959385519e+01	9.20609370229417e-01,-2.70493827144029e-01
9.44794129143640e+01	9.19590143776852e-01,-2.72074034532541e-01
9.51365692002193e+01	9.18558988668124e-01,-2.73659587979700e-01
9.57982963695159e+01	9.17515795090345e-01,-2.75250427805656e-01
9.64646262152625e+01	9.16460452992170e-01,-2.76846492540222e-01
9.71355907516054e+01	9.15392852106036e-01,-2.78447718900147e-01
9.78112222153672e+01	9.14312881971058e-01,-2.80054041766462e-01
9.84915530675950e+01	9.13220431956603e-01,-2.81665394161943e-01
9.91766159951206e+01	9.12115391286542e-01,-2.83281707228679e-01
9.98664439121307e+01	9.10997649064183e-01,-2.84902910205784e-01
1.00561069961748e+02	9.09867094297909e-01,-2.86528930407244e-01
1.01260527517624e+02	9.08723615927508e-01,-2.88159693199943e-01
1.01964850185543e+02	9.07567102851219e-01,-2.89795121981856e-01
1.02674071805034e+02	9.06397443953488e-01,-2.91435138160453e-01
1.03388226451001e+02	9.05214528133452e-01,-2.93079661131306e-01
1.04107348435357e+02	9.04018244334145e-01,-2.94728608256944e-01
1.04831472308671e+02	9.02808481572441e-01,-2.96381894845946e-01
1.05560632861833e+02	9.01585128969738e-01,-2.98039434132312e-01
1.06294865127723e+02	9.00348075783384e-01,-2.99701137255126e-01
1.07034204382891e+02	8.99097211438852e-01,-3.01366913238524e-01
1.07778686149257e+02	8.97832425562674e-01,-3.03036668971996e-01
1.08528346195816e+02	8.96553608016124e-01,-3.04710309191034e-01
1.09283220540354e+02	8.95260648929669e-01,-3.06387736458156e-01
1.10043345451182e+02	8.93953438738185e-01,-3.08068851144326e-01
1.10808757448876e+02	8.92631868216934e-01,-3.09753551410775e-01
1.11579493308035e+02	8.91295828518314e-01,-3.11441733191282e-01
1.12355590059042e+02	8.89945211209380e-01,-3.13133290174891e-01
1.13137084989850e+02	8.88579908310136e-01,-3.14828113789131e-01
1.13924015647768e+02	8.87199812332599e-01,-3.16526093183728e-01
1.14716419841268e+02	8.85804816320637e-01,-3.18227115214861e-01
1.15514335641802e+02	8.84394813890571e-01,-3.19931064429961e-01
1.16317801385627e+02	8.82969699272563e-01,-3.21637823053099e-01
1.17126855675652e+02	8.81529367352755e-01,-3.23347270970972e-01
1.17941537383290e+02	8.80073713716185e-01,-3.25059285719526e-01
1.18761885650326e+02	8.78602634690464e-01,-3.26773742471229e-01
1.19587939890797e+02	8.77116027390206e-01,-3.28490514023026e-01
1.20419739792888e+02	8.75613789762219e-01,-3.30209470785013e-01
1.21257325320834e+02	8.74095820631442e-01,-3.31930480769829e-01
1.22100736716847e+02	8.72562019747624e-01,-3.33653409582828e-01
1.22950014503043e+02	8.71012287832737e-01,-3.35378120413022e-01
1.23805199483394e+02	8.69446526629120e-01,-3.37104474024862e-01
1.24666332745682e+02	8.67864638948341e-01,-3.38832328750843e-01
1.25533455663483e+02	8.66266528720767e-01,-3.40561540484994e-01
1.26406609898143e+02	8.64652101045833e-01,-3.42291962677267e-01
1.27285837400790e+02	8.63021262243002e-01,-3.44023446328851e-01
1.28171180414342e+02	8.61373919903397e-01,-3.45755839988446e-01
1.29062681475543e+02	8.59709982942101e-01,-3.47488989749522e-01
1.29960383417000e+02	8.58029361651098e-01,-3.49222739248592e-01
1.30864329369248e+02	8.56331967752853e-01,-3.50956929664531e-01
1.31774562762814e+02	8.54617714454509e-01,-3.52691399718957e-01
1.32691127330313e+02	8.52886516502682e-01,-3.54425985677729e-01
1.33614067108542e+02	8.51138290238842e-01,-3.56160521353556e-01
1.34543426440597e+02	8.49372953655255e-01,-3.57894838109776e-01
1.35479249978007e+02	8.47590426451463e-01,-3.59628764865314e-01
1.36421582682876e+02	8.45790630091302e-01,-3.61362128100861e-01
1.37370469830043e+02	8.43973487860395e-01,-3.63094751866285e-01
1.38325957009261e+02	8.42138924924147e-01,-3.64826457789329e-01
1.39288090127383e+02	8.40286868386170e-01,-3.66557065085585e-01
1.40256915410569e+02	8.38417247347150e-01,-3.68286390569818e-01
1.41232479406508e+02	8.36529992964098e-01,-3.70014248668622e-01
1.42214828986654e+02	8.34625038509987e-01,-3.71740451434471e-01
1.43204011348479e+02	8.32702319433719e-01,-3.73464808561167e-01
1.44200074017736e+02	8.30761773420412e-01,-3.75187127400721e-01
1.45203064850749e+02	8.28803340451959e-01,-3.76907212981699e-01
1.46213032036707e+02	8.26826962867842e-01,-3.78624868029042e-01
1.47230024099983e+02	8.24832585426157e-01,-3.80339892985392e-01
1.48254089902463e+02	8.22820155364817e-01,-3.82052086033959e-01
1.49285278645892e+02	8.20789622462898e-01,-3.83761243122932e-01
1.50323639874245e+02	8.18740939102092e-01,-3.85467157991470e-01
1.51369223476099e+02	8.16674060328227e-01,-3.87169622197287e-01
1.52422079687033e+02	8.14588943912815e-01,-3.88868425145860e-01
1.53482259092046e+02	8.12485550414581e-01,-3.90563354121277e-01
1.54549812627979e+02	8.10363843240949e-01,-3.92254194318730e-01
1.55624791585969e+02	8.08223788709422e-01,-3.93940728878702e-01
1.56707247613912e+02	8.06065356108819e-01,-3.95622738922828e-01
1.57797232718941e+02	8.03888517760328e-01,-3.97300003591479e-01
1.58894799269929e+02	8.01693249078331e-01,-3.98972300083056e-01
1.60000000000004e+02	7.99479528630941e-01,-4.00639403695034e-01
1.61112888009079e+02	7.97247338200213e-01,-4.02301087866746e-01
1.62233516766408e+02	7.94996662841978e-01,-4.03957124223928e-01
1.63361940113155e+02	7.92727490945253e-01,-4.05607282625038e-01
1.64498212264974e+02	7.90439814291163e-01,-4.07251331209353e-01
1.65642387814624e+02	7.88133628111344e-01,-4.08889036446849e-01
1.66794521734583e+02	7.85808931145750e-01,-4.10520163189870e-01
1.67954669379695e+02	7.83465725699836e-01,-4.12144474726605e-01
1.69122886489825e+02	7.81104017701036e-01,-4.13761732836341e-01
1.70299229192542e+02	7.78723816754505e-01,-4.15371697846539e-01
1.71483754005811e+02	7.76325136198052e-01,-4.16974128691685e-01
1.72676517840712e+02	7.73907993156214e-01,-4.18568782973955e-01
